 isweep, gm, i_id, id, i_cgg, cgg, i_cgs, cgs, i_cgd, cgd, i_cds, cds, i_css, css, i_cdd, cdd, i_gds, gds, i_vth, vth, i_vdsat, vdsat, i_vgs, vgs, i_vds, vds, i_rds, rds, i_wt, wt, i_ft, ft, i_gm_id, gm_id, L, pdk
 1.00000000e-09, 2.97582385e-08, 1.00000000e-09, 9.99623930e-10, 1.00000000e-09, 6.88853500e-16, 1.00000000e-09 -1.81967585e-16, 1.00000000e-09, 4.64154572e-20, 1.00000000e-09, 1.07375393e-16, 1.00000000e-09, 1.60648231e-16, 1.00000000e-09, 1.26644177e-19, 1.00000000e-09, 8.62858540e-10, 1.00000000e-09, 6.92978687e-01, 1.00000000e-09, 3.73159768e-02, 1.00000000e-09, 3.76743481e-01, 1.00000000e-09, 3.76743481e-01, 1.00000000e-09, 1.15893852e+09, 1.00000000e-09, 4.31996622e+07, 1.00000000e-09, 6.87543978e+06, 1.00000000e-09, 2.97694339e+01 , .250, SKY130
 1.50000000e-09, 4.46111783e-08, 1.50000000e-09, 1.50583328e-09, 1.50000000e-09, 7.02740035e-16, 1.50000000e-09 -2.02566537e-16, 1.50000000e-09, 5.79495058e-20, 1.50000000e-09, 1.18477227e-16, 1.50000000e-09, 1.77275181e-16, 1.50000000e-09, 1.23867855e-19, 1.50000000e-09, 1.27857448e-09, 1.50000000e-09, 6.92978179e-01, 1.50000000e-09, 3.73238129e-02, 1.50000000e-09, 3.90152506e-01, 1.50000000e-09, 3.90152506e-01, 1.50000000e-09, 7.82121040e+08, 1.50000000e-09, 6.34817658e+07, 1.50000000e-09, 1.01034368e+07, 1.50000000e-09, 2.96255759e+01 , .250, SKY130
 2.00000000e-09, 5.94301227e-08, 2.00000000e-09, 2.01415193e-09, 2.00000000e-09, 7.13557067e-16, 2.00000000e-09 -2.18358513e-16, 2.00000000e-09, 6.59346431e-20, 2.00000000e-09, 1.26910107e-16, 2.00000000e-09, 1.89905647e-16, 2.00000000e-09, 1.22394912e-19, 2.00000000e-09, 1.69054323e-09, 2.00000000e-09, 6.92977817e-01, 2.00000000e-09, 3.73316081e-02, 2.00000000e-09, 3.99716429e-01, 2.00000000e-09, 3.99716428e-01, 2.00000000e-09, 5.91525837e+08, 2.00000000e-09, 8.32871336e+07, 2.00000000e-09, 1.32555590e+07, 2.00000000e-09, 2.95062759e+01 , .250, SKY130
 2.50000000e-09, 7.36944459e-08, 2.50000000e-09, 2.50610181e-09, 2.50000000e-09, 7.22226057e-16, 2.50000000e-09 -2.30883640e-16, 2.50000000e-09, 7.17871293e-20, 2.50000000e-09, 1.33554261e-16, 2.50000000e-09, 1.99857436e-16, 2.50000000e-09, 1.21577171e-19, 2.50000000e-09, 2.08541315e-09, 2.50000000e-09, 6.92977544e-01, 2.50000000e-09, 3.73391002e-02, 2.50000000e-09, 4.06930402e-01, 2.50000000e-09, 4.06930401e-01, 2.50000000e-09, 4.79521289e+08, 2.50000000e-09, 1.02037922e+08, 2.50000000e-09, 1.62398396e+07, 2.50000000e-09, 2.94060064e+01 , .250, SKY130
 3.00000000e-09, 8.79964362e-08, 3.00000000e-09, 3.00168544e-09, 3.00000000e-09, 7.29742177e-16, 3.00000000e-09 -2.41661770e-16, 3.00000000e-09, 7.65043959e-20, 3.00000000e-09, 1.39242347e-16, 3.00000000e-09, 2.08377469e-16, 3.00000000e-09, 1.21098386e-19, 3.00000000e-09, 2.48018364e-09, 3.00000000e-09, 6.92977318e-01, 3.00000000e-09, 3.73466061e-02, 3.00000000e-09, 4.12907277e-01, 3.00000000e-09, 4.12907277e-01, 3.00000000e-09, 4.03195950e+08, 3.00000000e-09, 1.20585652e+08, 3.00000000e-09, 1.91918026e+07, 3.00000000e-09, 2.93156754e+01 , .250, SKY130
 3.50000000e-09, 1.02337541e-07, 3.50000000e-09, 3.50076613e-09, 3.50000000e-09, 7.36408256e-16, 3.50000000e-09 -2.51164646e-16, 3.50000000e-09, 8.04304231e-20, 3.50000000e-09, 1.44236048e-16, 3.50000000e-09, 2.15857596e-16, 3.50000000e-09, 1.20836587e-19, 3.50000000e-09, 2.87520377e-09, 3.50000000e-09, 6.92977124e-01, 3.50000000e-09, 3.73541299e-02, 3.50000000e-09, 4.18017428e-01, 3.50000000e-09, 4.18017427e-01, 3.50000000e-09, 3.47801437e+08, 3.50000000e-09, 1.38968486e+08, 3.50000000e-09, 2.21175215e+07, 3.50000000e-09, 2.92328984e+01 , .250, SKY130
 4.00000000e-09, 1.16636848e-07, 4.00000000e-09, 4.00036774e-09, 4.00000000e-09, 7.42385642e-16, 4.00000000e-09 -2.59644856e-16, 4.00000000e-09, 8.37564950e-20, 4.00000000e-09, 1.48676151e-16, 4.00000000e-09, 2.22508627e-16, 4.00000000e-09, 1.20722626e-19, 4.00000000e-09, 3.26845983e-09, 4.00000000e-09, 6.92976956e-01, 4.00000000e-09, 3.73616310e-02, 4.00000000e-09, 4.22462135e-01, 4.00000000e-09, 4.22462133e-01, 4.00000000e-09, 3.05954502e+08, 4.00000000e-09, 1.57110861e+08, 4.00000000e-09, 2.50049702e+07, 4.00000000e-09, 2.91565314e+01 , .250, SKY130
 4.50000000e-09, 1.30887261e-07, 4.50000000e-09, 4.50009562e-09, 4.50000000e-09, 7.47812127e-16, 4.50000000e-09 -2.67312633e-16, 4.50000000e-09, 8.66243388e-20, 4.50000000e-09, 1.52678211e-16, 4.50000000e-09, 2.28503608e-16, 4.50000000e-09, 1.20712196e-19, 4.50000000e-09, 3.65991421e-09, 4.50000000e-09, 6.92976807e-01, 4.50000000e-09, 3.73691072e-02, 4.50000000e-09, 4.26394211e-01, 4.50000000e-09, 4.26394210e-01, 4.50000000e-09, 2.73230448e+08, 4.50000000e-09, 1.75026930e+08, 4.50000000e-09, 2.78564011e+07, 4.50000000e-09, 2.90854400e+01 , .250, SKY130
 5.00000000e-09, 1.45091743e-07, 5.00000000e-09, 4.99993025e-09, 5.00000000e-09, 7.52789354e-16, 5.00000000e-09 -2.74321530e-16, 5.00000000e-09, 8.91328377e-20, 5.00000000e-09, 1.56326197e-16, 5.00000000e-09, 2.33968288e-16, 5.00000000e-09, 1.20776581e-19, 5.00000000e-09, 4.04976400e-09, 5.00000000e-09, 6.92976674e-01, 5.00000000e-09, 3.73765610e-02, 5.00000000e-09, 4.29921048e-01, 5.00000000e-09, 4.29921047e-01, 5.00000000e-09, 2.46927969e+08, 5.00000000e-09, 1.92738834e+08, 5.00000000e-09, 3.06753382e+07, 5.00000000e-09, 2.90187533e+01 , .250, SKY130
 5.50000000e-09, 1.59251963e-07, 5.50000000e-09, 5.49982583e-09, 5.50000000e-09, 7.57392098e-16, 5.50000000e-09 -2.80783826e-16, 5.50000000e-09, 9.13522992e-20, 5.50000000e-09, 1.59681317e-16, 5.50000000e-09, 2.38994330e-16, 5.50000000e-09, 1.20896394e-19, 5.50000000e-09, 4.43814231e-09, 5.50000000e-09, 6.92976553e-01, 5.50000000e-09, 3.73839940e-02, 5.50000000e-09, 4.33119217e-01, 5.50000000e-09, 4.33119216e-01, 5.50000000e-09, 2.25319499e+08, 5.50000000e-09, 2.10263566e+08, 5.50000000e-09, 3.34644859e+07, 5.50000000e-09, 2.89558194e+01 , .250, SKY130
 6.00000000e-09, 1.73369741e-07, 6.00000000e-09, 5.99975632e-09, 6.00000000e-09, 7.61677421e-16, 6.00000000e-09 -2.86784726e-16, 6.00000000e-09, 9.33346175e-20, 6.00000000e-09, 1.62789881e-16, 6.00000000e-09, 2.43651088e-16, 6.00000000e-09, 1.21058071e-19, 6.00000000e-09, 4.82516633e-09, 6.00000000e-09, 6.92976442e-01, 6.00000000e-09, 3.73914077e-02, 6.00000000e-09, 4.36045465e-01, 6.00000000e-09, 4.36045463e-01, 6.00000000e-09, 2.07246741e+08, 6.00000000e-09, 2.27615702e+08, 6.00000000e-09, 3.62261642e+07, 6.00000000e-09, 2.88961304e+01 , .250, SKY130
 6.50000000e-09, 1.87446908e-07, 6.50000000e-09, 6.49970774e-09, 6.50000000e-09, 7.65689923e-16, 6.50000000e-09 -2.92390504e-16, 6.50000000e-09, 9.51191464e-20, 6.50000000e-09, 1.65687811e-16, 6.50000000e-09, 2.47992361e-16, 6.50000000e-09, 1.21251838e-19, 6.50000000e-09, 5.21093925e-09, 6.50000000e-09, 6.92976340e-01, 6.50000000e-09, 3.73988032e-02, 6.50000000e-09, 4.38743009e-01, 6.50000000e-09, 4.38743007e-01, 6.50000000e-09, 1.91903984e+08, 6.50000000e-09, 2.44807855e+08, 6.50000000e-09, 3.89623803e+07, 6.50000000e-09, 2.88392825e+01 , .250, SKY130
 7.00000000e-09, 2.01485219e-07, 7.00000000e-09, 6.99967282e-09, 7.00000000e-09, 7.69465166e-16, 7.00000000e-09 -2.97653774e-16, 7.00000000e-09, 9.67364072e-20, 7.00000000e-09, 1.68403557e-16, 7.00000000e-09, 2.52060758e-16, 7.00000000e-09, 1.21470487e-19, 7.00000000e-09, 5.59555146e-09, 7.00000000e-09, 6.92976245e-01, 7.00000000e-09, 3.74061819e-02, 7.00000000e-09, 4.41245514e-01, 7.00000000e-09, 4.41245512e-01, 7.00000000e-09, 1.78713395e+08, 7.00000000e-09, 2.61850995e+08, 7.00000000e-09, 4.16748802e+07, 7.00000000e-09, 2.87849481e+01 , .250, SKY130
 7.50000000e-09, 2.15486268e-07, 7.50000000e-09, 7.49964623e-09, 7.50000000e-09, 7.73031972e-16, 7.50000000e-09 -3.02617025e-16, 7.50000000e-09, 9.82105222e-20, 7.50000000e-09, 1.70960043e-16, 7.50000000e-09, 2.55890610e-16, 7.50000000e-09, 1.21708588e-19, 7.50000000e-09, 5.97908080e-09, 7.50000000e-09, 6.92976157e-01, 7.50000000e-09, 3.74135448e-02, 7.50000000e-09, 4.43579704e-01, 7.50000000e-09, 4.43579702e-01, 7.50000000e-09, 1.67249789e+08, 7.50000000e-09, 2.78754665e+08, 7.50000000e-09, 4.43651828e+07, 7.50000000e-09, 2.87328577e+01 , .250, SKY130
 8.00000000e-09, 2.29451620e-07, 8.00000000e-09, 7.99962811e-09, 8.00000000e-09, 7.76414082e-16, 8.00000000e-09 -3.07315129e-16, 8.00000000e-09, 9.95608844e-20, 8.00000000e-09, 1.73376043e-16, 8.00000000e-09, 2.59510037e-16, 8.00000000e-09, 1.21961988e-19, 8.00000000e-09, 6.36159812e-09, 8.00000000e-09, 6.92976074e-01, 8.00000000e-09, 3.74208927e-02, 8.00000000e-09, 4.45767165e-01, 8.00000000e-09, 4.45767162e-01, 8.00000000e-09, 1.57193205e+08, 8.00000000e-09, 2.95527381e+08, 8.00000000e-09, 4.70346434e+07, 8.00000000e-09, 2.86827859e+01 , .250, SKY130
 8.50000000e-09, 2.43382523e-07, 8.50000000e-09, 8.49961267e-09, 8.50000000e-09, 7.79631239e-16, 8.50000000e-09 -3.11777000e-16, 8.50000000e-09, 1.00803283e-19, 8.50000000e-09, 1.75667095e-16, 8.50000000e-09, 2.62942311e-16, 8.50000000e-09, 1.22227455e-19, 8.50000000e-09, 6.74316065e-09, 8.50000000e-09, 6.92975996e-01, 8.50000000e-09, 3.74282266e-02, 8.50000000e-09, 4.47825544e-01, 8.50000000e-09, 4.47825542e-01, 8.50000000e-09, 1.48298410e+08, 8.50000000e-09, 3.12176464e+08, 8.50000000e-09, 4.96844273e+07, 8.50000000e-09, 2.86345428e+01 , .250, SKY130
 9.00000000e-09, 2.57280300e-07, 9.00000000e-09, 8.99960143e-09, 9.00000000e-09, 7.82700119e-16, 9.00000000e-09 -3.16026990e-16, 9.00000000e-09, 1.01950767e-19, 9.00000000e-09, 1.77846264e-16, 9.00000000e-09, 2.66206997e-16, 9.00000000e-09, 1.22502450e-19, 9.00000000e-09, 7.12382378e-09, 9.00000000e-09, 6.92975923e-01, 9.00000000e-09, 3.74355471e-02, 9.00000000e-09, 4.49769500e-01, 9.00000000e-09, 4.49769498e-01, 9.00000000e-09, 1.40374051e+08, 9.00000000e-09, 3.28708651e+08, 9.00000000e-09, 5.23156066e+07, 9.00000000e-09, 2.85879660e+01 , .250, SKY130
 9.50000000e-09, 2.71146009e-07, 9.50000000e-09, 9.49959037e-09, 9.50000000e-09, 7.85634883e-16, 9.50000000e-09 -3.20085727e-16, 9.50000000e-09, 1.03014211e-19, 9.50000000e-09, 1.79924597e-16, 9.50000000e-09, 2.69320643e-16, 9.50000000e-09, 1.22784949e-19, 9.50000000e-09, 7.50363253e-09, 9.50000000e-09, 6.92975853e-01, 9.50000000e-09, 3.74428548e-02, 9.50000000e-09, 4.51611302e-01, 9.50000000e-09, 4.51611299e-01, 9.50000000e-09, 1.33268786e+08, 9.50000000e-09, 3.45129798e+08, 9.50000000e-09, 5.49291134e+07, 9.50000000e-09, 2.85429159e+01 , .250, SKY130
 1.00000000e-08, 2.84979820e-07, 1.00000000e-08, 9.99954681e-09, 1.00000000e-08, 7.88447534e-16, 1.00000000e-08 -3.23970666e-16, 1.00000000e-08, 1.04002726e-19, 1.00000000e-08, 1.81911432e-16, 1.00000000e-08, 2.72297234e-16, 1.00000000e-08, 1.23073311e-19, 1.00000000e-08, 7.88260500e-09, 1.00000000e-08, 6.92975787e-01, 1.00000000e-08, 3.74501498e-02, 1.00000000e-08, 4.53361239e-01, 1.00000000e-08, 4.53361236e-01, 1.00000000e-08, 1.26861615e+08, 1.00000000e-08, 3.61444241e+08, 1.00000000e-08, 5.75256376e+07, 1.00000000e-08, 2.84992736e+01 , .250, SKY130
 1.50000000e-08, 4.23375412e-07, 1.50000000e-08, 1.50572021e-08, 1.50000000e-08, 8.11891562e-16, 1.50000000e-08 -3.56181503e-16, 1.50000000e-08, 1.11120372e-19, 1.50000000e-08, 1.98294503e-16, 1.50000000e-08, 2.96842469e-16, 1.50000000e-08, 1.26115459e-19, 1.50000000e-08, 1.16778913e-08, 1.50000000e-08, 6.92975255e-01, 1.50000000e-08, 3.75233602e-02, 1.50000000e-08, 4.67429492e-01, 1.50000000e-08, 4.67429487e-01, 1.50000000e-08, 8.56318984e+07, 1.50000000e-08, 5.21467930e+08, 1.50000000e-08, 8.29941987e+07, 1.50000000e-08, 2.81178011e+01 , .250, SKY130
 2.00000000e-08, 5.59849454e-07, 2.00000000e-08, 2.01320033e-08, 2.00000000e-08, 8.29598778e-16, 2.00000000e-08 -3.80332630e-16, 2.00000000e-08, 1.15238170e-19, 2.00000000e-08, 2.10479008e-16, 2.00000000e-08, 3.15098296e-16, 2.00000000e-08, 1.29121862e-19, 2.00000000e-08, 1.54305812e-08, 2.00000000e-08, 6.92974872e-01, 2.00000000e-08, 3.75959505e-02, 2.00000000e-08, 4.77536872e-01, 2.00000000e-08, 4.77536866e-01, 2.00000000e-08, 6.48063731e+07, 2.00000000e-08, 6.74843634e+08, 2.00000000e-08, 1.07404700e+08, 2.00000000e-08, 2.78089292e+01 , .250, SKY130
 2.50000000e-08, 6.90435539e-07, 2.50000000e-08, 2.50577538e-08, 2.50000000e-08, 8.43522734e-16, 2.50000000e-08 -3.99231726e-16, 2.50000000e-08, 1.17758817e-19, 2.50000000e-08, 2.19958649e-16, 2.50000000e-08, 3.29301991e-16, 2.50000000e-08, 1.31886064e-19, 2.50000000e-08, 1.90321571e-08, 2.50000000e-08, 6.92974581e-01, 2.50000000e-08, 3.76657482e-02, 2.50000000e-08, 4.85231244e-01, 2.50000000e-08, 4.85231237e-01, 2.50000000e-08, 5.25426517e+07, 2.50000000e-08, 8.18514442e+08, 2.50000000e-08, 1.30270619e+08, 2.50000000e-08, 2.75537681e+01 , .250, SKY130
 3.00000000e-08, 8.20351614e-07, 3.00000000e-08, 3.00186426e-08, 3.00000000e-08, 8.55384696e-16, 3.00000000e-08 -4.15274980e-16, 3.00000000e-08, 1.19426723e-19, 3.00000000e-08, 2.27969745e-16, 3.00000000e-08, 3.41305658e-16, 3.00000000e-08, 1.34507056e-19, 3.00000000e-08, 2.26257871e-08, 3.00000000e-08, 6.92974339e-01, 3.00000000e-08, 3.77354863e-02, 3.00000000e-08, 4.91637080e-01, 3.00000000e-08, 4.91637071e-01, 3.00000000e-08, 4.41973575e+07, 3.00000000e-08, 9.59044063e+08, 3.00000000e-08, 1.52636603e+08, 3.00000000e-08, 2.73280716e+01 , .250, SKY130
 3.50000000e-08, 9.49648621e-07, 3.50000000e-08, 3.50103154e-08, 3.50000000e-08, 8.65746182e-16, 3.50000000e-08 -4.29249502e-16, 3.50000000e-08, 1.20532481e-19, 3.50000000e-08, 2.34921898e-16, 3.50000000e-08, 3.51722877e-16, 3.50000000e-08, 1.36990948e-19, 3.50000000e-08, 2.62123495e-08, 3.50000000e-08, 6.92974131e-01, 3.50000000e-08, 3.78051603e-02, 3.50000000e-08, 4.97135042e-01, 3.50000000e-08, 4.97135032e-01, 3.50000000e-08, 3.81499567e+07, 3.50000000e-08, 1.09691344e+09, 3.50000000e-08, 1.74579196e+08, 3.50000000e-08, 2.71248234e+01 , .250, SKY130
 4.00000000e-08, 1.07778606e-06, 4.00000000e-08, 4.00066120e-08, 4.00000000e-08, 8.74922766e-16, 4.00000000e-08 -4.41597477e-16, 4.00000000e-08, 1.21244055e-19, 4.00000000e-08, 2.41045411e-16, 4.00000000e-08, 3.60898643e-16, 4.00000000e-08, 1.39338863e-19, 4.00000000e-08, 2.97761184e-08, 4.00000000e-08, 6.92973950e-01, 4.00000000e-08, 3.78744488e-02, 4.00000000e-08, 5.01937207e-01, 4.00000000e-08, 5.01937196e-01, 4.00000000e-08, 3.35839611e+07, 4.00000000e-08, 1.23186423e+09, 4.00000000e-08, 1.96057281e+08, 4.00000000e-08, 2.69401982e+01 , .250, SKY130
 4.50000000e-08, 1.20479707e-06, 4.50000000e-08, 4.50041782e-08, 4.50000000e-08, 8.83164742e-16, 4.50000000e-08 -4.52666431e-16, 4.50000000e-08, 1.21672315e-19, 4.50000000e-08, 2.46519543e-16, 4.50000000e-08, 3.69101496e-16, 4.50000000e-08, 1.41564213e-19, 4.50000000e-08, 3.33171988e-08, 4.50000000e-08, 6.92973789e-01, 4.50000000e-08, 3.79433421e-02, 4.50000000e-08, 5.06202361e-01, 4.50000000e-08, 5.06202348e-01, 4.50000000e-08, 3.00145281e+07, 4.50000000e-08, 1.36418157e+09, 4.50000000e-08, 2.17116240e+08, 4.50000000e-08, 2.67707825e+01 , .250, SKY130
 5.00000000e-08, 1.33077242e-06, 5.00000000e-08, 5.00027088e-08, 5.00000000e-08, 8.90652495e-16, 5.00000000e-08 -4.62705824e-16, 5.00000000e-08, 1.21890719e-19, 5.00000000e-08, 2.51472445e-16, 5.00000000e-08, 3.76523421e-16, 5.00000000e-08, 1.43680286e-19, 5.00000000e-08, 3.68373417e-08, 5.00000000e-08, 6.92973644e-01, 5.00000000e-08, 3.80118650e-02, 5.00000000e-08, 5.10041847e-01, 5.00000000e-08, 5.10041832e-01, 5.00000000e-08, 2.71463671e+07, 5.00000000e-08, 1.49415448e+09, 5.00000000e-08, 2.37802072e+08, 5.00000000e-08, 2.66140066e+01 , .250, SKY130
 5.50000000e-08, 1.45578424e-06, 5.50000000e-08, 5.50017932e-08, 5.50000000e-08, 8.97517615e-16, 5.50000000e-08 -4.71897136e-16, 5.50000000e-08, 1.21949760e-19, 5.50000000e-08, 2.55997084e-16, 5.50000000e-08, 3.83303696e-16, 5.50000000e-08, 1.45698513e-19, 5.50000000e-08, 4.03378395e-08, 5.50000000e-08, 6.92973512e-01, 5.50000000e-08, 3.80800356e-02, 5.50000000e-08, 5.13535306e-01, 5.50000000e-08, 5.13535290e-01, 5.50000000e-08, 2.47906188e+07, 5.50000000e-08, 1.62201189e+09, 5.50000000e-08, 2.58151210e+08, 5.50000000e-08, 2.64679414e+01 , .250, SKY130
 6.00000000e-08, 1.57989675e-06, 6.00000000e-08, 6.00011911e-08, 6.00000000e-08, 9.03859501e-16, 6.00000000e-08 -4.80377117e-16, 6.00000000e-08, 1.21885381e-19, 6.00000000e-08, 2.60163334e-16, 6.00000000e-08, 3.89547001e-16, 6.00000000e-08, 1.47628751e-19, 6.00000000e-08, 4.38198265e-08, 6.00000000e-08, 6.92973391e-01, 6.00000000e-08, 3.81478706e-02, 6.00000000e-08, 5.16741850e-01, 6.00000000e-08, 5.16741832e-01, 6.00000000e-08, 2.28207202e+07, 6.00000000e-08, 1.74794506e+09, 6.00000000e-08, 2.78194097e+08, 6.00000000e-08, 2.63310898e+01 , .250, SKY130
 6.50000000e-08, 1.70316751e-06, 6.50000000e-08, 6.50007793e-08, 6.50000000e-08, 9.09755162e-16, 6.50000000e-08 -4.88251483e-16, 6.50000000e-08, 1.21723896e-19, 6.50000000e-08, 2.64025085e-16, 6.50000000e-08, 3.95334076e-16, 6.50000000e-08, 1.49479489e-19, 6.50000000e-08, 4.72843100e-08, 6.50000000e-08, 6.92973279e-01, 6.50000000e-08, 3.82153848e-02, 6.50000000e-08, 5.19706572e-01, 6.50000000e-08, 5.19706553e-01, 6.50000000e-08, 2.11486643e+07, 6.50000000e-08, 1.87211634e+09, 6.50000000e-08, 2.97956570e+08, 6.50000000e-08, 2.62022629e+01 , .250, SKY130
 7.00000000e-08, 1.82564767e-06, 7.00000000e-08, 7.00004880e-08, 7.00000000e-08, 9.15265498e-16, 7.00000000e-08 -4.95603675e-16, 7.00000000e-08, 1.21485020e-19, 7.00000000e-08, 2.67624784e-16, 7.00000000e-08, 4.00728514e-16, 7.00000000e-08, 1.51258046e-19, 7.00000000e-08, 5.07321731e-08, 7.00000000e-08, 6.92973175e-01, 7.00000000e-08, 3.82825918e-02, 7.00000000e-08, 5.22464648e-01, 7.00000000e-08, 5.22464628e-01, 7.00000000e-08, 1.97113575e+07, 7.00000000e-08, 1.99466458e+09, 7.00000000e-08, 3.17460728e+08, 7.00000000e-08, 2.60804992e+01 , .250, SKY130
 7.50000000e-08, 1.94738277e-06, 7.50000000e-08, 7.50002741e-08, 7.50000000e-08, 9.20439528e-16, 7.50000000e-08 -5.02500744e-16, 7.50000000e-08, 1.21183814e-19, 7.50000000e-08, 2.70996476e-16, 7.50000000e-08, 4.05781320e-16, 7.50000000e-08, 1.52970755e-19, 7.50000000e-08, 5.41641904e-08, 7.50000000e-08, 6.92973078e-01, 7.50000000e-08, 3.83495036e-02, 7.50000000e-08, 5.25044049e-01, 7.50000000e-08, 5.25044028e-01, 7.50000000e-08, 1.84623825e+07, 7.50000000e-08, 2.11570962e+09, 7.50000000e-08, 3.36725645e+08, 7.50000000e-08, 2.59650087e+01 , .250, SKY130
 8.00000000e-08, 2.06841367e-06, 8.00000000e-08, 8.00001164e-08, 8.00000000e-08, 9.25317322e-16, 8.00000000e-08 -5.08997414e-16, 8.00000000e-08, 1.20831981e-19, 8.00000000e-08, 2.74167897e-16, 8.00000000e-08, 4.10534050e-16, 8.00000000e-08, 1.54623131e-19, 8.00000000e-08, 5.75810501e-08, 8.00000000e-08, 6.92972986e-01, 8.00000000e-08, 3.84161308e-02, 8.00000000e-08, 5.27467389e-01, 8.00000000e-08, 5.27467366e-01, 8.00000000e-08, 1.73668247e+07, 8.00000000e-08, 2.23535605e+09, 8.00000000e-08, 3.55767965e+08, 8.00000000e-08, 2.58551333e+01 , .250, SKY130
 8.50000000e-08, 2.18877698e-06, 8.50000000e-08, 8.49999971e-08, 8.50000000e-08, 9.29932063e-16, 8.50000000e-08 -5.15138942e-16, 8.50000000e-08, 1.20438747e-19, 8.50000000e-08, 2.77161948e-16, 8.50000000e-08, 4.15021015e-16, 8.50000000e-08, 1.56219995e-19, 8.50000000e-08, 6.09833597e-08, 8.50000000e-08, 6.92972900e-01, 8.50000000e-08, 3.84824832e-02, 8.50000000e-08, 5.29753206e-01, 8.50000000e-08, 5.29753182e-01, 8.50000000e-08, 1.63979158e+07, 8.50000000e-08, 2.35369557e+09, 8.50000000e-08, 3.74602284e+08, 8.50000000e-08, 2.57503183e+01 , .250, SKY130
 9.00000000e-08, 2.30850573e-06, 9.00000000e-08, 8.99999039e-08, 9.00000000e-08, 9.34311559e-16, 9.00000000e-08 -5.20963202e-16, 9.00000000e-08, 1.20011476e-19, 9.00000000e-08, 2.79997766e-16, 9.00000000e-08, 4.19270886e-16, 9.00000000e-08, 1.57765588e-19, 9.00000000e-08, 6.43716629e-08, 9.00000000e-08, 6.92972819e-01, 9.00000000e-08, 3.85485694e-02, 9.00000000e-08, 5.31916896e-01, 9.00000000e-08, 5.31916870e-01, 9.00000000e-08, 1.55347859e+07, 9.00000000e-08, 2.47080934e+09, 9.00000000e-08, 3.93241520e+08, 9.00000000e-08, 2.56500910e+01 , .250, SKY130
