 isweep, gm, i_id, id, i_cgg, cgg, i_cgs, cgs, i_cgd, cgd, i_cds, cds, i_css, css, i_cdd, cdd, i_gds, gds, i_vth, vth, i_vdsat, vdsat, i_vgs, vgs, i_vds, vds, i_rds, rds, i_wt, wt, i_ft, ft, i_gm_id, gm_id, W, L, pdk
 1.00000000e-09, 3.01683068e-08, 1.00000000e-09, 9.99574162e-10, 1.00000000e-09, 7.08907835e-16, 1.00000000e-09 -1.91538879e-16, 1.00000000e-09, 3.47212679e-20, 1.00000000e-09, 1.14689490e-16, 1.00000000e-09, 1.71650565e-16, 1.00000000e-09, 9.12314132e-20, 1.00000000e-09, 7.08925845e-10, 1.00000000e-09, 7.33805236e-01, 1.00000000e-09, 3.72696450e-02, 1.00000000e-09, 4.27567200e-01, 1.00000000e-09, 4.27567200e-01, 1.00000000e-09, 1.41058477e+09, 1.00000000e-09, 4.25560352e+07, 1.00000000e-09, 6.77300335e+06, 1.00000000e-09, 3.01811590e+01 , 1,.250, SKY130
 1.50000000e-09, 4.51580334e-08, 1.50000000e-09, 1.50571110e-09, 1.50000000e-09, 7.23467619e-16, 1.50000000e-09 -2.13118726e-16, 1.50000000e-09, 4.14351287e-20, 1.50000000e-09, 1.26498798e-16, 1.50000000e-09, 1.89340394e-16, 1.50000000e-09, 9.14924224e-20, 1.50000000e-09, 1.05317297e-09, 1.50000000e-09, 7.33804873e-01, 1.50000000e-09, 3.72807177e-02, 1.50000000e-09, 4.40871777e-01, 1.50000000e-09, 4.40871776e-01, 1.50000000e-09, 9.49511642e+08, 1.50000000e-09, 6.24188729e+07, 1.50000000e-09, 9.93427217e+06, 1.50000000e-09, 2.99911671e+01 , 1,.250, SKY130
 2.00000000e-09, 6.00820813e-08, 2.00000000e-09, 2.01388591e-09, 2.00000000e-09, 7.34784296e-16, 2.00000000e-09 -2.29649503e-16, 2.00000000e-09, 4.60199552e-20, 2.00000000e-09, 1.35461559e-16, 2.00000000e-09, 2.02766825e-16, 2.00000000e-09, 9.20554001e-20, 2.00000000e-09, 1.39489898e-09, 2.00000000e-09, 7.33804613e-01, 2.00000000e-09, 3.72917465e-02, 2.00000000e-09, 4.50371917e-01, 2.00000000e-09, 4.50371916e-01, 2.00000000e-09, 7.16897792e+08, 2.00000000e-09, 8.17683252e+07, 2.00000000e-09, 1.30138331e+07, 2.00000000e-09, 2.98339051e+01 , 1,.250, SKY130
 2.50000000e-09, 7.44310101e-08, 2.50000000e-09, 2.50593347e-09, 2.50000000e-09, 7.43845873e-16, 2.50000000e-09 -2.42760954e-16, 2.50000000e-09, 4.93355996e-20, 2.50000000e-09, 1.42523063e-16, 2.50000000e-09, 2.13345471e-16, 2.50000000e-09, 9.27040579e-20, 2.50000000e-09, 1.72302358e-09, 2.50000000e-09, 7.33804417e-01, 2.50000000e-09, 3.73023618e-02, 2.50000000e-09, 4.57548619e-01, 2.50000000e-09, 4.57548619e-01, 2.50000000e-09, 5.80375111e+08, 2.50000000e-09, 1.00062409e+08, 2.50000000e-09, 1.59254270e+07, 2.50000000e-09, 2.97019099e+01 , 1,.250, SKY130
 3.00000000e-09, 8.87970681e-08, 3.00000000e-09, 3.00160262e-09, 3.00000000e-09, 7.51694394e-16, 3.00000000e-09 -2.54039360e-16, 3.00000000e-09, 5.19713583e-20, 3.00000000e-09, 1.48565870e-16, 3.00000000e-09, 2.22398259e-16, 3.00000000e-09, 9.33955696e-20, 3.00000000e-09, 2.05137891e-09, 3.00000000e-09, 7.33804254e-01, 3.00000000e-09, 3.73130042e-02, 3.00000000e-09, 4.63499568e-01, 3.00000000e-09, 4.63499568e-01, 3.00000000e-09, 4.87476982e+08, 3.00000000e-09, 1.18129214e+08, 3.00000000e-09, 1.88008484e+07, 3.00000000e-09, 2.95832192e+01 , 1,.250, SKY130
 3.50000000e-09, 1.03181878e-07, 3.50000000e-09, 3.50069725e-09, 3.50000000e-09, 7.58649066e-16, 3.50000000e-09 -2.63979392e-16, 3.50000000e-09, 5.41343377e-20, 3.50000000e-09, 1.53868648e-16, 3.50000000e-09, 2.30342567e-16, 3.50000000e-09, 9.41023789e-20, 3.50000000e-09, 2.38015612e-09, 3.50000000e-09, 7.33804115e-01, 3.50000000e-09, 3.73236765e-02, 3.50000000e-09, 4.68590926e-01, 3.50000000e-09, 4.68590925e-01, 3.50000000e-09, 4.20140507e+08, 3.50000000e-09, 1.36007388e+08, 3.50000000e-09, 2.16462481e+07, 3.50000000e-09, 2.94746648e+01 , 1,.250, SKY130
 4.00000000e-09, 1.17507636e-07, 4.00000000e-09, 4.00030176e-09, 4.00000000e-09, 7.64881438e-16, 4.00000000e-09 -2.72847906e-16, 4.00000000e-09, 5.59411886e-20, 4.00000000e-09, 1.58582393e-16, 4.00000000e-09, 2.37404545e-16, 4.00000000e-09, 9.48070170e-20, 4.00000000e-09, 2.70767512e-09, 4.00000000e-09, 7.33803994e-01, 4.00000000e-09, 3.73343215e-02, 4.00000000e-09, 4.73022558e-01, 4.00000000e-09, 4.73022557e-01, 4.00000000e-09, 3.69320526e+08, 4.00000000e-09, 1.53628563e+08, 4.00000000e-09, 2.44507451e+07, 4.00000000e-09, 2.93746930e+01 , 1,.250, SKY130
 4.50000000e-09, 1.31769084e-07, 4.50000000e-09, 4.50003610e-09, 4.50000000e-09, 7.70536758e-16, 4.50000000e-09 -2.80865725e-16, 4.50000000e-09, 5.74772335e-20, 4.50000000e-09, 1.62830355e-16, 4.50000000e-09, 2.43768800e-16, 4.50000000e-09, 9.55022649e-20, 4.50000000e-09, 3.03387941e-09, 4.50000000e-09, 7.33803887e-01, 4.50000000e-09, 3.73449354e-02, 4.50000000e-09, 4.76945874e-01, 4.50000000e-09, 4.76945873e-01, 4.50000000e-09, 3.29610992e+08, 4.50000000e-09, 1.71009471e+08, 4.50000000e-09, 2.72170027e+07, 4.50000000e-09, 2.92817837e+01 , 1,.250, SKY130
 5.00000000e-09, 1.45970165e-07, 5.00000000e-09, 4.99987302e-09, 5.00000000e-09, 7.75721780e-16, 5.00000000e-09 -2.88193722e-16, 5.00000000e-09, 5.88017334e-20, 5.00000000e-09, 1.66701872e-16, 5.00000000e-09, 2.49569147e-16, 5.00000000e-09, 9.61847841e-20, 5.00000000e-09, 3.35890131e-09, 5.00000000e-09, 7.33803791e-01, 5.00000000e-09, 3.73555210e-02, 5.00000000e-09, 4.80467158e-01, 5.00000000e-09, 4.80467156e-01, 5.00000000e-09, 2.97716398e+08, 5.00000000e-09, 1.88173349e+08, 5.00000000e-09, 2.99487186e+07, 5.00000000e-09, 2.91947745e+01 , 1,.250, SKY130
 5.50000000e-09, 1.60113665e-07, 5.50000000e-09, 5.49977016e-09, 5.50000000e-09, 7.80515076e-16, 5.50000000e-09 -2.94949643e-16, 5.50000000e-09, 5.99567825e-20, 5.50000000e-09, 1.70262126e-16, 5.50000000e-09, 2.54903221e-16, 5.50000000e-09, 9.68529911e-20, 5.50000000e-09, 3.68283283e-09, 5.50000000e-09, 7.33803704e-01, 5.50000000e-09, 3.73660799e-02, 5.50000000e-09, 4.83662283e-01, 5.50000000e-09, 4.83662282e-01, 5.50000000e-09, 2.71530109e+08, 5.50000000e-09, 2.05138466e+08, 5.50000000e-09, 3.26488008e+07, 5.50000000e-09, 2.91127921e+01 , 1,.250, SKY130
 6.00000000e-09, 1.74202292e-07, 6.00000000e-09, 5.99970208e-09, 6.00000000e-09, 7.84976532e-16, 6.00000000e-09 -3.01222774e-16, 6.00000000e-09, 6.09733765e-20, 6.00000000e-09, 1.73560397e-16, 6.00000000e-09, 2.59844840e-16, 6.00000000e-09, 9.75062944e-20, 6.00000000e-09, 4.00575494e-09, 6.00000000e-09, 7.33803624e-01, 6.00000000e-09, 3.73766140e-02, 6.00000000e-09, 4.86587476e-01, 6.00000000e-09, 4.86587475e-01, 6.00000000e-09, 2.49640833e+08, 6.00000000e-09, 2.21920382e+08, 6.00000000e-09, 3.53197257e+07, 6.00000000e-09, 2.90351570e+01 , 1,.250, SKY130
 6.50000000e-09, 1.88238623e-07, 6.50000000e-09, 6.49965434e-09, 6.50000000e-09, 7.89152915e-16, 6.50000000e-09 -3.07082535e-16, 6.50000000e-09, 6.18749658e-20, 6.50000000e-09, 1.76634897e-16, 6.50000000e-09, 2.64451241e-16, 6.50000000e-09, 9.81446558e-20, 6.50000000e-09, 4.32773927e-09, 6.50000000e-09, 7.33803550e-01, 6.50000000e-09, 3.73871245e-02, 6.50000000e-09, 4.89285562e-01, 6.50000000e-09, 4.89285560e-01, 6.50000000e-09, 2.31067525e+08, 6.50000000e-09, 2.38532507e+08, 6.50000000e-09, 3.79636276e+07, 6.50000000e-09, 2.89613283e+01 , 1,.250, SKY130
 7.00000000e-09, 2.02225092e-07, 7.00000000e-09, 6.99961996e-09, 7.00000000e-09, 7.93081492e-16, 7.00000000e-09 -3.12584032e-16, 7.00000000e-09, 6.26796977e-20, 7.00000000e-09, 1.79515885e-16, 7.00000000e-09, 2.68767751e-16, 7.00000000e-09, 9.87683466e-20, 7.00000000e-09, 4.64884957e-09, 7.00000000e-09, 7.33803482e-01, 7.00000000e-09, 3.73976131e-02, 7.00000000e-09, 4.91789912e-01, 7.00000000e-09, 4.91789910e-01, 7.00000000e-09, 2.15106982e+08, 7.00000000e-09, 2.54986522e+08, 7.00000000e-09, 4.05823654e+07, 7.00000000e-09, 2.88908673e+01 , 1,.250, SKY130
 7.50000000e-09, 2.16163903e-07, 7.50000000e-09, 7.49959435e-09, 7.50000000e-09, 7.96792461e-16, 7.50000000e-09 -3.17771758e-16, 7.50000000e-09, 6.34018823e-20, 7.50000000e-09, 1.82227740e-16, 7.50000000e-09, 2.72830887e-16, 7.50000000e-09, 9.93778043e-20, 7.50000000e-09, 4.96914124e-09, 7.50000000e-09, 7.33803418e-01, 7.50000000e-09, 3.74080808e-02, 7.50000000e-09, 4.94127025e-01, 7.50000000e-09, 4.94127023e-01, 7.50000000e-09, 2.01242016e+08, 7.50000000e-09, 2.71292606e+08, 7.50000000e-09, 4.31775592e+07, 7.50000000e-09, 2.88234127e+01 , 1,.250, SKY130
 8.00000000e-09, 2.30057096e-07, 8.00000000e-09, 7.99957560e-09, 8.00000000e-09, 8.00310661e-16, 8.00000000e-09 -3.22682202e-16, 8.00000000e-09, 6.40529930e-20, 8.00000000e-09, 1.84790409e-16, 8.00000000e-09, 2.76670533e-16, 8.00000000e-09, 9.99735530e-20, 8.00000000e-09, 5.28866344e-09, 8.00000000e-09, 7.33803358e-01, 8.00000000e-09, 3.74185288e-02, 8.00000000e-09, 4.96318297e-01, 8.00000000e-09, 4.96318294e-01, 8.00000000e-09, 1.89083690e+08, 8.00000000e-09, 2.87459742e+08, 8.00000000e-09, 4.57506389e+07, 8.00000000e-09, 2.87586627e+01 , 1,.250, SKY130
 8.50000000e-09, 2.43906433e-07, 8.50000000e-09, 8.49955918e-09, 8.50000000e-09, 8.03656757e-16, 8.50000000e-09 -3.27345638e-16, 8.50000000e-09, 6.46423555e-20, 8.50000000e-09, 1.87220417e-16, 8.50000000e-09, 2.80311440e-16, 8.50000000e-09, 1.00556150e-19, 8.50000000e-09, 5.60745730e-09, 8.50000000e-09, 7.33803302e-01, 8.50000000e-09, 3.74289580e-02, 8.50000000e-09, 4.98381238e-01, 8.50000000e-09, 4.98381235e-01, 8.50000000e-09, 1.78333948e+08, 8.50000000e-09, 3.03495778e+08, 8.50000000e-09, 4.83028533e+07, 8.50000000e-09, 2.86963627e+01 , 1,.250, SKY130
 9.00000000e-09, 2.57713727e-07, 9.00000000e-09, 8.99954872e-09, 9.00000000e-09, 8.06848208e-16, 9.00000000e-09 -3.31787570e-16, 9.00000000e-09, 6.51776569e-20, 9.00000000e-09, 1.89531656e-16, 9.00000000e-09, 2.83774418e-16, 9.00000000e-09, 1.01126170e-19, 9.00000000e-09, 5.92556384e-09, 9.00000000e-09, 7.33803249e-01, 9.00000000e-09, 3.74393694e-02, 9.00000000e-09, 5.00330399e-01, 9.00000000e-09, 5.00330396e-01, 9.00000000e-09, 1.68760312e+08, 9.00000000e-09, 3.19407944e+08, 9.00000000e-09, 5.08353531e+07, 9.00000000e-09, 2.86362944e+01 , 1,.250, SKY130
 9.50000000e-09, 2.71480377e-07, 9.50000000e-09, 9.49953822e-09, 9.50000000e-09, 8.09899808e-16, 9.50000000e-09 -3.36029564e-16, 9.50000000e-09, 6.56652867e-20, 9.50000000e-09, 1.91735856e-16, 9.50000000e-09, 2.87077038e-16, 9.50000000e-09, 1.01684167e-19, 9.50000000e-09, 6.24301359e-09, 9.50000000e-09, 7.33803198e-01, 9.50000000e-09, 3.74497635e-02, 9.50000000e-09, 5.02177944e-01, 9.50000000e-09, 5.02177942e-01, 9.50000000e-09, 1.60179052e+08, 9.50000000e-09, 3.35202422e+08, 9.50000000e-09, 5.33491224e+07, 9.50000000e-09, 2.85782710e+01 , 1,.250, SKY130
 1.00000000e-08, 2.85206965e-07, 1.00000000e-08, 9.99949646e-09, 1.00000000e-08, 8.12824110e-16, 1.00000000e-08 -3.40089891e-16, 1.00000000e-08, 6.61105962e-20, 1.00000000e-08, 1.93842943e-16, 1.00000000e-08, 2.90234173e-16, 1.00000000e-08, 1.02230651e-19, 1.00000000e-08, 6.55981750e-09, 1.00000000e-08, 7.33803150e-01, 1.00000000e-08, 3.74601405e-02, 1.00000000e-08, 5.03934090e-01, 1.00000000e-08, 5.03934087e-01, 1.00000000e-08, 1.52443265e+08, 1.00000000e-08, 3.50883988e+08, 1.00000000e-08, 5.58449211e+07, 1.00000000e-08, 2.85221327e+01 , 1,.250, SKY130
 1.50000000e-08, 4.22070598e-07, 1.50000000e-08, 1.50552815e-08, 1.50000000e-08, 8.37180349e-16, 1.50000000e-08 -3.73744365e-16, 1.50000000e-08, 6.90097437e-20, 1.50000000e-08, 2.11209702e-16, 1.50000000e-08, 3.16256219e-16, 1.50000000e-08, 1.07216519e-19, 1.50000000e-08, 9.73342892e-09, 1.50000000e-08, 7.33802764e-01, 1.50000000e-08, 3.75642693e-02, 1.50000000e-08, 5.18075954e-01, 1.50000000e-08, 5.18075949e-01, 1.50000000e-08, 1.02738717e+08, 1.50000000e-08, 5.04157316e+08, 1.50000000e-08, 8.02391289e+07, 1.50000000e-08, 2.80347198e+01 , 1,.250, SKY130
 2.00000000e-08, 5.56393690e-07, 2.00000000e-08, 2.01267715e-08, 2.00000000e-08, 8.55563246e-16, 2.00000000e-08 -3.98975242e-16, 2.00000000e-08, 7.02792062e-20, 2.00000000e-08, 2.24121378e-16, 2.00000000e-08, 3.35603666e-16, 2.00000000e-08, 1.11474371e-19, 2.00000000e-08, 1.28727005e-08, 2.00000000e-08, 7.33802486e-01, 2.00000000e-08, 3.76674950e-02, 2.00000000e-08, 5.28267932e-01, 2.00000000e-08, 5.28267926e-01, 2.00000000e-08, 7.76837774e+07, 2.00000000e-08, 6.50324442e+08, 2.00000000e-08, 1.03502350e+08, 2.00000000e-08, 2.76444581e+01 , 1,.250, SKY130
 2.50000000e-08, 6.84623773e-07, 2.50000000e-08, 2.50550705e-08, 2.50000000e-08, 8.70030382e-16, 2.50000000e-08 -4.18743675e-16, 2.50000000e-08, 7.07464339e-20, 2.50000000e-08, 2.34177166e-16, 2.50000000e-08, 3.50672189e-16, 2.50000000e-08, 1.15113784e-19, 2.50000000e-08, 1.58898048e-08, 2.50000000e-08, 7.33802274e-01, 2.50000000e-08, 3.77668403e-02, 2.50000000e-08, 5.36056049e-01, 2.50000000e-08, 5.36056042e-01, 2.50000000e-08, 6.29334353e+07, 2.50000000e-08, 7.86896397e+08, 2.50000000e-08, 1.25238451e+08, 2.50000000e-08, 2.73247594e+01 , 1,.250, SKY130
 3.00000000e-08, 8.11817096e-07, 3.00000000e-08, 3.00178877e-08, 3.00000000e-08, 8.82349137e-16, 3.00000000e-08 -4.35521950e-16, 3.00000000e-08, 7.07852512e-20, 3.00000000e-08, 2.42672178e-16, 3.00000000e-08, 3.63402217e-16, 3.00000000e-08, 1.18408924e-19, 3.00000000e-08, 1.88998259e-08, 3.00000000e-08, 7.33802097e-01, 3.00000000e-08, 3.78660449e-02, 3.00000000e-08, 5.42552575e-01, 3.00000000e-08, 5.42552566e-01, 3.00000000e-08, 5.29105404e+07, 3.00000000e-08, 9.20063342e+08, 3.00000000e-08, 1.46432629e+08, 3.00000000e-08, 2.70444445e+01 , 1,.250, SKY130
 3.50000000e-08, 9.38057852e-07, 3.50000000e-08, 3.50098746e-08, 3.50000000e-08, 8.93103221e-16, 3.50000000e-08 -4.50131635e-16, 3.50000000e-08, 7.05543909e-20, 3.50000000e-08, 2.50040568e-16, 3.50000000e-08, 3.74444200e-16, 3.50000000e-08, 1.21431163e-19, 3.50000000e-08, 2.19024506e-08, 3.50000000e-08, 7.33801944e-01, 3.50000000e-08, 3.79650719e-02, 3.50000000e-08, 5.48136973e-01, 3.50000000e-08, 5.48136962e-01, 3.50000000e-08, 4.56569915e+07, 3.50000000e-08, 1.05033531e+09, 3.50000000e-08, 1.67166057e+08, 3.50000000e-08, 2.67940935e+01 , 1,.250, SKY130
 4.00000000e-08, 1.06290153e-06, 4.00000000e-08, 4.00062764e-08, 4.00000000e-08, 9.02624899e-16, 4.00000000e-08 -4.63039996e-16, 4.00000000e-08, 7.01469656e-20, 4.00000000e-08, 2.56529361e-16, 4.00000000e-08, 3.84168230e-16, 4.00000000e-08, 1.24219429e-19, 4.00000000e-08, 2.48850561e-08, 4.00000000e-08, 7.33801811e-01, 4.00000000e-08, 3.80634859e-02, 4.00000000e-08, 5.53022652e-01, 4.00000000e-08, 5.53022640e-01, 4.00000000e-08, 4.01847598e+07, 4.00000000e-08, 1.17756726e+09, 4.00000000e-08, 1.87415651e+08, 4.00000000e-08, 2.65683695e+01 , 1,.250, SKY130
 4.50000000e-08, 1.18642413e-06, 4.50000000e-08, 4.50039352e-08, 4.50000000e-08, 9.11174827e-16, 4.50000000e-08 -4.74610654e-16, 4.50000000e-08, 6.96204283e-20, 4.50000000e-08, 2.62328962e-16, 4.50000000e-08, 3.92859586e-16, 4.50000000e-08, 1.26812595e-19, 4.50000000e-08, 2.78476317e-08, 4.50000000e-08, 7.33801693e-01, 4.50000000e-08, 3.81612725e-02, 4.50000000e-08, 5.57368523e-01, 4.50000000e-08, 5.57368510e-01, 4.50000000e-08, 3.59096964e+07, 4.50000000e-08, 1.30208177e+09, 4.50000000e-08, 2.07232750e+08, 4.50000000e-08, 2.63626754e+01 , 1,.250, SKY130
 5.00000000e-08, 1.30874472e-06, 5.00000000e-08, 5.00025248e-08, 5.00000000e-08, 9.18940462e-16, 5.00000000e-08 -4.85104168e-16, 5.00000000e-08, 6.90115543e-20, 5.00000000e-08, 2.67575247e-16, 5.00000000e-08, 4.00721850e-16, 5.00000000e-08, 1.29241007e-19, 5.00000000e-08, 3.07914760e-08, 5.00000000e-08, 7.33801586e-01, 5.00000000e-08, 3.82584641e-02, 5.00000000e-08, 5.61285981e-01, 5.00000000e-08, 5.61285966e-01, 5.00000000e-08, 3.24765204e+07, 5.00000000e-08, 1.42418881e+09, 5.00000000e-08, 2.26666689e+08, 5.00000000e-08, 2.61735727e+01 , 1,.250, SKY130
 5.50000000e-08, 1.42995932e-06, 5.50000000e-08, 5.50016471e-08, 5.50000000e-08, 9.26058582e-16, 5.50000000e-08 -4.94710176e-16, 5.50000000e-08, 6.83449569e-20, 5.50000000e-08, 2.72366828e-16, 5.50000000e-08, 4.07902775e-16, 5.50000000e-08, 1.31527965e-19, 5.50000000e-08, 3.37175664e-08, 5.50000000e-08, 7.33801489e-01, 5.50000000e-08, 3.83550850e-02, 5.50000000e-08, 5.64854793e-01, 5.50000000e-08, 5.64854777e-01, 5.50000000e-08, 2.96581310e+07, 5.50000000e-08, 1.54413483e+09, 5.50000000e-08, 2.45756692e+08, 5.50000000e-08, 2.59984817e+01 , 1,.250, SKY130
 6.00000000e-08, 1.55015178e-06, 6.00000000e-08, 6.00010683e-08, 6.00000000e-08, 9.32632495e-16, 6.00000000e-08 -5.03571583e-16, 6.00000000e-08, 6.76376495e-20, 6.00000000e-08, 2.76777820e-16, 6.00000000e-08, 4.14513407e-16, 6.00000000e-08, 1.33691889e-19, 6.00000000e-08, 3.66267746e-08, 6.00000000e-08, 7.33801400e-01, 6.00000000e-08, 3.84511576e-02, 6.00000000e-08, 5.68134214e-01, 6.00000000e-08, 5.68134196e-01, 6.00000000e-08, 2.73024314e+07, 6.00000000e-08, 1.66212499e+09, 6.00000000e-08, 2.64535409e+08, 6.00000000e-08, 2.58354030e+01 , 1,.250, SKY130
 6.50000000e-08, 1.66939615e-06, 6.50000000e-08, 6.50006739e-08, 6.50000000e-08, 9.38742235e-16, 6.50000000e-08 -5.11798886e-16, 6.50000000e-08, 6.69017022e-20, 6.50000000e-08, 2.80865393e-16, 6.50000000e-08, 4.20639409e-16, 6.50000000e-08, 1.35747635e-19, 6.50000000e-08, 3.95198891e-08, 6.50000000e-08, 7.33801318e-01, 6.50000000e-08, 3.85467029e-02, 6.50000000e-08, 5.71169483e-01, 6.50000000e-08, 5.71169464e-01, 6.50000000e-08, 2.53037147e+07, 6.50000000e-08, 1.77833285e+09, 6.50000000e-08, 2.83030463e+08, 6.50000000e-08, 2.56827514e+01 , 1,.250, SKY130
 7.00000000e-08, 1.78775734e-06, 7.00000000e-08, 7.00003929e-08, 7.00000000e-08, 9.44451090e-16, 7.00000000e-08 -5.19479300e-16, 7.00000000e-08, 6.61458672e-20, 7.00000000e-08, 2.84674574e-16, 7.00000000e-08, 4.26348248e-16, 7.00000000e-08, 1.37707361e-19, 7.00000000e-08, 4.23976050e-08, 7.00000000e-08, 7.33801241e-01, 7.00000000e-08, 3.86417400e-02, 7.00000000e-08, 5.73995915e-01, 7.00000000e-08, 5.73995895e-01, 7.00000000e-08, 2.35862380e+07, 7.00000000e-08, 1.89290622e+09, 7.00000000e-08, 3.01265382e+08, 7.00000000e-08, 2.55392473e+01 , 1,.250, SKY130
 7.50000000e-08, 1.90529287e-06, 7.50000000e-08, 7.50001905e-08, 7.50000000e-08, 9.49810008e-16, 7.50000000e-08 -5.26682933e-16, 7.50000000e-08, 6.53766007e-20, 7.50000000e-08, 2.88241489e-16, 7.50000000e-08, 4.31694054e-16, 7.50000000e-08, 1.39581168e-19, 7.50000000e-08, 4.52605444e-08, 7.50000000e-08, 7.33801169e-01, 7.50000000e-08, 3.87362859e-02, 7.50000000e-08, 5.76641615e-01, 7.50000000e-08, 5.76641593e-01, 7.50000000e-08, 2.20942990e+07, 7.50000000e-08, 2.00597262e+09, 7.50000000e-08, 3.19260458e+08, 7.50000000e-08, 2.54038404e+01 , 1,.250, SKY130
 8.00000000e-08, 2.02205361e-06, 8.00000000e-08, 8.00000396e-08, 8.00000000e-08, 9.54860632e-16, 8.00000000e-08 -5.33467001e-16, 8.00000000e-08, 6.45987363e-20, 8.00000000e-08, 2.91595566e-16, 8.00000000e-08, 4.36720922e-16, 8.00000000e-08, 1.41377541e-19, 8.00000000e-08, 4.81092586e-08, 8.00000000e-08, 7.33801101e-01, 8.00000000e-08, 3.88303563e-02, 8.00000000e-08, 5.79129315e-01, 8.00000000e-08, 5.79129291e-01, 8.00000000e-08, 2.07860198e+07, 8.00000000e-08, 2.11764267e+09, 8.00000000e-08, 3.37033298e+08, 8.00000000e-08, 2.52756577e+01 , 1,.250, SKY130
 8.50000000e-08, 2.13808504e-06, 8.50000000e-08, 8.49999242e-08, 8.50000000e-08, 9.59637453e-16, 8.50000000e-08 -5.39878836e-16, 8.50000000e-08, 6.38159336e-20, 8.50000000e-08, 2.94761110e-16, 8.50000000e-08, 4.41465272e-16, 8.50000000e-08, 1.43103693e-19, 8.50000000e-08, 5.09442436e-08, 8.50000000e-08, 7.33801037e-01, 8.50000000e-08, 3.89239652e-02, 8.50000000e-08, 5.81477667e-01, 8.50000000e-08, 5.81477643e-01, 8.50000000e-08, 1.96293031e+07, 8.50000000e-08, 2.22801333e+09, 8.50000000e-08, 3.54599334e+08, 8.50000000e-08, 2.51539640e+01 , 1,.250, SKY130
 9.00000000e-08, 2.25342794e-06, 9.00000000e-08, 8.99998342e-08, 9.00000000e-08, 9.64169382e-16, 9.00000000e-08 -5.45958063e-16, 9.00000000e-08, 6.30309893e-20, 9.00000000e-08, 2.97758436e-16, 9.00000000e-08, 4.45957542e-16, 9.00000000e-08, 1.44765808e-19, 9.00000000e-08, 5.37659479e-08, 9.00000000e-08, 7.33800977e-01, 9.00000000e-08, 3.90171256e-02, 9.00000000e-08, 5.83702172e-01, 9.00000000e-08, 5.83702146e-01, 9.00000000e-08, 1.85991327e+07, 9.00000000e-08, 2.33717019e+09, 9.00000000e-08, 3.71972188e+08, 9.00000000e-08, 2.50381343e+01 , 1,.250, SKY130
