 isweep, gm, i_id, id, i_cgg, cgg, i_cgs, cgs, i_cgd, cgd, i_cds, cds, i_css, css, i_cdd, cdd, i_gds, gds, i_vth, vth, i_vdsat, vdsat, i_vgs, vgs, i_vds, vds, i_rds, rds, i_wt, wt, i_ft, ft, i_gm_id, gm_id, L, pdk
 1.00000000e-09, 1.47847508e-08, 1.00000000e-09, 9.99640218e-10, 1.00000000e-09, 5.43737060e-16, 1.00000000e-09 -7.08607288e-17, 1.00000000e-09, 1.32175615e-18, 1.00000000e-09, 3.86961668e-17, 1.00000000e-09, 5.79150208e-17, 1.00000000e-09 -6.61689640e-19, 1.00000000e-09, 8.57021638e-10, 1.00000000e-09, 8.00957994e-01, 1.00000000e-09, 3.98831232e-02, 1.00000000e-09, 3.60140494e-01, 1.00000000e-09, 3.60140494e-01, 1.00000000e-09, 1.16683168e+09, 1.00000000e-09, 2.71909933e+07, 1.00000000e-09, 4.32758100e+06, 1.00000000e-09, 1.47900720e+01 , .200, SKY130
 1.50000000e-09, 2.21205888e-08, 1.50000000e-09, 1.50573571e-09, 1.50000000e-09, 5.50208692e-16, 1.50000000e-09 -8.51751557e-17, 1.50000000e-09, 1.61255784e-18, 1.50000000e-09, 4.62832688e-17, 1.50000000e-09, 6.92801899e-17, 1.50000000e-09 -8.16595971e-19, 1.50000000e-09, 1.26666413e-09, 1.50000000e-09, 8.00254022e-01, 1.50000000e-09, 3.99308879e-02, 1.50000000e-09, 3.86423330e-01, 1.50000000e-09, 3.86423330e-01, 1.50000000e-09, 7.89475262e+08, 1.50000000e-09, 4.02039973e+07, 1.50000000e-09, 6.39866490e+06, 1.50000000e-09, 1.46908840e+01 , .200, SKY130
 2.00000000e-09, 2.94954174e-08, 2.00000000e-09, 2.01415799e-09, 2.00000000e-09, 5.56167440e-16, 2.00000000e-09 -9.69651399e-17, 2.00000000e-09, 1.85239346e-18, 2.00000000e-09, 5.24969838e-17, 2.00000000e-09, 7.85890364e-17, 2.00000000e-09 -9.43148919e-19, 2.00000000e-09, 1.67386849e-09, 2.00000000e-09, 7.99751371e-01, 2.00000000e-09, 3.99782695e-02, 2.00000000e-09, 4.05189842e-01, 2.00000000e-09, 4.05189841e-01, 2.00000000e-09, 5.97418499e+08, 2.00000000e-09, 5.30333408e+07, 2.00000000e-09, 8.44051834e+06, 2.00000000e-09, 1.46440436e+01 , .200, SKY130
 2.50000000e-09, 3.66399123e-08, 2.50000000e-09, 2.50623646e-09, 2.50000000e-09, 5.61461621e-16, 2.50000000e-09 -1.06795453e-16, 2.50000000e-09, 2.05265926e-18, 2.50000000e-09, 5.76566441e-17, 2.50000000e-09, 8.63192864e-17, 2.50000000e-09 -1.04818801e-18, 2.50000000e-09, 2.06509643e-09, 2.50000000e-09, 7.99372644e-01, 2.50000000e-09, 4.00236975e-02, 2.50000000e-09, 4.19329664e-01, 2.50000000e-09, 4.19329663e-01, 2.50000000e-09, 4.84238888e+08, 2.50000000e-09, 6.52580888e+07, 2.50000000e-09, 1.03861474e+07, 2.50000000e-09, 1.46194954e+01 , .200, SKY130
 3.00000000e-09, 4.38415731e-08, 3.00000000e-09, 3.00175330e-09, 3.00000000e-09, 5.66394041e-16, 3.00000000e-09 -1.15577590e-16, 3.00000000e-09, 2.23181642e-18, 3.00000000e-09, 6.22513703e-17, 3.00000000e-09, 9.32034607e-17, 3.00000000e-09 -1.14174921e-18, 3.00000000e-09, 2.45686315e-09, 3.00000000e-09, 7.99059532e-01, 3.00000000e-09, 4.00690945e-02, 3.00000000e-09, 4.31019698e-01, 3.00000000e-09, 4.31019697e-01, 3.00000000e-09, 4.07023077e+08, 3.00000000e-09, 7.74047218e+07, 3.00000000e-09, 1.23193441e+07, 3.00000000e-09, 1.46053219e+01 , .200, SKY130
 3.50000000e-09, 5.11020454e-08, 3.50000000e-09, 3.50079802e-09, 3.50000000e-09, 5.71019478e-16, 3.50000000e-09 -1.23563053e-16, 3.50000000e-09, 2.39492654e-18, 3.50000000e-09, 6.64180875e-17, 3.50000000e-09, 9.94465807e-17, 3.50000000e-09 -1.22663891e-18, 3.50000000e-09, 2.84962227e-09, 3.50000000e-09, 7.98792344e-01, 3.50000000e-09, 4.01145129e-02, 3.50000000e-09, 4.40995200e-01, 3.50000000e-09, 4.40995199e-01, 3.50000000e-09, 3.50923703e+08, 3.50000000e-09, 8.94926485e+07, 3.50000000e-09, 1.42431974e+07, 3.50000000e-09, 1.45972561e+01 , .200, SKY130
 4.00000000e-09, 5.83780024e-08, 4.00000000e-09, 4.00038276e-09, 4.00000000e-09, 5.75356587e-16, 4.00000000e-09 -1.30874603e-16, 4.00000000e-09, 2.54444298e-18, 4.00000000e-09, 7.02243908e-17, 4.00000000e-09, 1.05149846e-16, 4.00000000e-09 -1.30423481e-18, 4.00000000e-09, 3.24129851e-09, 4.00000000e-09, 7.98560436e-01, 4.00000000e-09, 4.01597130e-02, 4.00000000e-09, 4.49653503e-01, 4.00000000e-09, 4.49653502e-01, 4.00000000e-09, 3.08518329e+08, 4.00000000e-09, 1.01464038e+08, 4.00000000e-09, 1.61485032e+07, 4.00000000e-09, 1.45931042e+01 , .200, SKY130
 4.50000000e-09, 6.56634715e-08, 4.50000000e-09, 4.50009735e-09, 4.50000000e-09, 5.79441565e-16, 4.50000000e-09 -1.37631394e-16, 4.50000000e-09, 2.68275952e-18, 4.50000000e-09, 7.37348265e-17, 4.50000000e-09, 1.10409918e-16, 4.50000000e-09 -1.37584723e-18, 4.50000000e-09, 3.63178480e-09, 4.50000000e-09, 7.98355721e-01, 4.50000000e-09, 4.02046841e-02, 4.50000000e-09, 4.57296542e-01, 4.50000000e-09, 4.57296540e-01, 4.50000000e-09, 2.75346711e+08, 4.50000000e-09, 1.13321990e+08, 4.50000000e-09, 1.80357549e+07, 4.50000000e-09, 1.45915669e+01 , .200, SKY130
 5.00000000e-09, 7.29581054e-08, 5.00000000e-09, 4.99992083e-09, 5.00000000e-09, 5.83306437e-16, 5.00000000e-09 -1.43924999e-16, 5.00000000e-09, 2.81171757e-18, 5.00000000e-09, 7.69987869e-17, 5.00000000e-09, 1.15300770e-16, 5.00000000e-09 -1.44247673e-18, 5.00000000e-09, 4.02122862e-09, 5.00000000e-09, 7.98172505e-01, 5.00000000e-09, 4.02494445e-02, 5.00000000e-09, 4.64136933e-01, 5.00000000e-09, 4.64136931e-01, 5.00000000e-09, 2.48680215e+08, 5.00000000e-09, 1.25076805e+08, 5.00000000e-09, 1.99065918e+07, 5.00000000e-09, 1.45918521e+01 , .200, SKY130
 5.50000000e-09, 8.02611882e-08, 5.50000000e-09, 5.49980821e-09, 5.50000000e-09, 5.86977033e-16, 5.50000000e-09 -1.49824277e-16, 5.50000000e-09, 2.93270204e-18, 5.50000000e-09, 8.00533380e-17, 5.50000000e-09, 1.19877917e-16, 5.50000000e-09 -1.50487297e-18, 5.50000000e-09, 4.40972324e-09, 5.50000000e-09, 7.98006722e-01, 5.50000000e-09, 4.02940065e-02, 5.50000000e-09, 4.70326451e-01, 5.50000000e-09, 4.70326449e-01, 5.50000000e-09, 2.26771601e+08, 5.50000000e-09, 1.36736505e+08, 5.50000000e-09, 2.17622907e+07, 5.50000000e-09, 1.45934522e+01 , .200, SKY130
 6.00000000e-09, 8.75722495e-08, 6.00000000e-09, 5.99973211e-09, 6.00000000e-09, 5.90474723e-16, 6.00000000e-09 -1.55382892e-16, 6.00000000e-09, 3.04679274e-18, 6.00000000e-09, 8.29273085e-17, 6.00000000e-09, 1.24184538e-16, 6.00000000e-09 -1.56361841e-18, 6.00000000e-09, 4.79735039e-09, 6.00000000e-09, 7.97855359e-01, 6.00000000e-09, 4.03383806e-02, 6.00000000e-09, 4.75977614e-01, 6.00000000e-09, 4.75977613e-01, 6.00000000e-09, 2.08448397e+08, 6.00000000e-09, 1.48308210e+08, 6.00000000e-09, 2.36039848e+07, 6.00000000e-09, 1.45960266e+01 , .200, SKY130
 6.50000000e-09, 9.48909969e-08, 6.50000000e-09, 6.49967770e-09, 6.50000000e-09, 5.93817388e-16, 6.50000000e-09 -1.60643621e-16, 6.50000000e-09, 3.15485078e-18, 6.50000000e-09, 8.56436340e-17, 6.50000000e-09, 1.28254987e-16, 6.50000000e-09 -1.61917611e-18, 6.50000000e-09, 5.18418297e-09, 6.50000000e-09, 7.97716119e-01, 6.50000000e-09, 4.03825767e-02, 6.50000000e-09, 4.81176154e-01, 6.50000000e-09, 4.81176152e-01, 6.50000000e-09, 1.92894426e+08, 6.50000000e-09, 1.59798279e+08, 6.50000000e-09, 2.54326861e+07, 6.50000000e-09, 1.45993388e+01 , .200, SKY130
 7.00000000e-09, 1.02217258e-07, 7.00000000e-09, 6.99963854e-09, 7.00000000e-09, 5.97020139e-16, 7.00000000e-09 -1.65641192e-16, 7.00000000e-09, 3.25757566e-18, 7.00000000e-09, 8.82209048e-17, 7.00000000e-09, 1.32117111e-16, 7.00000000e-09 -1.67192125e-18, 7.00000000e-09, 5.57028626e-09, 7.00000000e-09, 7.97587213e-01, 7.00000000e-09, 4.04266034e-02, 7.00000000e-09, 4.85988879e-01, 7.00000000e-09, 4.85988877e-01, 7.00000000e-09, 1.79523987e+08, 7.00000000e-09, 1.71212412e+08, 7.00000000e-09, 2.72493016e+07, 7.00000000e-09, 1.46032195e+01 , .200, SKY130
 7.50000000e-09, 1.09550865e-07, 7.50000000e-09, 7.49960861e-09, 7.50000000e-09, 6.00095840e-16, 7.50000000e-09 -1.70404199e-16, 7.50000000e-09, 3.35554355e-18, 7.50000000e-09, 9.06744035e-17, 7.50000000e-09, 1.35793801e-16, 7.50000000e-09 -1.72216215e-18, 7.50000000e-09, 5.95571498e-09, 7.50000000e-09, 7.97467220e-01, 7.50000000e-09, 4.04704681e-02, 7.50000000e-09, 4.90468816e-01, 7.50000000e-09, 4.90468814e-01, 7.50000000e-09, 1.67905953e+08, 7.50000000e-09, 1.82555615e+08, 7.50000000e-09, 2.90546284e+07, 7.50000000e-09, 1.46075443e+01 , .200, SKY130
 8.00000000e-09, 1.16891706e-07, 8.00000000e-09, 7.99958571e-09, 8.00000000e-09, 6.03055558e-16, 8.00000000e-09 -1.74956540e-16, 8.00000000e-09, 3.44923631e-18, 8.00000000e-09, 9.30168856e-17, 8.00000000e-09, 1.39304165e-16, 8.00000000e-09 -1.77015612e-18, 8.00000000e-09, 6.34051816e-09, 8.00000000e-09, 7.97354994e-01, 8.00000000e-09, 4.05141777e-02, 8.00000000e-09, 4.94658784e-01, 8.00000000e-09, 4.94658782e-01, 8.00000000e-09, 1.57715817e+08, 8.00000000e-09, 1.93832400e+08, 8.00000000e-09, 3.08493847e+07, 8.00000000e-09, 1.46122200e+01 , .200, SKY130
 8.50000000e-09, 1.24239673e-07, 8.50000000e-09, 8.49956773e-09, 8.50000000e-09, 6.05908882e-16, 8.50000000e-09 -1.79318404e-16, 8.50000000e-09, 3.53906118e-18, 8.50000000e-09, 9.52591123e-17, 8.50000000e-09, 1.42664323e-16, 8.50000000e-09 -1.81612022e-18, 8.50000000e-09, 6.72473797e-09, 8.50000000e-09, 7.97249596e-01, 8.50000000e-09, 4.05577379e-02, 8.50000000e-09, 4.98593836e-01, 8.50000000e-09, 4.98593833e-01, 8.50000000e-09, 1.48704679e+08, 8.50000000e-09, 2.05046793e+08, 8.50000000e-09, 3.26342106e+07, 8.50000000e-09, 1.46171755e+01 , .200, SKY130
 9.00000000e-09, 1.31594658e-07, 9.00000000e-09, 8.99955274e-09, 9.00000000e-09, 6.08664177e-16, 9.00000000e-09 -1.83507024e-16, 9.00000000e-09, 3.62536595e-18, 9.00000000e-09, 9.74102586e-17, 9.00000000e-09, 1.45888020e-16, 9.00000000e-09 -1.86023952e-18, 9.00000000e-09, 7.10841113e-09, 9.00000000e-09, 7.97150247e-01, 9.00000000e-09, 4.06011540e-02, 9.00000000e-09, 5.02303028e-01, 9.00000000e-09, 5.02303026e-01, 9.00000000e-09, 1.40678413e+08, 9.00000000e-09, 2.16202404e+08, 9.00000000e-09, 3.44096813e+07, 9.00000000e-09, 1.46223554e+01 , .200, SKY130
 9.50000000e-09, 1.38956580e-07, 9.50000000e-09, 9.49954037e-09, 9.50000000e-09, 6.11328801e-16, 9.50000000e-09 -1.87537260e-16, 9.50000000e-09, 3.70845067e-18, 9.50000000e-09, 9.94782261e-17, 9.50000000e-09, 1.48987091e-16, 9.50000000e-09 -1.90267342e-18, 9.50000000e-09, 7.49157090e-09, 9.50000000e-09, 7.97056295e-01, 9.50000000e-09, 4.06444308e-02, 9.50000000e-09, 5.05810728e-01, 9.50000000e-09, 5.05810726e-01, 9.50000000e-09, 1.33483353e+08, 9.50000000e-09, 2.27302525e+08, 9.50000000e-09, 3.61763204e+07, 9.50000000e-09, 1.46277161e+01 , .200, SKY130
 1.00000000e-08, 1.46324787e-07, 1.00000000e-08, 9.99949162e-09, 1.00000000e-08, 6.13909062e-16, 1.00000000e-08 -1.91421722e-16, 1.00000000e-08, 3.78856999e-18, 1.00000000e-08, 1.01469720e-16, 1.00000000e-08, 1.51971583e-16, 1.00000000e-08 -1.94355712e-18, 1.00000000e-08, 7.87421711e-09, 1.00000000e-08, 7.96967195e-01, 1.00000000e-08, 4.06875692e-02, 1.00000000e-08, 5.09137311e-01, 1.00000000e-08, 5.09137308e-01, 1.00000000e-08, 1.26996752e+08, 1.00000000e-08, 2.38349287e+08, 1.00000000e-08, 3.79344672e+07, 1.00000000e-08, 1.46332226e+01 , .200, SKY130
 1.50000000e-08, 2.21371139e-07, 1.50000000e-08, 1.50665671e-08, 1.50000000e-08, 6.36371365e-16, 1.50000000e-08 -2.24604486e-16, 1.50000000e-08, 4.47450835e-18, 1.50000000e-08, 1.18418405e-16, 1.50000000e-08, 1.77372091e-16, 1.50000000e-08 -2.29224600e-18, 1.50000000e-08, 1.17298566e-08, 1.50000000e-08, 7.96256212e-01, 1.50000000e-08, 4.11178998e-02, 1.50000000e-08, 5.35681909e-01, 1.50000000e-08, 5.35681904e-01, 1.50000000e-08, 8.52525338e+07, 1.50000000e-08, 3.47864708e+08, 1.50000000e-08, 5.53643879e+07, 1.50000000e-08, 1.46928718e+01 , .200, SKY130
 2.00000000e-08, 2.97443238e-07, 2.00000000e-08, 2.01604881e-08, 2.00000000e-08, 6.54291153e-16, 2.00000000e-08 -2.50438811e-16, 2.00000000e-08, 5.01031713e-18, 2.00000000e-08, 1.31540595e-16, 2.00000000e-08, 1.97038905e-16, 2.00000000e-08 -2.56310387e-18, 2.00000000e-08, 1.55744176e-08, 2.00000000e-08, 7.95752847e-01, 2.00000000e-08, 4.15395256e-02, 2.00000000e-08, 5.54475101e-01, 2.00000000e-08, 5.54475096e-01, 2.00000000e-08, 6.42078586e+07, 2.00000000e-08, 4.54603791e+08, 2.00000000e-08, 7.23524405e+07, 2.00000000e-08, 1.47537717e+01 , .200, SKY130
 2.50000000e-08, 3.71354292e-07, 2.50000000e-08, 2.50735856e-08, 2.50000000e-08, 6.68735468e-16, 2.50000000e-08 -2.70950990e-16, 2.50000000e-08, 5.43676888e-18, 2.50000000e-08, 1.41917422e-16, 2.50000000e-08, 2.12591653e-16, 2.50000000e-08 -2.77782226e-18, 2.50000000e-08, 1.92601962e-08, 2.50000000e-08, 7.95377232e-01, 2.50000000e-08, 4.19372025e-02, 2.50000000e-08, 5.68498707e-01, 2.50000000e-08, 5.68498700e-01, 2.50000000e-08, 5.19205511e+07, 2.50000000e-08, 5.55308204e+08, 2.50000000e-08, 8.83800456e+07, 2.50000000e-08, 1.48105778e+01 , .200, SKY130
 3.00000000e-08, 4.46298254e-07, 3.00000000e-08, 3.00230150e-08, 3.00000000e-08, 6.81295271e-16, 3.00000000e-08 -2.88600863e-16, 3.00000000e-08, 5.80439946e-18, 3.00000000e-08, 1.50818054e-16, 3.00000000e-08, 2.25932231e-16, 3.00000000e-08 -2.96235309e-18, 3.00000000e-08, 2.29551963e-08, 3.00000000e-08, 7.95067997e-01, 3.00000000e-08, 4.23298449e-02, 3.00000000e-08, 5.80044042e-01, 3.00000000e-08, 5.80044033e-01, 3.00000000e-08, 4.35631212e+07, 3.00000000e-08, 6.55073172e+08, 3.00000000e-08, 1.04258133e+08, 3.00000000e-08, 1.48652044e+01 , .200, SKY130
 3.50000000e-08, 5.22302391e-07, 3.50000000e-08, 3.50127244e-08, 3.50000000e-08, 6.92438128e-16, 3.50000000e-08 -3.04134408e-16, 3.50000000e-08, 6.12845173e-18, 3.50000000e-08, 1.58630723e-16, 3.50000000e-08, 2.37642382e-16, 3.50000000e-08 -3.12459204e-18, 3.50000000e-08, 2.66645231e-08, 3.50000000e-08, 7.94804931e-01, 3.50000000e-08, 4.27182833e-02, 3.50000000e-08, 5.89865654e-01, 3.50000000e-08, 5.89865644e-01, 3.50000000e-08, 3.75030147e+07, 3.50000000e-08, 7.54294672e+08, 3.50000000e-08, 1.20049726e+08, 3.50000000e-08, 1.49175021e+01 , .200, SKY130
 4.00000000e-08, 5.98811467e-07, 4.00000000e-08, 4.00084541e-08, 4.00000000e-08, 7.02401499e-16, 4.00000000e-08 -3.17935185e-16, 4.00000000e-08, 6.41673681e-18, 4.00000000e-08, 1.65556118e-16, 4.00000000e-08, 2.48022815e-16, 4.00000000e-08 -3.26860679e-18, 4.00000000e-08, 3.03642413e-08, 4.00000000e-08, 7.94577416e-01, 4.00000000e-08, 4.31003099e-02, 4.00000000e-08, 5.98359940e-01, 4.00000000e-08, 5.98359929e-01, 4.00000000e-08, 3.29334756e+07, 4.00000000e-08, 8.52520201e+08, 4.00000000e-08, 1.35682804e+08, 4.00000000e-08, 1.49671233e+01 , .200, SKY130
 4.50000000e-08, 6.75717562e-07, 4.50000000e-08, 4.50054410e-08, 4.50000000e-08, 7.11407347e-16, 4.50000000e-08 -3.30344458e-16, 4.50000000e-08, 6.67625143e-18, 4.50000000e-08, 1.71770884e-16, 4.50000000e-08, 2.57338238e-16, 4.50000000e-08 -3.39800116e-18, 4.50000000e-08, 3.40520389e-08, 4.50000000e-08, 7.94377245e-01, 4.50000000e-08, 4.34760108e-02, 4.50000000e-08, 6.05833364e-01, 4.50000000e-08, 6.05833351e-01, 4.50000000e-08, 2.93668172e+07, 4.50000000e-08, 9.49832138e+08, 4.50000000e-08, 1.51170480e+08, 4.50000000e-08, 1.50141304e+01 , .200, SKY130
 5.00000000e-08, 7.52986800e-07, 5.00000000e-08, 5.00035799e-08, 5.00000000e-08, 7.19624881e-16, 5.00000000e-08 -3.41617797e-16, 5.00000000e-08, 6.91224756e-18, 5.00000000e-08, 1.77406822e-16, 5.00000000e-08, 2.65786160e-16, 5.00000000e-08 -3.51547014e-18, 5.00000000e-08, 3.77287476e-08, 5.00000000e-08, 7.94198627e-01, 5.00000000e-08, 4.38457693e-02, 5.00000000e-08, 6.12502105e-01, 5.00000000e-08, 6.12502090e-01, 5.00000000e-08, 2.65049880e+07, 5.00000000e-08, 1.04636015e+09, 5.00000000e-08, 1.66533391e+08, 5.00000000e-08, 1.50586578e+01 , .200, SKY130
 5.50000000e-08, 8.30582642e-07, 5.50000000e-08, 5.50024113e-08, 5.50000000e-08, 7.27180704e-16, 5.50000000e-08 -3.51944397e-16, 5.50000000e-08, 7.12861833e-18, 5.50000000e-08, 1.82561291e-16, 5.50000000e-08, 2.73512488e-16, 5.50000000e-08 -3.62300718e-18, 5.50000000e-08, 4.13947216e-08, 5.50000000e-08, 7.94037441e-01, 5.50000000e-08, 4.42098910e-02, 5.50000000e-08, 6.18520009e-01, 5.50000000e-08, 6.18519993e-01, 5.50000000e-08, 2.41576694e+07, 5.50000000e-08, 1.14219566e+09, 5.50000000e-08, 1.81786085e+08, 5.50000000e-08, 1.51008405e+01 , .200, SKY130
 6.00000000e-08, 9.08473481e-07, 6.00000000e-08, 6.00016369e-08, 6.00000000e-08, 7.34172801e-16, 6.00000000e-08 -3.61469311e-16, 6.00000000e-08, 7.32835249e-18, 6.00000000e-08, 1.87308785e-16, 6.00000000e-08, 2.80628856e-16, 6.00000000e-08 -3.72213946e-18, 6.00000000e-08, 4.50502847e-08, 6.00000000e-08, 7.93890639e-01, 6.00000000e-08, 4.45686547e-02, 6.00000000e-08, 6.24000890e-01, 6.00000000e-08, 6.24000872e-01, 6.00000000e-08, 2.21974180e+07, 6.00000000e-08, 1.23741098e+09, 6.00000000e-08, 1.96940073e+08, 6.00000000e-08, 1.51408116e+01 , .200, SKY130
 6.50000000e-08, 9.86632131e-07, 6.50000000e-08, 6.50011022e-08, 6.50000000e-08, 7.40678707e-16, 6.50000000e-08 -3.70306403e-16, 6.50000000e-08, 7.51379886e-18, 6.50000000e-08, 1.91707668e-16, 6.50000000e-08, 2.87222733e-16, 6.50000000e-08 -3.81406496e-18, 6.50000000e-08, 4.86957580e-08, 6.50000000e-08, 7.93755902e-01, 6.50000000e-08, 4.49223180e-02, 6.50000000e-08, 6.29031320e-01, 6.50000000e-08, 6.29031301e-01, 6.50000000e-08, 2.05356697e+07, 6.50000000e-08, 1.33206493e+09, 6.50000000e-08, 2.12004718e+08, 6.50000000e-08, 1.51786985e+01 , .200, SKY130
 7.00000000e-08, 1.06503441e-06, 7.00000000e-08, 7.00007198e-08, 7.00000000e-08, 7.46760851e-16, 7.00000000e-08 -3.78546722e-16, 7.00000000e-08, 7.68683765e-18, 7.00000000e-08, 1.95804531e-16, 7.00000000e-08, 2.93363944e-16, 7.00000000e-08 -3.89974104e-18, 7.00000000e-08, 5.23314317e-08, 7.00000000e-08, 7.93631426e-01, 7.00000000e-08, 4.52711170e-02, 7.00000000e-08, 6.33678638e-01, 7.00000000e-08, 6.33678617e-01, 7.00000000e-08, 1.91089746e+07, 7.00000000e-08, 1.42620547e+09, 7.00000000e-08, 2.26987651e+08, 7.00000000e-08, 1.52146209e+01 , .200, SKY130
 7.50000000e-08, 1.14365851e-06, 7.50000000e-08, 7.50004405e-08, 7.50000000e-08, 7.52470272e-16, 7.50000000e-08 -3.86264261e-16, 7.50000000e-08, 7.84899830e-18, 7.50000000e-08, 1.99637180e-16, 7.50000000e-08, 2.99109146e-16, 7.50000000e-08 -3.97994524e-18, 7.50000000e-08, 5.59575639e-08, 7.50000000e-08, 7.93515782e-01, 7.50000000e-08, 4.56152681e-02, 7.50000000e-08, 6.37996233e-01, 7.50000000e-08, 6.37996211e-01, 7.50000000e-08, 1.78706850e+07, 7.50000000e-08, 1.51987202e+09, 7.50000000e-08, 2.41895144e+08, 7.50000000e-08, 1.52486906e+01 , .200, SKY130
 8.00000000e-08, 1.22248445e-06, 8.00000000e-08, 8.00002311e-08, 8.00000000e-08, 7.57849247e-16, 8.00000000e-08 -3.93519984e-16, 8.00000000e-08, 8.00154209e-18, 8.00000000e-08, 2.03236717e-16, 8.00000000e-08, 3.04504955e-16, 8.00000000e-08 -4.05531790e-18, 8.00000000e-08, 5.95743780e-08, 8.00000000e-08, 7.93407817e-01, 8.00000000e-08, 4.59549702e-02, 8.00000000e-08, 6.42027134e-01, 8.00000000e-08, 6.42027111e-01, 8.00000000e-08, 1.67857397e+07, 8.00000000e-08, 1.61309713e+09, 8.00000000e-08, 2.56732382e+08, 8.00000000e-08, 1.52810115e+01 , .200, SKY130
 8.50000000e-08, 1.30149388e-06, 8.50000000e-08, 8.50000710e-08, 8.50000000e-08, 7.62933206e-16, 8.50000000e-08 -4.00364745e-16, 8.50000000e-08, 8.14552198e-18, 8.50000000e-08, 2.06629054e-16, 8.50000000e-08, 3.09590204e-16, 8.50000000e-08 -4.12639289e-18, 8.50000000e-08, 6.31820708e-08, 8.50000000e-08, 7.93306588e-01, 8.50000000e-08, 4.62904067e-02, 8.50000000e-08, 6.45806521e-01, 8.50000000e-08, 6.45806496e-01, 8.50000000e-08, 1.58272748e+07, 8.50000000e-08, 1.70590803e+09, 8.50000000e-08, 2.71503695e+08, 8.50000000e-08, 1.53116799e+01 , .200, SKY130
 9.00000000e-08, 1.38066985e-06, 9.00000000e-08, 8.99999456e-08, 9.00000000e-08, 7.67752149e-16, 9.00000000e-08 -4.06841417e-16, 9.00000000e-08, 8.28182639e-18, 9.00000000e-08, 2.09836009e-16, 9.00000000e-08, 3.14397592e-16, 9.00000000e-08 -4.19362012e-18, 9.00000000e-08, 6.67808151e-08, 9.00000000e-08, 7.93211316e-01, 9.00000000e-08, 4.66217470e-02, 9.00000000e-08, 6.49363519e-01, 9.00000000e-08, 6.49363493e-01, 9.00000000e-08, 1.49743605e+07, 9.00000000e-08, 1.79832757e+09, 9.00000000e-08, 2.86212721e+08, 9.00000000e-08, 1.53407854e+01 , .200, SKY130
