 isweep, gm, i_id, id, i_cgg, cgg, i_cgs, cgs, i_cgd, cgd, i_cds, cds, i_css, css, i_cdd, cdd, i_gds, gds, i_vth, vth, i_vdsat, vdsat, i_vgs, vgs, i_vds, vds, i_rds, rds, i_wt, wt, i_ft, ft, i_gm_id, gm_id, W, L, pdk
 1.00000000e-09, 1.99553714e-08, 1.00000000e-09, 9.99382818e-10, 1.00000000e-09, 1.11390015e-15, 1.00000000e-09 -3.53443637e-16, 1.00000000e-09, 7.01652622e-19, 1.00000000e-09, 1.69637094e-16, 1.00000000e-09, 2.54150197e-16, 1.00000000e-09 -2.74268787e-19, 1.00000000e-09, 1.41242707e-10, 1.00000000e-09, 9.34933385e-01, 1.00000000e-09, 3.90609503e-02, 1.00000000e-09, 6.17701599e-01, 1.00000000e-09, 6.17701599e-01, 1.00000000e-09, 7.08001155e+09, 1.00000000e-09, 1.79148656e+07, 1.00000000e-09, 2.85123941e+06, 1.00000000e-09, 1.99676951e+01 , 1, .500, SKY130
 1.50000000e-09, 2.87601070e-08, 1.50000000e-09, 1.50379940e-09, 1.50000000e-09, 1.15147579e-15, 1.50000000e-09 -4.11671255e-16, 1.50000000e-09, 8.26724915e-19, 1.50000000e-09, 1.96556131e-16, 1.50000000e-09, 2.94496119e-16, 1.50000000e-09 -3.27537728e-19, 1.50000000e-09, 2.06272752e-10, 1.50000000e-09, 9.34873496e-01, 1.50000000e-09, 3.91745998e-02, 1.50000000e-09, 6.38474982e-01, 1.50000000e-09, 6.38474982e-01, 1.50000000e-09, 4.84795005e+09, 1.50000000e-09, 2.49767362e+07, 1.50000000e-09, 3.97517102e+06, 1.50000000e-09, 1.91249624e+01 , 1, .500, SKY130
 2.00000000e-09, 3.74281006e-08, 2.00000000e-09, 2.00978533e-09, 2.00000000e-09, 1.18327871e-15, 2.00000000e-09 -4.59409416e-16, 2.00000000e-09, 9.29570264e-19, 2.00000000e-09, 2.18505639e-16, 2.00000000e-09, 3.27394686e-16, 2.00000000e-09 -3.71182257e-19, 2.00000000e-09, 2.70296496e-10, 2.00000000e-09, 9.34829492e-01, 2.00000000e-09, 3.92877885e-02, 2.00000000e-09, 6.53738535e-01, 2.00000000e-09, 6.53738534e-01, 2.00000000e-09, 3.69964100e+09, 2.00000000e-09, 3.16308409e+07, 2.00000000e-09, 5.03420468e+06, 2.00000000e-09, 1.86229346e+01 , 1, .500, SKY130
 2.50000000e-09, 4.58227148e-08, 2.50000000e-09, 2.50415611e-09, 2.50000000e-09, 1.21048160e-15, 2.50000000e-09 -4.99429051e-16, 2.50000000e-09, 1.01597051e-18, 2.50000000e-09, 2.36830538e-16, 2.50000000e-09, 3.54861132e-16, 2.50000000e-09 -4.07741575e-19, 2.50000000e-09, 3.32107364e-10, 2.50000000e-09, 9.34795386e-01, 2.50000000e-09, 3.93976473e-02, 2.50000000e-09, 6.65568900e-01, 2.50000000e-09, 6.65568899e-01, 2.50000000e-09, 3.01107445e+09, 2.50000000e-09, 3.78549455e+07, 2.50000000e-09, 6.02480169e+06, 2.50000000e-09, 1.82986654e+01 , 1, .500, SKY130
 3.00000000e-09, 5.42255733e-08, 3.00000000e-09, 3.00112044e-09, 3.00000000e-09, 1.23496798e-15, 3.00000000e-09 -5.34945446e-16, 3.00000000e-09, 1.09277369e-18, 3.00000000e-09, 2.53039625e-16, 3.00000000e-09, 3.79156653e-16, 3.00000000e-09 -4.40160201e-19, 3.00000000e-09, 3.93718465e-10, 3.00000000e-09, 9.34766886e-01, 3.00000000e-09, 3.95073908e-02, 3.00000000e-09, 6.75454731e-01, 3.00000000e-09, 6.75454730e-01, 3.00000000e-09, 2.53988595e+09, 3.00000000e-09, 4.39084851e+07, 3.00000000e-09, 6.98825244e+06, 3.00000000e-09, 1.80684429e+01 , 1, .500, SKY130
 3.50000000e-09, 6.26511032e-08, 3.50000000e-09, 3.50036787e-09, 3.50000000e-09, 1.25730834e-15, 3.50000000e-09 -5.67000737e-16, 3.50000000e-09, 1.16218431e-18, 3.50000000e-09, 2.67628123e-16, 3.50000000e-09, 4.01023381e-16, 3.50000000e-09 -4.69394817e-19, 3.50000000e-09, 4.55211552e-10, 3.50000000e-09, 9.34742392e-01, 3.50000000e-09, 3.96169685e-02, 3.50000000e-09, 6.83950900e-01, 3.50000000e-09, 6.83950899e-01, 3.50000000e-09, 2.19678080e+09, 3.50000000e-09, 4.98295456e+07, 3.50000000e-09, 7.93061850e+06, 3.50000000e-09, 1.78984340e+01 , 1, .500, SKY130
 4.00000000e-09, 7.10789876e-08, 4.00000000e-09, 4.00001129e-09, 4.00000000e-09, 1.27783077e-15, 4.00000000e-09 -5.96195957e-16, 4.00000000e-09, 1.22547184e-18, 4.00000000e-09, 2.80882722e-16, 4.00000000e-09, 4.20890944e-16, 4.00000000e-09 -4.95998471e-19, 4.00000000e-09, 5.16434142e-10, 4.00000000e-09, 9.34720976e-01, 4.00000000e-09, 3.97259834e-02, 4.00000000e-09, 6.91379255e-01, 4.00000000e-09, 6.91379254e-01, 4.00000000e-09, 1.93635532e+09, 4.00000000e-09, 5.56247269e+07, 4.00000000e-09, 8.85295024e+06, 4.00000000e-09, 1.77696968e+01 , 1, .500, SKY130
 4.50000000e-09, 7.95117119e-08, 4.50000000e-09, 4.49977809e-09, 4.50000000e-09, 1.29683184e-15, 4.50000000e-09 -6.23038028e-16, 4.50000000e-09, 1.28371306e-18, 4.50000000e-09, 2.93042938e-16, 4.50000000e-09, 4.39118288e-16, 4.50000000e-09 -5.20437405e-19, 4.50000000e-09, 5.77409675e-10, 4.50000000e-09, 9.34701959e-01, 4.50000000e-09, 3.98343944e-02, 4.50000000e-09, 6.97975747e-01, 4.50000000e-09, 6.97975746e-01, 4.50000000e-09, 1.73187261e+09, 4.50000000e-09, 6.13122762e+07, 4.50000000e-09, 9.75815183e+06, 4.50000000e-09, 1.76701407e+01 , 1, .500, SKY130
 5.00000000e-09, 8.79531493e-08, 5.00000000e-09, 4.99963231e-09, 5.00000000e-09, 1.31454199e-15, 5.00000000e-09 -6.47910165e-16, 5.00000000e-09, 1.33772373e-18, 5.00000000e-09, 3.04289208e-16, 5.00000000e-09, 4.55975830e-16, 5.00000000e-09 -5.43064203e-19, 5.00000000e-09, 6.38174983e-10, 5.00000000e-09, 9.34684858e-01, 5.00000000e-09, 3.99422102e-02, 5.00000000e-09, 7.03907466e-01, 5.00000000e-09, 7.03907465e-01, 5.00000000e-09, 1.56696835e+09, 5.00000000e-09, 6.69078280e+07, 5.00000000e-09, 1.06487116e+07, 5.00000000e-09, 1.75919235e+01 , 1, .500, SKY130
 5.50000000e-09, 9.64055856e-08, 5.50000000e-09, 5.49953722e-09, 5.50000000e-09, 1.33113932e-15, 5.50000000e-09 -6.71103212e-16, 5.50000000e-09, 1.38812392e-18, 5.50000000e-09, 3.14758182e-16, 5.50000000e-09, 4.71668364e-16, 5.50000000e-09 -5.64146584e-19, 5.50000000e-09, 6.98756507e-10, 5.50000000e-09, 9.34669325e-01, 5.50000000e-09, 4.00494375e-02, 5.50000000e-09, 7.09295427e-01, 5.50000000e-09, 7.09295426e-01, 5.50000000e-09, 1.43111369e+09, 5.50000000e-09, 7.24233628e+07, 5.50000000e-09, 1.15265362e+07, 5.50000000e-09, 1.75297633e+01 , 1, .500, SKY130
 6.00000000e-09, 1.04870588e-07, 6.00000000e-09, 5.99947239e-09, 6.00000000e-09, 1.34676544e-15, 6.00000000e-09 -6.92844831e-16, 6.00000000e-09, 1.43539965e-18, 6.00000000e-09, 3.24556597e-16, 6.00000000e-09, 4.86355858e-16, 6.00000000e-09 -5.83894174e-19, 6.00000000e-09, 7.59175648e-10, 6.00000000e-09, 9.34655098e-01, 6.00000000e-09, 4.01560856e-02, 6.00000000e-09, 7.14230319e-01, 6.00000000e-09, 7.14230317e-01, 6.00000000e-09, 1.31721822e+09, 6.00000000e-09, 7.78684873e+07, 6.00000000e-09, 1.23931547e+07, 6.00000000e-09, 1.74799684e+01 , 1, .500, SKY130
 6.50000000e-09, 1.13349218e-07, 6.50000000e-09, 6.49942612e-09, 6.50000000e-09, 1.36153513e-15, 6.50000000e-09 -7.13317053e-16, 6.50000000e-09, 1.47994001e-18, 6.50000000e-09, 3.33769629e-16, 6.50000000e-09, 5.00165967e-16, 6.50000000e-09 -6.02474620e-19, 6.50000000e-09, 8.19449882e-10, 6.50000000e-09, 9.34641976e-01, 6.50000000e-09, 4.02621645e-02, 6.50000000e-09, 7.18781858e-01, 6.50000000e-09, 7.18781856e-01, 6.50000000e-09, 1.22033088e+09, 6.50000000e-09, 8.32510418e+07, 6.50000000e-09, 1.32498148e+07, 6.50000000e-09, 1.74398810e+01 , 1, .500, SKY130
 7.00000000e-09, 1.21842166e-07, 7.00000000e-09, 6.99939075e-09, 7.00000000e-09, 1.37554285e-15, 7.00000000e-09 -7.32668016e-16, 7.00000000e-09, 1.52206201e-18, 7.00000000e-09, 3.42466471e-16, 7.00000000e-09, 5.13202393e-16, 7.00000000e-09 -6.20024380e-19, 7.00000000e-09, 8.79593529e-10, 7.00000000e-09, 9.34629801e-01, 7.00000000e-09, 4.03676841e-02, 7.00000000e-09, 7.23004799e-01, 7.00000000e-09, 7.23004797e-01, 7.00000000e-09, 1.13688876e+09, 7.00000000e-09, 8.85775143e+07, 7.00000000e-09, 1.40975492e+07, 7.00000000e-09, 1.74075388e+01 , 1, .500, SKY130
 7.50000000e-09, 1.30349938e-07, 7.50000000e-09, 7.49936561e-09, 7.50000000e-09, 1.38886758e-15, 7.50000000e-09 -7.51020300e-16, 7.50000000e-09, 1.56202824e-18, 7.50000000e-09, 3.50704279e-16, 7.50000000e-09, 5.25550799e-16, 7.50000000e-09 -6.36656376e-19, 7.50000000e-09, 9.39619015e-10, 7.50000000e-09, 9.34618448e-01, 7.50000000e-09, 4.04726552e-02, 7.50000000e-09, 7.26942965e-01, 7.50000000e-09, 7.26942963e-01, 7.50000000e-09, 1.06426114e+09, 7.50000000e-09, 9.38533950e+07, 7.50000000e-09, 1.49372317e+07, 7.50000000e-09, 1.73814619e+01 , 1, .500, SKY130
 8.00000000e-09, 1.38872732e-07, 8.00000000e-09, 7.99934480e-09, 8.00000000e-09, 1.40157587e-15, 8.00000000e-09 -7.68476304e-16, 8.00000000e-09, 1.60005827e-18, 8.00000000e-09, 3.58530728e-16, 8.00000000e-09, 5.37282636e-16, 8.00000000e-09 -6.52464947e-19, 8.00000000e-09, 9.99536039e-10, 8.00000000e-09, 9.34607813e-01, 8.00000000e-09, 4.05770870e-02, 8.00000000e-09, 7.30631913e-01, 8.00000000e-09, 7.30631911e-01, 8.00000000e-09, 1.00046418e+09, 8.00000000e-09, 9.90832780e+07, 8.00000000e-09, 1.57695935e+07, 8.00000000e-09, 1.73605133e+01 , 1, .500, SKY130
 8.50000000e-09, 1.47410700e-07, 8.50000000e-09, 8.49932855e-09, 8.50000000e-09, 1.41372466e-15, 8.50000000e-09 -7.85122920e-16, 8.50000000e-09, 1.63633857e-18, 8.50000000e-09, 3.65986210e-16, 8.50000000e-09, 5.48458446e-16, 8.50000000e-09 -6.67530149e-19, 8.50000000e-09, 1.05935340e-09, 8.50000000e-09, 9.34597812e-01, 8.50000000e-09, 4.06809893e-02, 8.50000000e-09, 7.34100959e-01, 8.50000000e-09, 7.34100956e-01, 8.50000000e-09, 9.43972049e+08, 8.50000000e-09, 1.04271152e+08, 8.50000000e-09, 1.65952693e+07, 8.50000000e-09, 1.73438053e+01 , 1, .500, SKY130
 9.00000000e-09, 1.55963843e-07, 9.00000000e-09, 8.99931505e-09, 9.00000000e-09, 1.42536293e-15, 9.00000000e-09 -8.01034389e-16, 9.00000000e-09, 1.67102860e-18, 9.00000000e-09, 3.73105191e-16, 9.00000000e-09, 5.59129883e-16, 9.00000000e-09 -6.81920377e-19, 9.00000000e-09, 1.11907835e-09, 9.00000000e-09, 9.34588374e-01, 9.00000000e-09, 4.07843710e-02, 9.00000000e-09, 7.37374519e-01, 9.00000000e-09, 7.37374517e-01, 9.00000000e-09, 8.93592481e+08, 9.00000000e-09, 1.09420443e+08, 9.00000000e-09, 1.74148043e+07, 9.00000000e-09, 1.73306349e+01 , 1, .500, SKY130
 9.50000000e-09, 1.64532107e-07, 9.50000000e-09, 9.49930393e-09, 9.50000000e-09, 1.43653325e-15, 9.50000000e-09 -8.16274806e-16, 9.50000000e-09, 1.70426614e-18, 9.50000000e-09, 3.79917386e-16, 9.50000000e-09, 5.69341485e-16, 9.50000000e-09 -6.95694682e-19, 9.50000000e-09, 1.17871726e-09, 9.50000000e-09, 9.34579441e-01, 9.50000000e-09, 4.08872411e-02, 9.50000000e-09, 7.40473166e-01, 9.50000000e-09, 7.40473163e-01, 9.50000000e-09, 8.48379872e+08, 9.50000000e-09, 1.14534145e+08, 9.50000000e-09, 1.82286753e+07, 9.50000000e-09, 1.73204383e+01 , 1, .500, SKY130
 1.00000000e-08, 1.73119001e-07, 1.00000000e-08, 9.99950582e-09, 1.00000000e-08, 1.44727730e-15, 1.00000000e-08 -8.30905963e-16, 1.00000000e-08, 1.73618430e-18, 1.00000000e-08, 3.86451304e-16, 1.00000000e-08, 5.79135981e-16, 1.00000000e-08 -7.08909871e-19, 1.00000000e-08, 1.23830077e-09, 1.00000000e-08, 9.34570958e-01, 1.00000000e-08, 4.09896511e-02, 1.00000000e-08, 7.43415596e-01, 1.00000000e-08, 7.43415593e-01, 1.00000000e-08, 8.07558247e+08, 1.00000000e-08, 1.19617022e+08, 1.00000000e-08, 1.90376403e+07, 1.00000000e-08, 1.73127556e+01 , 1, .500, SKY130
 1.50000000e-08, 2.60869439e-07, 1.50000000e-08, 1.50647320e-08, 1.50000000e-08, 1.53770560e-15, 1.50000000e-08 -9.53109915e-16, 1.50000000e-08, 2.00308978e-18, 1.50000000e-08, 4.40806371e-16, 1.50000000e-08, 6.60616829e-16, 1.50000000e-08 -8.18944597e-19, 1.50000000e-08, 1.83797482e-09, 1.50000000e-08, 9.34503167e-01, 1.50000000e-08, 4.20000365e-02, 1.50000000e-08, 7.66930325e-01, 1.50000000e-08, 7.66930321e-01, 1.50000000e-08, 5.44077094e+08, 1.50000000e-08, 1.69648493e+08, 1.50000000e-08, 2.70003963e+07, 1.50000000e-08, 1.73165669e+01 , 1, .500, SKY130
 2.00000000e-08, 3.50396646e-07, 2.00000000e-08, 2.01590621e-08, 2.00000000e-08, 1.60632443e-15, 2.00000000e-08 -1.04490962e-15, 2.00000000e-08, 2.20389163e-18, 2.00000000e-08, 4.81395589e-16, 2.00000000e-08, 7.21463479e-16, 2.00000000e-08 -9.01167381e-19, 2.00000000e-08, 2.43592714e-09, 2.00000000e-08, 9.34455087e-01, 2.00000000e-08, 4.29720293e-02, 2.00000000e-08, 7.83607706e-01, 2.00000000e-08, 7.83607700e-01, 2.00000000e-08, 4.10521309e+08, 2.00000000e-08, 2.18135664e+08, 2.00000000e-08, 3.47173692e+07, 2.00000000e-08, 1.73815947e+01 , 1, .500, SKY130
 2.50000000e-08, 4.37734441e-07, 2.50000000e-08, 2.50741552e-08, 2.50000000e-08, 1.65958377e-15, 2.50000000e-08 -1.11571482e-15, 2.50000000e-08, 2.35890191e-18, 2.50000000e-08, 5.12568463e-16, 2.50000000e-08, 7.68195048e-16, 2.50000000e-08 -9.64306342e-19, 2.50000000e-08, 3.00904407e-09, 2.50000000e-08, 9.34419222e-01, 2.50000000e-08, 4.38730191e-02, 2.50000000e-08, 7.96048129e-01, 2.50000000e-08, 7.96048122e-01, 2.50000000e-08, 3.32331457e+08, 2.50000000e-08, 2.63761582e+08, 2.50000000e-08, 4.19789596e+07, 2.50000000e-08, 1.74575948e+01 , 1, .500, SKY130
 3.00000000e-08, 5.26421913e-07, 3.00000000e-08, 3.00233594e-08, 3.00000000e-08, 1.70449421e-15, 3.00000000e-08 -1.17516003e-15, 3.00000000e-08, 2.48910867e-18, 3.00000000e-08, 5.38653554e-16, 3.00000000e-08, 8.07299997e-16, 3.00000000e-08 -1.01711384e-18, 3.00000000e-08, 3.58289102e-09, 3.00000000e-08, 9.34389740e-01, 3.00000000e-08, 4.47478209e-02, 3.00000000e-08, 8.06274840e-01, 3.00000000e-08, 8.06274832e-01, 3.00000000e-08, 2.79104219e+08, 3.00000000e-08, 3.08843473e+08, 3.00000000e-08, 4.91539654e+07, 3.00000000e-08, 1.75337445e+01 , 1, .500, SKY130
 3.50000000e-08, 6.16410543e-07, 3.50000000e-08, 3.50127539e-08, 3.50000000e-08, 1.74333941e-15, 3.50000000e-08 -1.22640554e-15, 3.50000000e-08, 2.60139080e-18, 3.50000000e-08, 5.61078916e-16, 3.50000000e-08, 8.40918918e-16, 3.50000000e-08 -1.06248105e-18, 3.50000000e-08, 4.15838938e-09, 3.50000000e-08, 9.34364683e-01, 3.50000000e-08, 4.56001486e-02, 3.50000000e-08, 8.14966335e-01, 3.50000000e-08, 8.14966325e-01, 3.50000000e-08, 2.40477720e+08, 3.50000000e-08, 3.53580342e+08, 3.50000000e-08, 5.62740591e+07, 3.50000000e-08, 1.76053145e+01 , 1, .500, SKY130
 4.00000000e-08, 7.06950606e-07, 4.00000000e-08, 4.00083659e-08, 4.00000000e-08, 1.77733003e-15, 4.00000000e-08 -1.27112783e-15, 4.00000000e-08, 2.69939895e-18, 4.00000000e-08, 5.80603951e-16, 4.00000000e-08, 8.70190106e-16, 4.00000000e-08 -1.10194924e-18, 4.00000000e-08, 4.73175930e-09, 4.00000000e-08, 9.34343028e-01, 4.00000000e-08, 4.64266358e-02, 4.00000000e-08, 8.22477916e-01, 4.00000000e-08, 8.22477905e-01, 4.00000000e-08, 2.11337884e+08, 4.00000000e-08, 3.97759895e+08, 4.00000000e-08, 6.33054534e+07, 4.00000000e-08, 1.76700695e+01 , 1, .500, SKY130
 4.50000000e-08, 7.97833599e-07, 4.50000000e-08, 4.50052805e-08, 4.50000000e-08, 1.80748556e-15, 4.50000000e-08 -1.31071818e-15, 4.50000000e-08, 2.78616957e-18, 4.50000000e-08, 5.97853405e-16, 4.50000000e-08, 8.96050051e-16, 4.50000000e-08 -1.13678762e-18, 4.50000000e-08, 5.30255246e-09, 4.50000000e-08, 9.34323984e-01, 4.50000000e-08, 4.72288323e-02, 4.50000000e-08, 8.29083519e-01, 4.50000000e-08, 8.29083506e-01, 4.50000000e-08, 1.88588422e+08, 4.50000000e-08, 4.41405241e+08, 4.50000000e-08, 7.02518261e+07, 4.50000000e-08, 1.77275553e+01 , 1, .500, SKY130
 5.00000000e-08, 8.88957346e-07, 5.00000000e-08, 5.00033741e-08, 5.00000000e-08, 1.83455680e-15, 5.00000000e-08 -1.34619478e-15, 5.00000000e-08, 2.86392723e-18, 5.00000000e-08, 6.13282823e-16, 5.00000000e-08, 9.19181621e-16, 5.00000000e-08 -1.16792241e-18, 5.00000000e-08, 5.87084192e-09, 5.00000000e-08, 9.34306996e-01, 5.00000000e-08, 4.80087780e-02, 5.00000000e-08, 8.34976511e-01, 5.00000000e-08, 8.34976497e-01, 5.00000000e-08, 1.70333321e+08, 5.00000000e-08, 4.84562456e+08, 5.00000000e-08, 7.71205101e+07, 5.00000000e-08, 1.77779472e+01 , 1, .500, SKY130
 5.50000000e-08, 9.80229661e-07, 5.50000000e-08, 5.50021796e-08, 5.50000000e-08, 1.85909364e-15, 5.50000000e-08 -1.37830032e-15, 5.50000000e-08, 2.93429589e-18, 5.50000000e-08, 6.27223731e-16, 5.50000000e-08, 9.40081781e-16, 5.50000000e-08 -1.19602813e-18, 5.50000000e-08, 6.43664295e-09, 5.50000000e-08, 9.34291665e-01, 5.50000000e-08, 4.87681850e-02, 5.50000000e-08, 8.40294437e-01, 5.50000000e-08, 8.40294421e-01, 5.50000000e-08, 1.55360490e+08, 5.50000000e-08, 5.27262123e+08, 5.50000000e-08, 8.39163732e+07, 5.50000000e-08, 1.78216512e+01 , 1, .500, SKY130
 6.00000000e-08, 1.07157454e-06, 6.00000000e-08, 6.00013909e-08, 6.00000000e-08, 1.88151271e-15, 6.00000000e-08 -1.40759552e-15, 6.00000000e-08, 2.99850233e-18, 6.00000000e-08, 6.39925880e-16, 6.00000000e-08, 9.59124919e-16, 6.00000000e-08 -1.22161317e-18, 6.00000000e-08, 6.99997825e-09, 6.00000000e-08, 9.34277699e-01, 6.00000000e-08, 4.95085686e-02, 6.00000000e-08, 8.45138936e-01, 6.00000000e-08, 8.45138918e-01, 6.00000000e-08, 1.42857587e+08, 6.00000000e-08, 5.69528195e+08, 6.00000000e-08, 9.06432275e+07, 6.00000000e-08, 1.78591616e+01 , 1, .500, SKY130
 6.50000000e-08, 1.16292951e-06, 6.50000000e-08, 6.50008481e-08, 6.50000000e-08, 1.90213719e-15, 6.50000000e-08 -1.43451404e-15, 6.50000000e-08, 3.05749592e-18, 6.50000000e-08, 6.51582065e-16, 6.50000000e-08, 9.76600041e-16, 6.50000000e-08 -1.24507009e-18, 6.50000000e-08, 7.56088006e-09, 6.50000000e-08, 9.34264875e-01, 6.50000000e-08, 5.02312794e-02, 6.50000000e-08, 8.49587216e-01, 6.50000000e-08, 8.49587197e-01, 6.50000000e-08, 1.32259736e+08, 6.50000000e-08, 6.11380461e+08, 6.50000000e-08, 9.73042225e+07, 6.50000000e-08, 1.78909898e+01 , 1, .500, SKY130
 7.00000000e-08, 1.25424242e-06, 7.00000000e-08, 7.00004628e-08, 7.00000000e-08, 1.92122259e-15, 7.00000000e-08 -1.45939786e-15, 7.00000000e-08, 3.11202561e-18, 7.00000000e-08, 6.62344054e-16, 7.00000000e-08, 9.92734661e-16, 7.00000000e-08 -1.26670801e-18, 7.00000000e-08, 8.11938412e-09, 7.00000000e-08, 9.34253020e-01, 7.00000000e-08, 5.09375219e-02, 7.00000000e-08, 8.53699237e-01, 7.00000000e-08, 8.53699217e-01, 7.00000000e-08, 1.23162051e+08, 7.00000000e-08, 6.52835556e+08, 7.00000000e-08, 1.03902006e+08, 7.00000000e-08, 1.79176304e+01 , 1, .500, SKY130
 7.50000000e-08, 1.34546924e-06, 7.50000000e-08, 7.50001827e-08, 7.50000000e-08, 1.93897428e-15, 7.50000000e-08 -1.48252119e-15, 7.50000000e-08, 3.16269225e-18, 7.50000000e-08, 6.72333363e-16, 7.50000000e-08, 1.00771094e-15, 7.50000000e-08 -1.28677445e-18, 7.50000000e-08, 8.67552705e-09, 7.50000000e-08, 9.34241999e-01, 7.50000000e-08, 5.16283722e-02, 7.50000000e-08, 8.57522455e-01, 7.50000000e-08, 8.57522433e-01, 7.50000000e-08, 1.15266772e+08, 7.50000000e-08, 6.93907727e+08, 7.50000000e-08, 1.10438845e+08, 7.50000000e-08, 1.79395461e+01 , 1, .500, SKY130
 8.00000000e-08, 1.43657252e-06, 8.00000000e-08, 7.99999729e-08, 8.00000000e-08, 1.95555968e-15, 8.00000000e-08 -1.50410718e-15, 8.00000000e-08, 3.20998485e-18, 8.00000000e-08, 6.81648725e-16, 8.00000000e-08, 1.02167688e-15, 8.00000000e-08 -1.30547054e-18, 8.00000000e-08, 9.22934521e-09, 8.00000000e-08, 9.34231699e-01, 8.00000000e-08, 5.23047949e-02, 8.00000000e-08, 8.61095048e-01, 8.00000000e-08, 8.61095025e-01, 8.00000000e-08, 1.08350048e+08, 8.00000000e-08, 7.34609398e+08, 8.00000000e-08, 1.16916717e+08, 8.00000000e-08, 1.79571625e+01 , 1, .500, SKY130
 8.50000000e-08, 1.52752038e-06, 8.50000000e-08, 8.49998150e-08, 8.50000000e-08, 1.97111702e-15, 8.50000000e-08 -1.52433974e-15, 8.50000000e-08, 3.25430665e-18, 8.50000000e-08, 6.90371419e-16, 8.50000000e-08, 1.03475432e-15, 8.50000000e-08 -1.32296186e-18, 8.50000000e-08, 9.78087509e-09, 8.50000000e-08, 9.34222033e-01, 8.50000000e-08, 5.29676595e-02, 8.50000000e-08, 8.64448176e-01, 8.50000000e-08, 8.64448151e-01, 8.50000000e-08, 1.02240341e+08, 8.50000000e-08, 7.74951644e+08, 8.50000000e-08, 1.23337385e+08, 8.50000000e-08, 1.79708671e+01 , 1, .500, SKY130
 9.00000000e-08, 1.61828541e-06, 9.00000000e-08, 8.99996920e-08, 9.00000000e-08, 1.98576172e-15, 9.00000000e-08 -1.54337215e-15, 9.00000000e-08, 3.29599379e-18, 9.00000000e-08, 6.98569104e-16, 9.00000000e-08, 1.04704471e-15, 9.00000000e-08 -1.33938624e-18, 9.00000000e-08, 1.03301520e-08, 9.00000000e-08, 9.34212925e-01, 9.00000000e-08, 5.36177507e-02, 9.00000000e-08, 8.67607585e-01, 9.00000000e-08, 8.67607559e-01, 9.00000000e-08, 9.68039965e+07, 9.00000000e-08, 8.14944409e+08, 9.00000000e-08, 1.29702431e+08, 9.00000000e-08, 1.79810106e+01 , 1, .500, SKY130
