 isweep, gm, i_id, id, i_cgg, cgg, i_cgs, cgs, i_cgd, cgd, i_cds, cds, i_css, css, i_cdd, cdd, i_gds, gds, i_vth, vth, i_vdsat, vdsat, i_vgs, vgs, i_vds, vds, i_rds, rds, i_wt, wt, i_ft, ft, i_gm_id, gm_id, L, pdk
 1.00000000e-09, 3.33630575e-08, 1.00000000e-09, 9.99513621e-10, 1.00000000e-09, 5.66493101e-16, 1.00000000e-09 -1.29318262e-16, 1.00000000e-09, 1.48872383e-19, 1.00000000e-09, 7.95074488e-17, 1.00000000e-09, 1.19036609e-16, 1.00000000e-09 -4.54269913e-20, 1.00000000e-09, 8.22157670e-10, 1.00000000e-09, 7.92035969e-01, 1.00000000e-09, 3.80681563e-02, 1.00000000e-09, 4.86493684e-01, 1.00000000e-09, 4.86493683e-01, 1.00000000e-09, 1.21631171e+09, 1.00000000e-09, 5.88940227e+07, 1.00000000e-09, 9.37327484e+06, 1.00000000e-09, 3.33792925e+01 , .200, SKY130
 1.50000000e-09, 4.96662584e-08, 1.50000000e-09, 1.50537247e-09, 1.50000000e-09, 5.76870172e-16, 1.50000000e-09 -1.44537453e-16, 1.50000000e-09, 1.60487273e-19, 1.50000000e-09, 8.81662084e-17, 1.50000000e-09, 1.32008365e-16, 1.50000000e-09 -4.91879511e-20, 1.50000000e-09, 1.22156418e-09, 1.50000000e-09, 7.92035443e-01, 1.50000000e-09, 3.80785275e-02, 1.50000000e-09, 4.98535715e-01, 1.50000000e-09, 4.98535714e-01, 1.50000000e-09, 8.18622565e+08, 1.50000000e-09, 8.60960764e+07, 1.50000000e-09, 1.37026161e+07, 1.50000000e-09, 3.29926708e+01 , .200, SKY130
 2.00000000e-09, 6.57769506e-08, 2.00000000e-09, 2.01301815e-09, 2.00000000e-09, 5.85037328e-16, 2.00000000e-09 -1.56334683e-16, 2.00000000e-09, 1.68819227e-19, 2.00000000e-09, 9.48151714e-17, 2.00000000e-09, 1.41969577e-16, 2.00000000e-09 -5.16926632e-20, 2.00000000e-09, 1.61784063e-09, 2.00000000e-09, 7.92035065e-01, 2.00000000e-09, 3.80888498e-02, 2.00000000e-09, 5.07172888e-01, 2.00000000e-09, 5.07172888e-01, 2.00000000e-09, 6.18107854e+08, 2.00000000e-09, 1.12432058e+08, 2.00000000e-09, 1.78941177e+07, 2.00000000e-09, 3.26757862e+01 , .200, SKY130
 2.50000000e-09, 8.12052028e-08, 2.50000000e-09, 2.50544648e-09, 2.50000000e-09, 5.91656340e-16, 2.50000000e-09 -1.65801143e-16, 2.50000000e-09, 1.75106381e-19, 2.50000000e-09, 1.00113867e-16, 2.50000000e-09, 1.49908073e-16, 2.50000000e-09 -5.34614824e-20, 2.50000000e-09, 1.99902475e-09, 2.50000000e-09, 7.92034779e-01, 2.50000000e-09, 3.80988010e-02, 2.50000000e-09, 5.13735321e-01, 2.50000000e-09, 5.13735321e-01, 2.50000000e-09, 5.00243931e+08, 2.50000000e-09, 1.37250626e+08, 2.50000000e-09, 2.18441155e+07, 2.50000000e-09, 3.24114697e+01 , .200, SKY130
 3.00000000e-09, 9.65725568e-08, 3.00000000e-09, 3.00142817e-09, 3.00000000e-09, 5.97437201e-16, 3.00000000e-09 -1.74009645e-16, 3.00000000e-09, 1.80283280e-19, 3.00000000e-09, 1.04683604e-16, 3.00000000e-09, 1.56754578e-16, 3.00000000e-09 -5.48304543e-20, 3.00000000e-09, 2.38041342e-09, 3.00000000e-09, 7.92034540e-01, 3.00000000e-09, 3.81087743e-02, 3.00000000e-09, 5.19193771e-01, 3.00000000e-09, 5.19193771e-01, 3.00000000e-09, 4.20095094e+08, 3.00000000e-09, 1.61644699e+08, 3.00000000e-09, 2.57265529e+07, 3.00000000e-09, 3.21755349e+01 , .200, SKY130
 3.50000000e-09, 1.11882843e-07, 3.50000000e-09, 3.50057498e-09, 3.50000000e-09, 6.02595684e-16, 3.50000000e-09 -1.81293164e-16, 3.50000000e-09, 1.84670412e-19, 3.50000000e-09, 1.08720004e-16, 3.50000000e-09, 1.62802122e-16, 3.50000000e-09 -5.59221371e-20, 3.50000000e-09, 2.76208785e-09, 3.50000000e-09, 7.92034335e-01, 3.50000000e-09, 3.81187688e-02, 3.50000000e-09, 5.23875365e-01, 3.50000000e-09, 5.23875364e-01, 3.50000000e-09, 3.62044966e+08, 3.50000000e-09, 1.85668179e+08, 3.50000000e-09, 2.95500084e+07, 3.50000000e-09, 3.19612760e+01 , .200, SKY130
 4.00000000e-09, 1.27066898e-07, 4.00000000e-09, 4.00019606e-09, 4.00000000e-09, 6.07249551e-16, 4.00000000e-09 -1.87834066e-16, 4.00000000e-09, 1.88449498e-19, 4.00000000e-09, 1.12330720e-16, 4.00000000e-09, 1.68211960e-16, 4.00000000e-09 -5.68071815e-20, 4.00000000e-09, 3.14227535e-09, 4.00000000e-09, 7.92034157e-01, 4.00000000e-09, 3.81287357e-02, 4.00000000e-09, 5.27961466e-01, 4.00000000e-09, 5.27961464e-01, 4.00000000e-09, 3.18240729e+08, 4.00000000e-09, 2.09249884e+08, 4.00000000e-09, 3.33031534e+07, 4.00000000e-09, 3.17651676e+01 , .200, SKY130
 4.50000000e-09, 1.42126043e-07, 4.50000000e-09, 4.49994535e-09, 4.50000000e-09, 6.11498552e-16, 4.50000000e-09 -1.93783082e-16, 4.50000000e-09, 1.91757681e-19, 4.50000000e-09, 1.15603492e-16, 4.50000000e-09, 1.73115527e-16, 4.50000000e-09 -5.75359874e-20, 4.50000000e-09, 3.52093948e-09, 4.50000000e-09, 7.92033998e-01, 4.50000000e-09, 3.81386723e-02, 4.50000000e-09, 5.31588241e-01, 4.50000000e-09, 5.31588240e-01, 4.50000000e-09, 2.84015106e+08, 4.50000000e-09, 2.32422534e+08, 4.50000000e-09, 3.69911952e+07, 4.50000000e-09, 3.15839487e+01 , .200, SKY130
 5.00000000e-09, 1.57069232e-07, 5.00000000e-09, 4.99979272e-09, 5.00000000e-09, 6.15416160e-16, 5.00000000e-09 -1.99250208e-16, 5.00000000e-09, 1.94691814e-19, 5.00000000e-09, 1.18602036e-16, 5.00000000e-09, 1.77608269e-16, 5.00000000e-09 -5.81433257e-20, 5.00000000e-09, 3.89823421e-09, 5.00000000e-09, 7.92033856e-01, 5.00000000e-09, 3.81485811e-02, 5.00000000e-09, 5.34851182e-01, 5.00000000e-09, 5.34851181e-01, 5.00000000e-09, 2.56526403e+08, 5.00000000e-09, 2.55224419e+08, 5.00000000e-09, 4.06202278e+07, 5.00000000e-09, 3.14151487e+01 , .200, SKY130
 5.50000000e-09, 1.71903554e-07, 5.50000000e-09, 5.49969743e-09, 5.50000000e-09, 6.19056648e-16, 5.50000000e-09 -2.04316212e-16, 5.50000000e-09, 1.97321611e-19, 5.50000000e-09, 1.21372994e-16, 5.50000000e-09, 1.81760057e-16, 5.50000000e-09 -5.86538451e-20, 5.50000000e-09, 4.27426967e-09, 5.50000000e-09, 7.92033726e-01, 5.50000000e-09, 3.81584641e-02, 5.50000000e-09, 5.37818553e-01, 5.50000000e-09, 5.37818551e-01, 5.50000000e-09, 2.33958097e+08, 5.50000000e-09, 2.77686306e+08, 5.50000000e-09, 4.41951482e+07, 5.50000000e-09, 3.12569111e+01 , .200, SKY130
 6.00000000e-09, 1.86635348e-07, 6.00000000e-09, 5.99963316e-09, 6.00000000e-09, 6.22461495e-16, 6.00000000e-09 -2.09042497e-16, 6.00000000e-09, 1.99699046e-19, 6.00000000e-09, 1.23951721e-16, 6.00000000e-09, 1.85623857e-16, 6.00000000e-09 -5.90856441e-20, 6.00000000e-09, 4.64914096e-09, 6.00000000e-09, 7.92033607e-01, 6.00000000e-09, 3.81683228e-02, 6.00000000e-09, 5.40540980e-01, 6.00000000e-09, 5.40540978e-01, 6.00000000e-09, 2.15093500e+08, 6.00000000e-09, 2.99834367e+08, 6.00000000e-09, 4.77201215e+07, 6.00000000e-09, 3.11077933e+01 , .200, SKY130
 6.50000000e-09, 2.01270481e-07, 6.50000000e-09, 6.49958917e-09, 6.50000000e-09, 6.25663217e-16, 6.50000000e-09 -2.13476968e-16, 6.50000000e-09, 2.01863926e-19, 6.50000000e-09, 1.26365730e-16, 6.50000000e-09, 1.89240882e-16, 6.50000000e-09 -5.94523823e-20, 6.50000000e-09, 5.02293541e-09, 6.50000000e-09, 7.92033497e-01, 6.50000000e-09, 3.81781588e-02, 6.50000000e-09, 5.43057084e-01, 6.50000000e-09, 5.43057082e-01, 6.50000000e-09, 1.99086773e+08, 6.50000000e-09, 3.21691408e+08, 6.50000000e-09, 5.11987777e+07, 6.50000000e-09, 3.09666467e+01 , .200, SKY130
 7.00000000e-09, 2.15814151e-07, 7.00000000e-09, 6.99955759e-09, 7.00000000e-09, 6.28687774e-16, 7.00000000e-09 -2.17657717e-16, 7.00000000e-09, 2.03847381e-19, 7.00000000e-09, 1.28636844e-16, 7.00000000e-09, 1.92643827e-16, 7.00000000e-09 -5.97645982e-20, 7.00000000e-09, 5.39572760e-09, 7.00000000e-09, 7.92033395e-01, 7.00000000e-09, 3.81879734e-02, 7.00000000e-09, 5.45396967e-01, 7.00000000e-09, 5.45396965e-01, 7.00000000e-09, 1.85331817e+08, 7.00000000e-09, 3.43277155e+08, 7.00000000e-09, 5.46342561e+07, 7.00000000e-09, 3.08325416e+01 , .200, SKY130
 7.50000000e-09, 2.30271049e-07, 7.50000000e-09, 7.49953439e-09, 7.50000000e-09, 6.31556262e-16, 7.50000000e-09 -2.21615587e-16, 7.50000000e-09, 2.05674225e-19, 7.50000000e-09, 1.30782694e-16, 7.50000000e-09, 1.95859103e-16, 7.50000000e-09 -6.00305813e-20, 7.50000000e-09, 5.76758323e-09, 7.50000000e-09, 7.92033299e-01, 7.50000000e-09, 3.81977679e-02, 7.50000000e-09, 5.47584559e-01, 7.50000000e-09, 5.47584557e-01, 7.50000000e-09, 1.73382847e+08, 7.50000000e-09, 3.64608923e+08, 7.50000000e-09, 5.80293124e+07, 7.50000000e-09, 3.07047127e+01 , .200, SKY130
 8.00000000e-09, 2.44645401e-07, 8.00000000e-09, 7.99951701e-09, 8.00000000e-09, 6.34286072e-16, 8.00000000e-09 -2.25375918e-16, 8.00000000e-09, 2.07364546e-19, 8.00000000e-09, 1.32817737e-16, 8.00000000e-09, 1.98908371e-16, 8.00000000e-09 -6.02569600e-20, 8.00000000e-09, 6.13855978e-09, 8.00000000e-09, 7.92033210e-01, 8.00000000e-09, 3.82075434e-02, 8.00000000e-09, 5.49639195e-01, 8.00000000e-09, 5.49639193e-01, 8.00000000e-09, 1.62904661e+08, 8.00000000e-09, 3.85701991e+08, 8.00000000e-09, 6.13863784e+07, 8.00000000e-09, 3.05825215e+01 , .200, SKY130
 8.50000000e-09, 2.58940993e-07, 8.50000000e-09, 8.49950256e-09, 8.50000000e-09, 6.36891717e-16, 8.50000000e-09 -2.28959798e-16, 8.50000000e-09, 2.08934835e-19, 8.50000000e-09, 1.34753983e-16, 8.50000000e-09, 2.01809620e-16, 8.50000000e-09 -6.04491100e-20, 8.50000000e-09, 6.50870690e-09, 8.50000000e-09, 7.92033125e-01, 8.50000000e-09, 3.82173007e-02, 8.50000000e-09, 5.51576719e-01, 8.50000000e-09, 5.51576717e-01, 8.50000000e-09, 1.53640349e+08, 8.50000000e-09, 4.06569886e+08, 8.50000000e-09, 6.47076071e+07, 8.50000000e-09, 3.04654291e+01 , .200, SKY130
 9.00000000e-09, 2.73161339e-07, 9.00000000e-09, 8.99949136e-09, 9.00000000e-09, 6.39385466e-16, 9.00000000e-09 -2.32385002e-16, 9.00000000e-09, 2.10398802e-19, 9.00000000e-09, 1.36601533e-16, 9.00000000e-09, 2.04577986e-16, 9.00000000e-09 -6.06114471e-20, 9.00000000e-09, 6.87807038e-09, 9.00000000e-09, 7.92033045e-01, 9.00000000e-09, 3.82270408e-02, 9.00000000e-09, 5.53410291e-01, 9.00000000e-09, 5.53410288e-01, 9.00000000e-09, 1.45389614e+08, 9.00000000e-09, 4.27224818e+08, 9.00000000e-09, 6.79949416e+07, 9.00000000e-09, 3.03529753e+01 , .200, SKY130
 9.50000000e-09, 2.87309606e-07, 9.50000000e-09, 9.49948252e-09, 9.50000000e-09, 6.41777771e-16, 9.50000000e-09 -2.35666636e-16, 9.50000000e-09, 2.11767959e-19, 9.50000000e-09, 1.38368962e-16, 9.50000000e-09, 2.07226312e-16, 9.50000000e-09 -6.07476379e-20, 9.50000000e-09, 7.24668997e-09, 9.50000000e-09, 7.92032969e-01, 9.50000000e-09, 3.82367645e-02, 9.50000000e-09, 5.55150949e-01, 9.50000000e-09, 5.55150946e-01, 9.50000000e-09, 1.37994037e+08, 9.50000000e-09, 4.47677715e+08, 9.50000000e-09, 7.12501213e+07, 9.50000000e-09, 3.02447639e+01 , .200, SKY130
 1.00000000e-08, 3.01387830e-07, 1.00000000e-08, 9.99944451e-09, 1.00000000e-08, 6.44077485e-16, 1.00000000e-08 -2.38817479e-16, 1.00000000e-08, 2.13051989e-19, 1.00000000e-08, 1.40063515e-16, 1.00000000e-08, 2.09765453e-16, 1.00000000e-08 -6.08607506e-20, 1.00000000e-08, 7.61457855e-09, 1.00000000e-08, 7.92032896e-01, 1.00000000e-08, 3.82464717e-02, 1.00000000e-08, 5.56807948e-01, 1.00000000e-08, 5.56807945e-01, 1.00000000e-08, 1.31327032e+08, 1.00000000e-08, 4.67937224e+08, 1.00000000e-08, 7.44745223e+07, 1.00000000e-08, 3.01404573e+01 , .200, SKY130
 1.50000000e-08, 4.40220492e-07, 1.50000000e-08, 1.50492147e-08, 1.50000000e-08, 6.63486988e-16, 1.50000000e-08 -2.65277350e-16, 1.50000000e-08, 2.22682286e-19, 1.50000000e-08, 1.54203874e-16, 1.50000000e-08, 2.30954054e-16, 1.50000000e-08 -6.11471102e-20, 1.50000000e-08, 1.12965941e-08, 1.50000000e-08, 7.92032310e-01, 1.50000000e-08, 3.83437483e-02, 1.50000000e-08, 5.70229355e-01, 1.50000000e-08, 5.70229350e-01, 1.50000000e-08, 8.85222568e+07, 1.50000000e-08, 6.63495291e+08, 1.50000000e-08, 1.05598555e+08, 1.50000000e-08, 2.92520575e+01 , .200, SKY130
 2.00000000e-08, 5.74409969e-07, 2.00000000e-08, 2.01106060e-08, 2.00000000e-08, 6.78455931e-16, 2.00000000e-08 -2.85543640e-16, 2.00000000e-08, 2.28711113e-19, 2.00000000e-08, 1.64932234e-16, 2.00000000e-08, 2.47030518e-16, 2.00000000e-08 -6.05941297e-20, 2.00000000e-08, 1.49378964e-08, 2.00000000e-08, 7.92031883e-01, 2.00000000e-08, 3.84400923e-02, 2.00000000e-08, 5.80005304e-01, 2.00000000e-08, 5.80005298e-01, 2.00000000e-08, 6.69438301e+07, 2.00000000e-08, 8.46643007e+08, 2.00000000e-08, 1.34747420e+08, 2.00000000e-08, 2.85625391e+01 , .200, SKY130
 2.50000000e-08, 7.01576231e-07, 2.50000000e-08, 2.50471185e-08, 2.50000000e-08, 6.90476856e-16, 2.50000000e-08 -3.01744869e-16, 2.50000000e-08, 2.32720561e-19, 2.50000000e-08, 1.73449560e-16, 2.50000000e-08, 2.59794079e-16, 2.50000000e-08 -5.96895684e-20, 2.50000000e-08, 1.84522535e-08, 2.50000000e-08, 7.92031553e-01, 2.50000000e-08, 3.85331555e-02, 2.50000000e-08, 5.87567543e-01, 2.50000000e-08, 5.87567535e-01, 2.50000000e-08, 5.41939227e+07, 2.50000000e-08, 1.01607494e+09, 2.50000000e-08, 1.61713350e+08, 2.50000000e-08, 2.80102571e+01 , .200, SKY130
 3.00000000e-08, 8.26555332e-07, 3.00000000e-08, 3.00157106e-08, 3.00000000e-08, 7.00840368e-16, 3.00000000e-08 -3.15666146e-16, 3.00000000e-08, 2.35604930e-19, 3.00000000e-08, 1.80728536e-16, 3.00000000e-08, 2.70702152e-16, 3.00000000e-08 -5.85927964e-20, 3.00000000e-08, 2.19584436e-08, 3.00000000e-08, 7.92031276e-01, 3.00000000e-08, 3.86260488e-02, 3.00000000e-08, 5.93915187e-01, 3.00000000e-08, 5.93915178e-01, 3.00000000e-08, 4.55405683e+07, 3.00000000e-08, 1.17937746e+09, 3.00000000e-08, 1.87703752e+08, 3.00000000e-08, 2.75374234e+01 , .200, SKY130
 3.50000000e-08, 9.49590015e-07, 3.50000000e-08, 3.50086529e-08, 3.50000000e-08, 7.09977933e-16, 3.50000000e-08 -3.27908714e-16, 3.50000000e-08, 2.37720767e-19, 3.50000000e-08, 1.87100682e-16, 3.50000000e-08, 2.80251448e-16, 3.50000000e-08 -5.73888638e-20, 3.50000000e-08, 2.54544646e-08, 3.50000000e-08, 7.92031037e-01, 3.50000000e-08, 3.87187011e-02, 3.50000000e-08, 5.99398846e-01, 3.50000000e-08, 5.99398836e-01, 3.50000000e-08, 3.92858390e+07, 3.50000000e-08, 1.33749229e+09, 3.50000000e-08, 2.12868510e+08, 3.50000000e-08, 2.71244374e+01 , .200, SKY130
 4.00000000e-08, 1.07051971e-06, 4.00000000e-08, 4.00053903e-08, 4.00000000e-08, 7.18143401e-16, 4.00000000e-08 -3.38825722e-16, 4.00000000e-08, 2.39279998e-19, 4.00000000e-08, 1.92760707e-16, 4.00000000e-08, 2.88733693e-16, 4.00000000e-08 -5.61289988e-20, 4.00000000e-08, 2.89285551e-08, 4.00000000e-08, 7.92030826e-01, 4.00000000e-08, 3.88107889e-02, 4.00000000e-08, 6.04221141e-01, 4.00000000e-08, 6.04221130e-01, 4.00000000e-08, 3.45679208e+07, 4.00000000e-08, 1.49067681e+09, 4.00000000e-08, 2.37248583e+08, 4.00000000e-08, 2.67593868e+01 , .200, SKY130
 4.50000000e-08, 1.18956410e-06, 4.50000000e-08, 4.50033309e-08, 4.50000000e-08, 7.25534886e-16, 4.50000000e-08 -3.48690497e-16, 4.50000000e-08, 2.40426258e-19, 4.50000000e-08, 1.97857723e-16, 4.50000000e-08, 2.96372307e-16, 4.50000000e-08 -5.48411629e-20, 4.50000000e-08, 3.23810328e-08, 4.50000000e-08, 7.92030638e-01, 4.50000000e-08, 3.89023123e-02, 4.50000000e-08, 6.08530567e-01, 4.50000000e-08, 6.08530554e-01, 4.50000000e-08, 3.08822762e+07, 4.50000000e-08, 1.63956844e+09, 4.50000000e-08, 2.60945422e+08, 4.50000000e-08, 2.64328013e+01 , .200, SKY130
 5.00000000e-08, 1.30694104e-06, 5.00000000e-08, 5.00020974e-08, 5.00000000e-08, 7.32295633e-16, 5.00000000e-08 -3.57699915e-16, 5.00000000e-08, 2.41257131e-19, 5.00000000e-08, 2.02498650e-16, 5.00000000e-08, 3.03327493e-16, 5.00000000e-08 -5.35421186e-20, 5.00000000e-08, 3.58133104e-08, 5.00000000e-08, 7.92030468e-01, 5.00000000e-08, 3.89933033e-02, 5.00000000e-08, 6.12431176e-01, 5.00000000e-08, 6.12431162e-01, 5.00000000e-08, 2.79225793e+07, 5.00000000e-08, 1.78471778e+09, 5.00000000e-08, 2.84046657e+08, 5.00000000e-08, 2.61377244e+01 , .200, SKY130
 5.50000000e-08, 1.42282737e-06, 5.50000000e-08, 5.50013284e-08, 5.50000000e-08, 7.38531090e-16, 5.50000000e-08 -3.65998507e-16, 5.50000000e-08, 2.41841290e-19, 5.50000000e-08, 2.06761728e-16, 5.50000000e-08, 3.09716485e-16, 5.50000000e-08 -5.22424660e-20, 5.50000000e-08, 3.92264909e-08, 5.50000000e-08, 7.92030312e-01, 5.50000000e-08, 3.90837872e-02, 5.50000000e-08, 6.15997782e-01, 5.50000000e-08, 6.15997766e-01, 5.50000000e-08, 2.54929762e+07, 5.50000000e-08, 1.92656394e+09, 5.50000000e-08, 3.06622174e+08, 5.50000000e-08, 2.58689637e+01 , .200, SKY130
 6.00000000e-08, 1.53737248e-06, 6.00000000e-08, 6.00008222e-08, 6.00000000e-08, 7.44321504e-16, 6.00000000e-08 -3.73695998e-16, 6.00000000e-08, 2.42228730e-19, 6.00000000e-08, 2.10706178e-16, 6.00000000e-08, 3.15628020e-16, 6.00000000e-08 -5.09490295e-20, 6.00000000e-08, 4.26215551e-08, 6.00000000e-08, 7.92030169e-01, 6.00000000e-08, 3.91737869e-02, 6.00000000e-08, 6.19286123e-01, 6.00000000e-08, 6.19286106e-01, 6.00000000e-08, 2.34623067e+07, 6.00000000e-08, 2.06546832e+09, 6.00000000e-08, 3.28729492e+08, 6.00000000e-08, 2.56225236e+01 , .200, SKY130
 6.50000000e-08, 1.65070389e-06, 6.50000000e-08, 6.50004749e-08, 6.50000000e-08, 7.49729472e-16, 6.50000000e-08 -3.80877797e-16, 6.50000000e-08, 2.42456849e-19, 6.50000000e-08, 2.14377974e-16, 6.50000000e-08, 3.21130983e-16, 6.50000000e-08 -4.96662532e-20, 6.50000000e-08, 4.59993755e-08, 6.50000000e-08, 7.92030036e-01, 6.50000000e-08, 3.92633235e-02, 6.50000000e-08, 6.22338874e-01, 6.50000000e-08, 6.22338855e-01, 6.50000000e-08, 2.17394256e+07, 6.50000000e-08, 2.20173270e+09, 6.50000000e-08, 3.50416642e+08, 6.50000000e-08, 2.53952590e+01 , .200, SKY130
 7.00000000e-08, 1.76293111e-06, 7.00000000e-08, 7.00002305e-08, 7.00000000e-08, 7.54804827e-16, 7.00000000e-08 -3.87611767e-16, 7.00000000e-08, 2.42554251e-19, 7.00000000e-08, 2.17813555e-16, 7.00000000e-08, 3.26279976e-16, 7.00000000e-08 -4.83970374e-20, 7.00000000e-08, 4.93607226e-08, 7.00000000e-08, 7.92029912e-01, 7.00000000e-08, 3.93524160e-02, 7.00000000e-08, 6.25189440e-01, 7.00000000e-08, 6.25189420e-01, 7.00000000e-08, 2.02590227e+07, 7.00000000e-08, 2.33561187e+09, 7.00000000e-08, 3.71724174e+08, 7.00000000e-08, 2.51846472e+01 , .200, SKY130
 7.50000000e-08, 1.87414874e-06, 7.50000000e-08, 7.50000512e-08, 7.50000000e-08, 7.59587930e-16, 7.50000000e-08 -3.93952782e-16, 7.50000000e-08, 2.42543240e-19, 7.50000000e-08, 2.21042318e-16, 7.50000000e-08, 3.31119047e-16, 7.50000000e-08 -4.71432569e-20, 7.50000000e-08, 5.27062731e-08, 7.50000000e-08, 7.92029795e-01, 7.50000000e-08, 3.94410809e-02, 7.50000000e-08, 6.27864471e-01, 7.50000000e-08, 6.27864450e-01, 7.50000000e-08, 1.89730736e+07, 7.50000000e-08, 2.46732296e+09, 7.50000000e-08, 3.92686646e+08, 7.50000000e-08, 2.49886328e+01 , .200, SKY130
 8.00000000e-08, 1.98443931e-06, 8.00000000e-08, 7.99999176e-08, 8.00000000e-08, 7.64111974e-16, 8.00000000e-08 -3.99945899e-16, 8.00000000e-08, 2.42441487e-19, 8.00000000e-08, 2.24088351e-16, 8.00000000e-08, 3.35684293e-16, 8.00000000e-08 -4.59060886e-20, 8.00000000e-08, 5.60366312e-08, 8.00000000e-08, 7.92029685e-01, 8.00000000e-08, 3.95293335e-02, 8.00000000e-08, 6.30385584e-01, 8.00000000e-08, 6.30385561e-01, 8.00000000e-08, 1.78454696e+07, 8.00000000e-08, 2.59705303e+09, 8.00000000e-08, 4.13333827e+08, 8.00000000e-08, 2.48055170e+01 , .200, SKY130
 8.50000000e-08, 2.09387522e-06, 8.50000000e-08, 8.49998174e-08, 8.50000000e-08, 7.68404611e-16, 8.50000000e-08 -4.05628603e-16, 8.50000000e-08, 2.42263197e-19, 8.50000000e-08, 2.26971655e-16, 8.50000000e-08, 3.40005682e-16, 8.50000000e-08 -4.46862285e-20, 8.50000000e-08, 5.93523367e-08, 8.50000000e-08, 7.92029582e-01, 8.50000000e-08, 3.96171875e-02, 8.50000000e-08, 6.32770559e-01, 8.50000000e-08, 6.32770535e-01, 8.50000000e-08, 1.68485363e+07, 8.50000000e-08, 2.72496442e+09, 8.50000000e-08, 4.33691557e+08, 8.50000000e-08, 2.46338791e+01 , .200, SKY130
 9.00000000e-08, 2.20252027e-06, 9.00000000e-08, 8.99997383e-08, 9.00000000e-08, 7.72489139e-16, 9.00000000e-08 -4.11032434e-16, 9.00000000e-08, 2.42019923e-19, 9.00000000e-08, 2.29709028e-16, 9.00000000e-08, 3.44108386e-16, 9.00000000e-08 -4.34840391e-20, 9.00000000e-08, 6.26538723e-08, 9.00000000e-08, 7.92029483e-01, 9.00000000e-08, 3.97046550e-02, 9.00000000e-08, 6.35034204e-01, 9.00000000e-08, 6.35034178e-01, 9.00000000e-08, 1.59607054e+07, 9.00000000e-08, 2.85119901e+09, 9.00000000e-08, 4.53782416e+08, 9.00000000e-08, 2.44725186e+01 , .200, SKY130
