 isweep, gm, i_id, id, i_cgg, cgg, i_cgs, cgs, i_cgd, cgd, i_cds, cds, i_css, css, i_cdd, cdd, i_gds, gds, i_vth, vth, i_vdsat, vdsat, i_vgs, vgs, i_vds, vds, i_rds, rds, i_wt, wt, i_ft, ft, i_gm_id, gm_id, L, pdk
 1.00000000e-09, 3.23680277e-08, 1.00000000e-09, 9.99584798e-10, 1.00000000e-09, 5.35094116e-16, 1.00000000e-09 -1.19188552e-16, 1.00000000e-09, 2.01387485e-19, 1.00000000e-09, 7.20319711e-17, 1.00000000e-09, 1.07813644e-16, 1.00000000e-09 -6.01725916e-20, 1.00000000e-09, 1.02339865e-09, 1.00000000e-09, 7.53152550e-01, 1.00000000e-09, 3.81318750e-02, 1.00000000e-09, 4.33765393e-01, 1.00000000e-09, 4.33765392e-01, 1.00000000e-09, 9.77136331e+08, 1.00000000e-09, 6.04903451e+07, 1.00000000e-09, 9.62733744e+06, 1.00000000e-09, 3.23814726e+01 , .200, SKY130
 1.50000000e-09, 4.83849808e-08, 1.50000000e-09, 1.50562880e-09, 1.50000000e-09, 5.44475391e-16, 1.50000000e-09 -1.33057007e-16, 1.50000000e-09, 2.18140943e-19, 1.50000000e-09, 7.97724431e-17, 1.50000000e-09, 1.19408181e-16, 1.50000000e-09 -6.65374052e-20, 1.50000000e-09, 1.51664911e-09, 1.50000000e-09, 7.53151790e-01, 1.50000000e-09, 3.81388913e-02, 1.50000000e-09, 4.46074681e-01, 1.50000000e-09, 4.46074681e-01, 1.50000000e-09, 6.59348292e+08, 1.50000000e-09, 8.88653217e+07, 1.50000000e-09, 1.41433552e+07, 1.50000000e-09, 3.21360623e+01 , .200, SKY130
 2.00000000e-09, 6.43032470e-08, 2.00000000e-09, 2.01366088e-09, 2.00000000e-09, 5.51854721e-16, 2.00000000e-09 -1.43779138e-16, 2.00000000e-09, 2.30226972e-19, 2.00000000e-09, 8.57014059e-17, 2.00000000e-09, 1.28289613e-16, 2.00000000e-09 -7.09124793e-20, 2.00000000e-09, 2.00517916e-09, 2.00000000e-09, 7.53151247e-01, 2.00000000e-09, 3.81458652e-02, 2.00000000e-09, 4.54874881e-01, 2.00000000e-09, 4.54874881e-01, 2.00000000e-09, 4.98708555e+08, 2.00000000e-09, 1.16522056e+08, 2.00000000e-09, 1.85450613e+07, 2.00000000e-09, 3.19335036e+01 , .200, SKY130
 2.50000000e-09, 7.95940217e-08, 2.50000000e-09, 2.50581499e-09, 2.50000000e-09, 5.57820761e-16, 2.50000000e-09 -1.52350721e-16, 2.50000000e-09, 2.39380397e-19, 2.50000000e-09, 9.04092134e-17, 2.50000000e-09, 1.35341999e-16, 2.50000000e-09 -7.40956776e-20, 2.50000000e-09, 2.47375966e-09, 2.50000000e-09, 7.53150836e-01, 2.50000000e-09, 3.81525714e-02, 2.50000000e-09, 4.61532942e-01, 2.50000000e-09, 4.61532942e-01, 2.50000000e-09, 4.04242989e+08, 2.50000000e-09, 1.42687450e+08, 2.50000000e-09, 2.27094129e+07, 2.50000000e-09, 3.17637264e+01 , .200, SKY130
 3.00000000e-09, 9.48834169e-08, 3.00000000e-09, 3.00156746e-09, 3.00000000e-09, 5.63026252e-16, 3.00000000e-09 -1.59769004e-16, 3.00000000e-09, 2.46954627e-19, 3.00000000e-09, 9.44620549e-17, 3.00000000e-09, 1.41413375e-16, 3.00000000e-09 -7.66384582e-20, 3.00000000e-09, 2.94207480e-09, 3.00000000e-09, 7.53150495e-01, 3.00000000e-09, 3.81592872e-02, 3.00000000e-09, 4.67058166e-01, 3.00000000e-09, 4.67058165e-01, 3.00000000e-09, 3.39896185e+08, 3.00000000e-09, 1.68523966e+08, 3.00000000e-09, 2.68214222e+07, 3.00000000e-09, 3.16112891e+01 , .200, SKY130
 3.50000000e-09, 1.10173473e-07, 3.50000000e-09, 3.50067677e-09, 3.50000000e-09, 5.67667885e-16, 3.50000000e-09 -1.66341626e-16, 3.50000000e-09, 2.53405789e-19, 3.50000000e-09, 9.80370132e-17, 3.50000000e-09, 1.46768960e-16, 3.50000000e-09 -7.87344970e-20, 3.50000000e-09, 3.41045682e-09, 3.50000000e-09, 7.53150203e-01, 3.50000000e-09, 3.81660149e-02, 3.50000000e-09, 4.71788295e-01, 3.50000000e-09, 4.71788294e-01, 3.50000000e-09, 2.93215851e+08, 3.50000000e-09, 1.94080864e+08, 3.50000000e-09, 3.08889288e+07, 3.50000000e-09, 3.14720497e+01 , .200, SKY130
 4.00000000e-09, 1.25384749e-07, 4.00000000e-09, 4.00028640e-09, 4.00000000e-09, 5.71850957e-16, 4.00000000e-09 -1.72234215e-16, 4.00000000e-09, 2.58988353e-19, 4.00000000e-09, 1.01229943e-16, 4.00000000e-09, 1.51552313e-16, 4.00000000e-09 -8.04931106e-20, 4.00000000e-09, 3.87664511e-09, 4.00000000e-09, 7.53149948e-01, 4.00000000e-09, 3.81727204e-02, 4.00000000e-09, 4.75908395e-01, 4.00000000e-09, 4.75908394e-01, 4.00000000e-09, 2.57955003e+08, 4.00000000e-09, 2.19261239e+08, 4.00000000e-09, 3.48965100e+07, 4.00000000e-09, 3.13439430e+01 , .200, SKY130
 4.50000000e-09, 1.40513176e-07, 4.50000000e-09, 4.50002411e-09, 4.50000000e-09, 5.75665961e-16, 4.50000000e-09 -1.77585062e-16, 4.50000000e-09, 2.63897136e-19, 4.50000000e-09, 1.04119737e-16, 4.50000000e-09, 1.55881599e-16, 4.50000000e-09 -8.19944530e-20, 4.50000000e-09, 4.34062766e-09, 4.50000000e-09, 7.53149723e-01, 4.50000000e-09, 3.81794022e-02, 4.50000000e-09, 4.79558333e-01, 4.50000000e-09, 4.79558332e-01, 4.50000000e-09, 2.30381428e+08, 4.50000000e-09, 2.44088039e+08, 4.50000000e-09, 3.88478180e+07, 4.50000000e-09, 3.12249828e+01 , .200, SKY130
 5.00000000e-09, 1.55564029e-07, 5.00000000e-09, 4.99986356e-09, 5.00000000e-09, 5.79179779e-16, 5.00000000e-09 -1.82495281e-16, 5.00000000e-09, 2.68270194e-19, 5.00000000e-09, 1.06763788e-16, 5.00000000e-09, 1.59842782e-16, 5.00000000e-09 -8.32943077e-20, 5.00000000e-09, 4.80264139e-09, 5.00000000e-09, 7.53149521e-01, 5.00000000e-09, 3.81860626e-02, 5.00000000e-09, 4.82836282e-01, 5.00000000e-09, 4.82836281e-01, 5.00000000e-09, 2.08218753e+08, 5.00000000e-09, 2.68593682e+08, 5.00000000e-09, 4.27480121e+07, 5.00000000e-09, 3.11136549e+01 , .200, SKY130
 5.50000000e-09, 1.70541190e-07, 5.50000000e-09, 5.49976342e-09, 5.50000000e-09, 5.82441803e-16, 5.50000000e-09 -1.87039043e-16, 5.50000000e-09, 2.72206925e-19, 5.50000000e-09, 1.09204071e-16, 5.50000000e-09, 1.63498730e-16, 5.50000000e-09 -8.44323668e-20, 5.50000000e-09, 5.26285629e-09, 5.50000000e-09, 7.53149337e-01, 5.50000000e-09, 3.81927033e-02, 5.50000000e-09, 4.85812348e-01, 5.50000000e-09, 4.85812347e-01, 5.50000000e-09, 1.90010889e+08, 5.50000000e-09, 2.92803829e+08, 5.50000000e-09, 4.66011768e+07, 5.50000000e-09, 3.10088230e+01 , .200, SKY130
 6.00000000e-09, 1.85448214e-07, 6.00000000e-09, 5.99969540e-09, 6.00000000e-09, 5.85489783e-16, 6.00000000e-09 -1.91272695e-16, 6.00000000e-09, 2.75781472e-19, 6.00000000e-09, 1.11472377e-16, 6.00000000e-09, 1.66897063e-16, 6.00000000e-09 -8.54378997e-20, 6.00000000e-09, 5.72141607e-09, 6.00000000e-09, 7.53149169e-01, 6.00000000e-09, 3.81993255e-02, 6.00000000e-09, 4.88538475e-01, 6.00000000e-09, 4.88538473e-01, 6.00000000e-09, 1.74781905e+08, 6.00000000e-09, 3.16740308e+08, 6.00000000e-09, 5.04107856e+07, 6.00000000e-09, 3.09096048e+01 , .200, SKY130
 6.50000000e-09, 2.00288625e-07, 6.50000000e-09, 6.49964929e-09, 6.50000000e-09, 5.88353329e-16, 6.50000000e-09 -1.95240194e-16, 6.50000000e-09, 2.79050680e-19, 6.50000000e-09, 1.13593441e-16, 6.50000000e-09, 1.70074833e-16, 6.50000000e-09 -8.63331013e-20, 6.50000000e-09, 6.17845230e-09, 6.50000000e-09, 7.53149013e-01, 6.50000000e-09, 3.82059308e-02, 6.50000000e-09, 4.91054273e-01, 6.50000000e-09, 4.91054271e-01, 6.50000000e-09, 1.61852832e+08, 6.50000000e-09, 3.40422354e+08, 6.50000000e-09, 5.41799004e+07, 6.50000000e-09, 3.08152973e+01 , .200, SKY130
 7.00000000e-09, 2.15065509e-07, 7.00000000e-09, 6.99961550e-09, 7.00000000e-09, 5.91056068e-16, 7.00000000e-09 -1.98976460e-16, 7.00000000e-09, 2.82059017e-19, 7.00000000e-09, 1.15586868e-16, 7.00000000e-09, 1.73061402e-16, 7.00000000e-09 -8.71351629e-20, 7.00000000e-09, 6.63407509e-09, 7.00000000e-09, 7.53148869e-01, 7.00000000e-09, 3.82125201e-02, 7.00000000e-09, 4.93390582e-01, 7.00000000e-09, 4.93390580e-01, 7.00000000e-09, 1.50736913e+08, 7.00000000e-09, 3.63866510e+08, 7.00000000e-09, 5.79111536e+07, 7.00000000e-09, 3.07253318e+01 , .200, SKY130
 7.50000000e-09, 2.29781780e-07, 7.50000000e-09, 7.49959147e-09, 7.50000000e-09, 5.93617219e-16, 7.50000000e-09 -2.02509771e-16, 7.50000000e-09, 2.84841964e-19, 7.50000000e-09, 1.17468498e-16, 7.50000000e-09, 1.75880499e-16, 7.50000000e-09 -8.78576695e-20, 7.50000000e-09, 7.08838362e-09, 7.50000000e-09, 7.53148735e-01, 7.50000000e-09, 3.82190945e-02, 7.50000000e-09, 4.95571918e-01, 7.50000000e-09, 4.95571916e-01, 7.50000000e-09, 1.41075886e+08, 7.50000000e-09, 3.87087457e+08, 7.50000000e-09, 6.16068823e+07, 7.50000000e-09, 3.06392396e+01 , .200, SKY130
 8.00000000e-09, 2.44439948e-07, 8.00000000e-09, 7.99957137e-09, 8.00000000e-09, 5.96052600e-16, 8.00000000e-09 -2.05863323e-16, 8.00000000e-09, 2.87428241e-19, 8.00000000e-09, 1.19251296e-16, 8.00000000e-09, 1.78551544e-16, 8.00000000e-09 -8.85115221e-20, 8.00000000e-09, 7.54146031e-09, 8.00000000e-09, 7.53148608e-01, 8.00000000e-09, 3.82256549e-02, 8.00000000e-09, 4.97618058e-01, 8.00000000e-09, 4.97618056e-01, 8.00000000e-09, 1.32600313e+08, 8.00000000e-09, 4.10097947e+08, 8.00000000e-09, 6.52691154e+07, 8.00000000e-09, 3.05566306e+01 , .200, SKY130
 8.50000000e-09, 2.59042500e-07, 8.50000000e-09, 8.49955770e-09, 8.50000000e-09, 5.98375452e-16, 8.50000000e-09 -2.09056461e-16, 8.50000000e-09, 2.89841474e-19, 8.50000000e-09, 1.20946056e-16, 8.50000000e-09, 1.81090707e-16, 8.50000000e-09 -8.91056071e-20, 8.50000000e-09, 7.99338394e-09, 8.50000000e-09, 7.53148489e-01, 8.50000000e-09, 3.82322021e-02, 8.50000000e-09, 4.99545230e-01, 8.50000000e-09, 4.99545227e-01, 8.50000000e-09, 1.25103461e+08, 8.50000000e-09, 4.32909638e+08, 8.50000000e-09, 6.88997088e+07, 8.50000000e-09, 3.04771742e+01 , .200, SKY130
 9.00000000e-09, 2.73591527e-07, 9.00000000e-09, 8.99954691e-09, 9.00000000e-09, 6.00596923e-16, 9.00000000e-09 -2.12105428e-16, 9.00000000e-09, 2.92101279e-19, 9.00000000e-09, 1.22561826e-16, 9.00000000e-09, 1.83511538e-16, 9.00000000e-09 -8.96472451e-20, 9.00000000e-09, 8.44421864e-09, 9.00000000e-09, 7.53148377e-01, 9.00000000e-09, 3.82387368e-02, 9.00000000e-09, 5.01366870e-01, 9.00000000e-09, 5.01366867e-01, 9.00000000e-09, 1.18424219e+08, 9.00000000e-09, 4.55532682e+08, 9.00000000e-09, 7.25002780e+07, 9.00000000e-09, 3.04005890e+01 , .200, SKY130
 9.50000000e-09, 2.88088972e-07, 9.50000000e-09, 9.49953704e-09, 9.50000000e-09, 6.02726524e-16, 9.50000000e-09 -2.15024040e-16, 9.50000000e-09, 2.94224143e-19, 9.50000000e-09, 1.24106287e-16, 9.50000000e-09, 1.85825546e-16, 9.50000000e-09 -9.01425408e-20, 9.50000000e-09, 8.89402231e-09, 9.50000000e-09, 7.53148270e-01, 9.50000000e-09, 3.82452595e-02, 9.50000000e-09, 5.03094254e-01, 9.50000000e-09, 5.03094251e-01, 9.50000000e-09, 1.12435068e+08, 9.50000000e-09, 4.77976263e+08, 9.50000000e-09, 7.60722850e+07, 9.50000000e-09, 3.03266328e+01 , .200, SKY130
 1.00000000e-08, 3.02535739e-07, 1.00000000e-08, 9.99949581e-09, 1.00000000e-08, 6.04772315e-16, 1.00000000e-08 -2.17823982e-16, 1.00000000e-08, 2.96223936e-19, 1.00000000e-08, 1.25585933e-16, 1.00000000e-08, 1.88042457e-16, 1.00000000e-08 -9.05966077e-20, 1.00000000e-08, 9.34281926e-09, 1.00000000e-08, 7.53148169e-01, 1.00000000e-08, 3.82517705e-02, 1.00000000e-08, 5.04736833e-01, 1.00000000e-08, 5.04736830e-01, 1.00000000e-08, 1.07034073e+08, 1.00000000e-08, 5.00247336e+08, 1.00000000e-08, 7.96168363e+07, 1.00000000e-08, 3.02550994e+01 , .200, SKY130
 1.50000000e-08, 4.46111455e-07, 1.50000000e-08, 1.50535590e-08, 1.50000000e-08, 6.21998300e-16, 1.50000000e-08 -2.41266352e-16, 1.50000000e-08, 3.11591863e-19, 1.50000000e-08, 1.37900085e-16, 1.50000000e-08, 2.06492882e-16, 1.50000000e-08 -9.36139308e-20, 1.50000000e-08, 1.38336315e-08, 1.50000000e-08, 7.53147351e-01, 1.50000000e-08, 3.83170455e-02, 1.50000000e-08, 5.17985075e-01, 1.50000000e-08, 5.17985070e-01, 1.50000000e-08, 7.22875986e+07, 1.50000000e-08, 7.17222948e+08, 1.50000000e-08, 1.14149578e+08, 1.50000000e-08, 2.96349492e+01 , .200, SKY130
 2.00000000e-08, 5.86340211e-07, 2.00000000e-08, 2.01219528e-08, 2.00000000e-08, 6.35225671e-16, 2.00000000e-08 -2.59126668e-16, 2.00000000e-08, 3.21710368e-19, 2.00000000e-08, 1.47198787e-16, 2.00000000e-08, 2.20425780e-16, 2.00000000e-08 -9.50132800e-20, 2.00000000e-08, 1.82714858e-08, 2.00000000e-08, 7.53146760e-01, 2.00000000e-08, 3.83817103e-02, 2.00000000e-08, 5.27561306e-01, 2.00000000e-08, 5.27561300e-01, 2.00000000e-08, 5.47300865e+07, 2.00000000e-08, 9.23042374e+08, 2.00000000e-08, 1.46906757e+08, 2.00000000e-08, 2.91393294e+01 , .200, SKY130
 2.50000000e-08, 7.19844911e-07, 2.50000000e-08, 2.50525903e-08, 2.50000000e-08, 6.45786281e-16, 2.50000000e-08 -2.73312447e-16, 2.50000000e-08, 3.28806440e-19, 2.50000000e-08, 1.54536936e-16, 2.50000000e-08, 2.31421366e-16, 2.50000000e-08 -9.55972417e-20, 2.50000000e-08, 2.25408050e-08, 2.50000000e-08, 7.53146307e-01, 2.50000000e-08, 3.84440195e-02, 2.50000000e-08, 5.34905502e-01, 2.50000000e-08, 5.34905495e-01, 2.50000000e-08, 4.43639879e+07, 2.50000000e-08, 1.11467978e+09, 2.50000000e-08, 1.77406797e+08, 2.50000000e-08, 2.87333526e+01 , .200, SKY130
 3.00000000e-08, 8.51820881e-07, 3.00000000e-08, 3.00171875e-08, 3.00000000e-08, 6.54874548e-16, 3.00000000e-08 -2.85474284e-16, 3.00000000e-08, 3.34245404e-19, 3.00000000e-08, 1.60796518e-16, 3.00000000e-08, 2.40801029e-16, 3.00000000e-08 -9.57384363e-20, 3.00000000e-08, 2.68005658e-08, 3.00000000e-08, 7.53145929e-01, 3.00000000e-08, 3.85062592e-02, 3.00000000e-08, 5.41043847e-01, 3.00000000e-08, 5.41043838e-01, 3.00000000e-08, 3.73126451e+07, 3.00000000e-08, 1.30073903e+09, 3.00000000e-08, 2.07019046e+08, 3.00000000e-08, 2.83777713e+01 , .200, SKY130
 3.50000000e-08, 9.82384923e-07, 3.50000000e-08, 3.50094780e-08, 3.50000000e-08, 6.62879770e-16, 3.50000000e-08 -2.96154769e-16, 3.50000000e-08, 3.38541186e-19, 3.50000000e-08, 1.66270649e-16, 3.50000000e-08, 2.49003897e-16, 3.50000000e-08 -9.55954864e-20, 3.50000000e-08, 3.10504730e-08, 3.50000000e-08, 7.53145603e-01, 3.50000000e-08, 3.85684072e-02, 3.50000000e-08, 5.46328954e-01, 3.50000000e-08, 5.46328944e-01, 3.50000000e-08, 3.22056286e+07, 3.50000000e-08, 1.48199563e+09, 3.50000000e-08, 2.35866930e+08, 3.50000000e-08, 2.80605419e+01 , .200, SKY130
 4.00000000e-08, 1.11115507e-06, 4.00000000e-08, 4.00059822e-08, 4.00000000e-08, 6.70025115e-16, 4.00000000e-08 -3.05664694e-16, 4.00000000e-08, 3.41993997e-19, 4.00000000e-08, 1.71127369e-16, 4.00000000e-08, 2.56281712e-16, 4.00000000e-08 -9.52621468e-20, 4.00000000e-08, 3.52743700e-08, 4.00000000e-08, 7.53145317e-01, 4.00000000e-08, 3.86302146e-02, 4.00000000e-08, 5.50960844e-01, 4.00000000e-08, 5.50960833e-01, 4.00000000e-08, 2.83491952e+07, 4.00000000e-08, 1.65837823e+09, 4.00000000e-08, 2.63939093e+08, 4.00000000e-08, 2.77747228e+01 , .200, SKY130
 4.50000000e-08, 1.23825203e-06, 4.50000000e-08, 4.50037339e-08, 4.50000000e-08, 6.76487707e-16, 4.50000000e-08 -3.14248283e-16, 4.50000000e-08, 3.44813426e-19, 4.50000000e-08, 1.75497320e-16, 4.50000000e-08, 2.62830200e-16, 4.50000000e-08 -9.47971808e-20, 4.50000000e-08, 3.94728086e-08, 4.50000000e-08, 7.53145063e-01, 4.50000000e-08, 3.86916800e-02, 4.50000000e-08, 5.55087712e-01, 4.50000000e-08, 5.55087699e-01, 4.50000000e-08, 2.53338953e+07, 4.50000000e-08, 1.83041321e+09, 4.50000000e-08, 2.91319310e+08, 4.50000000e-08, 2.75144288e+01 , .200, SKY130
 5.00000000e-08, 1.36382871e-06, 5.00000000e-08, 5.00023836e-08, 5.00000000e-08, 6.82395709e-16, 5.00000000e-08 -3.22081486e-16, 5.00000000e-08, 3.47143095e-19, 5.00000000e-08, 1.79474210e-16, 5.00000000e-08, 2.68789758e-16, 5.00000000e-08 -9.42387072e-20, 5.00000000e-08, 4.36478878e-08, 5.00000000e-08, 7.53144833e-01, 5.00000000e-08, 3.87528274e-02, 5.00000000e-08, 5.58813378e-01, 5.00000000e-08, 5.58813363e-01, 5.00000000e-08, 2.29106161e+07, 5.00000000e-08, 1.99858923e+09, 5.00000000e-08, 3.18085355e+08, 5.00000000e-08, 2.72752740e+01 , .200, SKY130
 5.50000000e-08, 1.48801002e-06, 5.50000000e-08, 5.50015424e-08, 5.50000000e-08, 6.87843166e-16, 5.50000000e-08 -3.29293030e-16, 5.50000000e-08, 3.49084496e-19, 5.50000000e-08, 1.83126389e-16, 5.50000000e-08, 2.74262789e-16, 5.50000000e-08 -9.36125603e-20, 5.50000000e-08, 4.78011964e-08, 5.50000000e-08, 7.53144623e-01, 5.50000000e-08, 3.88136747e-02, 5.50000000e-08, 5.62212259e-01, 5.50000000e-08, 5.62212243e-01, 5.50000000e-08, 2.09199785e+07, 5.50000000e-08, 2.16329839e+09, 5.50000000e-08, 3.44299633e+08, 5.50000000e-08, 2.70539689e+01 , .200, SKY130
 6.00000000e-08, 1.61090457e-06, 6.00000000e-08, 6.00009910e-08, 6.00000000e-08, 6.92901480e-16, 6.00000000e-08 -3.35980381e-16, 6.00000000e-08, 3.50711904e-19, 6.00000000e-08, 1.86505466e-16, 6.00000000e-08, 2.79326615e-16, 6.00000000e-08 -9.29368332e-20, 6.00000000e-08, 5.19341200e-08, 6.00000000e-08, 7.53144431e-01, 6.00000000e-08, 3.88742381e-02, 6.00000000e-08, 5.65339673e-01, 6.00000000e-08, 5.65339655e-01, 6.00000000e-08, 1.92551640e+07, 6.00000000e-08, 2.32486814e+09, 6.00000000e-08, 3.70014256e+08, 6.00000000e-08, 2.68479661e+01 , .200, SKY130
 6.50000000e-08, 1.73260746e-06, 6.50000000e-08, 6.50006139e-08, 6.50000000e-08, 6.97626215e-16, 6.50000000e-08 -3.42219214e-16, 6.50000000e-08, 3.52081170e-19, 6.50000000e-08, 1.89651408e-16, 6.50000000e-08, 2.84041118e-16, 6.50000000e-08 -9.22245428e-20, 6.50000000e-08, 5.60478714e-08, 6.50000000e-08, 7.53144252e-01, 6.50000000e-08, 3.89345322e-02, 6.50000000e-08, 5.68237871e-01, 6.50000000e-08, 5.68237852e-01, 6.50000000e-08, 1.78418908e+07, 6.50000000e-08, 2.48357562e+09, 6.50000000e-08, 3.95273336e+08, 6.50000000e-08, 2.66552476e+01 , .200, SKY130
 7.00000000e-08, 1.85320210e-06, 7.00000000e-08, 7.00003460e-08, 7.00000000e-08, 7.02061507e-16, 7.00000000e-08 -3.48069512e-16, 7.00000000e-08, 3.53235251e-19, 7.00000000e-08, 1.92595820e-16, 7.00000000e-08, 2.88453653e-16, 7.00000000e-08 -9.14852648e-20, 7.00000000e-08, 6.01435056e-08, 7.00000000e-08, 7.53144086e-01, 7.00000000e-08, 3.89945698e-02, 7.00000000e-08, 5.70939858e-01, 7.00000000e-08, 5.70939838e-01, 7.00000000e-08, 1.66268991e+07, 7.00000000e-08, 2.63965776e+09, 7.00000000e-08, 4.20114580e+08, 7.00000000e-08, 2.64741849e+01 , .200, SKY130
 7.50000000e-08, 1.97276222e-06, 7.50000000e-08, 7.50001535e-08, 7.50000000e-08, 7.06243030e-16, 7.50000000e-08 -3.53579666e-16, 7.50000000e-08, 3.54207832e-19, 7.50000000e-08, 1.95364150e-16, 7.50000000e-08, 2.92602348e-16, 7.50000000e-08 -9.07261739e-20, 7.50000000e-08, 6.42219476e-08, 7.50000000e-08, 7.53143930e-01, 7.50000000e-08, 3.90543624e-02, 7.50000000e-08, 5.73471914e-01, 7.50000000e-08, 5.73471892e-01, 7.50000000e-08, 1.55710008e+07, 7.50000000e-08, 2.79331920e+09, 7.50000000e-08, 4.44570559e+08, 7.50000000e-08, 2.63034424e+01 , .200, SKY130
 8.00000000e-08, 2.09135303e-06, 8.00000000e-08, 8.00000093e-08, 8.00000000e-08, 7.10200048e-16, 8.00000000e-08 -3.58789312e-16, 8.00000000e-08, 3.55025761e-19, 8.00000000e-08, 1.97977199e-16, 8.00000000e-08, 2.96518366e-16, 8.00000000e-08 -8.99527312e-20, 8.00000000e-08, 6.82840027e-08, 8.00000000e-08, 7.53143783e-01, 8.00000000e-08, 3.91139201e-02, 8.00000000e-08, 5.75855303e-01, 8.00000000e-08, 5.75855280e-01, 8.00000000e-08, 1.46447185e+07, 8.00000000e-08, 2.94473794e+09, 8.00000000e-08, 4.68669600e+08, 8.00000000e-08, 2.61419098e+01 , .200, SKY130
 8.50000000e-08, 2.20903292e-06, 8.50000000e-08, 8.49999003e-08, 8.50000000e-08, 7.13956896e-16, 8.50000000e-08 -3.63731351e-16, 8.50000000e-08, 3.55710748e-19, 8.50000000e-08, 2.00452203e-16, 8.50000000e-08, 3.00227536e-16, 8.50000000e-08 -8.91691457e-20, 8.50000000e-08, 7.23303867e-08, 8.50000000e-08, 7.53143644e-01, 8.50000000e-08, 3.91732518e-02, 8.50000000e-08, 5.78107487e-01, 8.50000000e-08, 5.78107463e-01, 8.50000000e-08, 1.38254480e+07, 8.50000000e-08, 3.09407043e+09, 8.50000000e-08, 4.92436603e+08, 8.50000000e-08, 2.59886530e+01 , .200, SKY130
 9.00000000e-08, 2.32585422e-06, 9.00000000e-08, 8.99998157e-08, 9.00000000e-08, 7.17534033e-16, 9.00000000e-08 -3.68433413e-16, 9.00000000e-08, 3.56280571e-19, 9.00000000e-08, 2.02803611e-16, 9.00000000e-08, 3.03751508e-16, 9.00000000e-08 -8.83786981e-20, 9.00000000e-08, 7.63617343e-08, 9.00000000e-08, 7.53143513e-01, 9.00000000e-08, 3.92323657e-02, 9.00000000e-08, 5.80242980e-01, 9.00000000e-08, 5.80242954e-01, 9.00000000e-08, 1.30955643e+07, 9.00000000e-08, 3.24145492e+09, 9.00000000e-08, 5.15893573e+08, 9.00000000e-08, 2.58428776e+01 , .200, SKY130
