L_u, W_u, ft_u, cgs_u, cgg_u, cgd_u, cgb_u, cdb_u, css_u, cdd_u, cds_u, id_u, L, W, VGS, VDS, VSB, type, ids, vth, vdsat, gm, gmb, gds, cgg, cgs, cgd, cgb, cdb, cdd, cds, css, va, ro, rds, kcgs, kcgd, kcdb, kcds, kgm, ic, n, T
1.000000e-13, 1.000000e-13, 7.716731e+10, 1.098771e-16, 1.405788e-16, 2.026257e-17, 1.043911e-17, 2.162344e-19, 1.461817e-16, 2.061959e-17, 1.207249e-18, 7.000682e-06, 1.000000e-13, 1.000000e-13, 4.471393e-04, 4.471393e-04, 0.000000e+00, 0.000000e+00, 9.990883e-13, 3.562285e-01, 6.467358e-02, 3.290859e-11, 2.999792e-12, 2.225789e-09, 5.910560e-17, 1.079581e-17, 2.882284e-17, 1.948695e-17, 1.102412e-19, 2.991534e-17, 9.421166e-18, 2.412023e-17, 4.492761e-04, 4.492789e+08, 4.492789e+08, 1.080567e-05, 2.884914e-05, 1.103418e-07, 9.429763e-06, 3.293862e+01, 1.427130e-07, 1.370000e+00, 2.700000e+01,
1.000000e-13, 1.000000e-13, 7.716731e+10, 1.098771e-16, 1.405788e-16, 2.026257e-17, 1.043911e-17, 2.162344e-19, 1.461817e-16, 2.061959e-17, 1.207249e-18, 7.000682e-06, 1.000000e-13, 1.000000e-13, 8.848310e-04, 8.848310e-04, 0.000000e+00, 0.000000e+00, 1.998214e-12, 3.562276e-01, 6.467365e-02, 6.581574e-11, 5.998389e-12, 2.241035e-09, 5.907657e-17, 1.113797e-17, 2.845727e-17, 1.948133e-17, 1.078860e-19, 2.950820e-17, 9.041401e-18, 2.400339e-17, 8.924474e-04, 4.462225e+08, 4.462225e+08, 5.573962e-06, 1.424136e-05, 5.399120e-08, 4.524742e-06, 3.293729e+01, 2.854313e-07, 1.370000e+00, 2.700000e+01,
1.000000e-13, 1.000000e-13, 7.716731e+10, 1.098771e-16, 1.405788e-16, 2.026257e-17, 1.043911e-17, 2.162344e-19, 1.461817e-16, 2.061959e-17, 1.207249e-18, 7.000682e-06, 1.000000e-13, 1.000000e-13, 1.313543e-03, 1.313543e-03, 0.000000e+00, 0.000000e+00, 2.997420e-12, 3.562266e-01, 6.467371e-02, 9.872294e-11, 8.995963e-12, 2.255976e-09, 5.904887e-17, 1.145630e-17, 2.811682e-17, 1.947575e-17, 1.056511e-19, 2.912902e-17, 8.688182e-18, 2.389526e-17, 1.329837e-03, 4.432672e+08, 4.432672e+08, 3.822055e-06, 9.380340e-06, 3.524736e-08, 2.898554e-06, 3.293598e+01, 4.281611e-07, 1.370000e+00, 2.700000e+01,
1.000000e-13, 1.000000e-13, 7.716731e+10, 1.098771e-16, 1.405788e-16, 2.026257e-17, 1.043911e-17, 2.162344e-19, 1.461817e-16, 2.061959e-17, 1.207249e-18, 7.000682e-06, 1.000000e-13, 1.000000e-13, 1.733719e-03, 1.733719e-03, 0.000000e+00, 0.000000e+00, 3.996776e-12, 3.562257e-01, 6.467378e-02, 1.316325e-10, 1.199276e-11, 2.270626e-09, 5.902242e-17, 1.175311e-17, 2.779909e-17, 1.947022e-17, 1.035279e-19, 2.877517e-17, 8.358960e-18, 2.379501e-17, 1.761755e-03, 4.404072e+08, 4.404072e+08, 2.940647e-06, 6.955380e-06, 2.590286e-08, 2.091426e-06, 3.293469e+01, 5.709124e-07, 1.370000e+00, 2.700000e+01,
1.000000e-13, 1.000000e-13, 7.716731e+10, 1.098771e-16, 1.405788e-16, 2.026257e-17, 1.043911e-17, 2.162344e-19, 1.461817e-16, 2.061959e-17, 1.207249e-18, 7.000682e-06, 1.000000e-13, 1.000000e-13, 2.145781e-03, 2.145781e-03, 0.000000e+00, 0.000000e+00, 4.996375e-12, 3.562248e-01, 6.467384e-02, 1.645477e-10, 1.498911e-11, 2.284997e-09, 5.899713e-17, 1.203040e-17, 2.750199e-17, 1.946474e-17, 1.015083e-19, 2.844428e-17, 8.051486e-18, 2.370188e-17, 2.188503e-03, 4.376374e+08, 4.376374e+08, 2.407825e-06, 5.504389e-06, 2.031638e-08, 1.611465e-06, 3.293341e+01, 7.136984e-07, 1.370000e+00, 2.700000e+01,
1.000000e-13, 1.000000e-13, 7.716731e+10, 1.098771e-16, 1.405788e-16, 2.026257e-17, 1.043911e-17, 2.162344e-19, 1.461817e-16, 2.061959e-17, 1.207249e-18, 7.000682e-06, 1.000000e-13, 1.000000e-13, 2.550130e-03, 2.550130e-03, 0.000000e+00, 0.000000e+00, 5.996334e-12, 3.562239e-01, 6.467390e-02, 1.974722e-10, 1.798539e-11, 2.299101e-09, 5.897292e-17, 1.228997e-17, 2.722364e-17, 1.945931e-17, 9.958489e-20, 2.813428e-17, 7.763762e-18, 2.361522e-17, 2.610368e-03, 4.349526e+08, 4.349526e+08, 2.049581e-06, 4.540047e-06, 1.660763e-08, 1.294751e-06, 3.293216e+01, 8.565358e-07, 1.370000e+00, 2.700000e+01,
1.000000e-13, 1.000000e-13, 7.716731e+10, 1.098771e-16, 1.405788e-16, 2.026257e-17, 1.043911e-17, 2.162344e-19, 1.461817e-16, 2.061959e-17, 1.207249e-18, 7.000682e-06, 1.000000e-13, 1.000000e-13, 2.947149e-03, 2.947149e-03, 0.000000e+00, 0.000000e+00, 6.996788e-12, 3.562230e-01, 6.467396e-02, 2.304106e-10, 2.098203e-11, 2.312950e-09, 5.894971e-17, 1.253341e-17, 2.696238e-17, 1.945391e-17, 9.775097e-20, 2.784330e-17, 7.494017e-18, 2.353445e-17, 3.027631e-03, 4.323484e+08, 4.323484e+08, 1.791310e-06, 3.853537e-06, 1.397083e-08, 1.071065e-06, 3.293092e+01, 9.994438e-07, 1.370000e+00, 2.700000e+01,
1.000000e-13, 1.000000e-13, 7.716731e+10, 1.098771e-16, 1.405788e-16, 2.026257e-17, 1.043911e-17, 2.162344e-19, 1.461817e-16, 2.061959e-17, 1.207249e-18, 7.000682e-06, 1.000000e-13, 1.000000e-13, 3.337200e-03, 3.337200e-03, 0.000000e+00, 0.000000e+00, 7.997889e-12, 3.562221e-01, 6.467403e-02, 2.633680e-10, 2.397953e-11, 2.326554e-09, 5.892743e-17, 1.276214e-17, 2.671672e-17, 1.944857e-17, 9.600034e-20, 2.756971e-17, 7.240671e-18, 2.345904e-17, 3.440560e-03, 4.298202e+08, 4.298202e+08, 1.595689e-06, 3.340472e-06, 1.200321e-08, 9.053228e-07, 3.292969e+01, 1.142444e-06, 1.370000e+00, 2.700000e+01,
1.000000e-13, 1.000000e-13, 7.716731e+10, 1.098771e-16, 1.405788e-16, 2.026257e-17, 1.043911e-17, 2.162344e-19, 1.461817e-16, 2.061959e-17, 1.207249e-18, 7.000682e-06, 1.000000e-13, 1.000000e-13, 3.720628e-03, 3.720628e-03, 0.000000e+00, 0.000000e+00, 8.999806e-12, 3.562213e-01, 6.467409e-02, 2.963500e-10, 2.697841e-11, 2.339924e-09, 5.890603e-17, 1.297742e-17, 2.648534e-17, 1.944327e-17, 9.432730e-20, 2.731201e-17, 7.002315e-18, 2.338852e-17, 3.849416e-03, 4.273642e+08, 4.273642e+08, 1.441967e-06, 2.942879e-06, 1.048104e-08, 7.780518e-07, 3.292848e+01, 1.285561e-06, 1.370000e+00, 2.700000e+01,
1.000000e-13, 1.000000e-13, 7.716731e+10, 1.098771e-16, 1.405788e-16, 2.026257e-17, 1.043911e-17, 2.162344e-19, 1.461817e-16, 2.061959e-17, 1.207249e-18, 7.000682e-06, 1.000000e-13, 1.000000e-13, 4.097763e-03, 4.097763e-03, 0.000000e+00, 0.000000e+00, 1.000272e-11, 3.562204e-01, 6.467415e-02, 3.293625e-10, 2.997926e-11, 2.353071e-09, 5.888545e-17, 1.318039e-17, 2.626704e-17, 1.943802e-17, 9.272665e-20, 2.706889e-17, 6.777688e-18, 2.332249e-17, 4.254450e-03, 4.249765e+08, 4.249765e+08, 1.317680e-06, 2.625989e-06, 9.270142e-09, 6.775843e-07, 3.292729e+01, 1.428821e-06, 1.370000e+00, 2.700000e+01,
1.000000e-13, 1.000000e-13, 7.716731e+10, 1.098771e-16, 1.405788e-16, 2.026257e-17, 1.043911e-17, 2.162344e-19, 1.461817e-16, 2.061959e-17, 1.207249e-18, 7.000682e-06, 1.000000e-13, 1.000000e-13, 4.463071e-03, 4.463071e-03, 0.000000e+00, 0.000000e+00, 1.099089e-11, 3.562196e-01, 6.467421e-02, 3.618873e-10, 3.293499e-11, 2.365800e-09, 5.886593e-17, 1.336909e-17, 2.606395e-17, 1.943289e-17, 9.121742e-20, 2.684271e-17, 6.568932e-18, 2.326153e-17, 4.649560e-03, 4.226900e+08, 4.226900e+08, 1.216380e-06, 2.371415e-06, 8.299368e-09, 5.976708e-07, 3.292612e+01, 1.569974e-06, 1.370000e+00, 2.700000e+01,
1.000000e-13, 1.000000e-13, 7.716731e+10, 1.098771e-16, 1.405788e-16, 2.026257e-17, 1.043911e-17, 2.162344e-19, 1.461817e-16, 2.061959e-17, 1.207249e-18, 7.000682e-06, 1.000000e-13, 1.000000e-13, 4.826384e-03, 4.826384e-03, 0.000000e+00, 0.000000e+00, 1.199015e-11, 3.562188e-01, 6.467427e-02, 3.947751e-10, 3.592295e-11, 2.378452e-09, 5.884693e-17, 1.354943e-17, 2.586975e-17, 1.942775e-17, 8.975549e-20, 2.662642e-17, 6.369519e-18, 2.320368e-17, 5.045266e-03, 4.204415e+08, 4.204415e+08, 1.130047e-06, 2.157584e-06, 7.485771e-09, 5.312295e-07, 3.292496e+01, 1.712711e-06, 1.370000e+00, 2.700000e+01,
1.000000e-13, 1.000000e-13, 7.716731e+10, 1.098771e-16, 1.405788e-16, 2.026257e-17, 1.043911e-17, 2.162344e-19, 1.461817e-16, 2.061959e-17, 1.207249e-18, 7.000682e-06, 1.000000e-13, 1.000000e-13, 5.183797e-03, 5.183797e-03, 0.000000e+00, 0.000000e+00, 1.298942e-11, 3.562180e-01, 6.467433e-02, 4.276612e-10, 3.891000e-11, 2.390891e-09, 5.882862e-17, 1.372003e-17, 2.568592e-17, 1.942267e-17, 8.835420e-20, 2.642169e-17, 6.180954e-18, 2.314937e-17, 5.437270e-03, 4.182540e+08, 4.182540e+08, 1.056247e-06, 1.977450e-06, 6.802013e-09, 4.758453e-07, 3.292381e+01, 1.855451e-06, 1.370000e+00, 2.700000e+01,
1.000000e-13, 1.000000e-13, 7.716731e+10, 1.098771e-16, 1.405788e-16, 2.026257e-17, 1.043911e-17, 2.162344e-19, 1.461817e-16, 2.061959e-17, 1.207249e-18, 7.000682e-06, 1.000000e-13, 1.000000e-13, 5.535526e-03, 5.535526e-03, 0.000000e+00, 0.000000e+00, 1.398871e-11, 3.562173e-01, 6.467439e-02, 4.605456e-10, 4.189617e-11, 2.403124e-09, 5.881097e-17, 1.388164e-17, 2.551169e-17, 1.941763e-17, 8.700992e-20, 2.622765e-17, 6.002416e-18, 2.309830e-17, 5.825718e-03, 4.161251e+08, 4.161251e+08, 9.923463e-07, 1.823735e-06, 6.220012e-09, 4.290901e-07, 3.292267e+01, 1.998192e-06, 1.370000e+00, 2.700000e+01,
1.000000e-13, 1.000000e-13, 7.716731e+10, 1.098771e-16, 1.405788e-16, 2.026257e-17, 1.043911e-17, 2.162344e-19, 1.461817e-16, 2.061959e-17, 1.207249e-18, 7.000682e-06, 1.000000e-13, 1.000000e-13, 5.881774e-03, 5.881774e-03, 0.000000e+00, 0.000000e+00, 1.498801e-11, 3.562165e-01, 6.467445e-02, 4.934283e-10, 4.488148e-11, 2.415155e-09, 5.879392e-17, 1.403491e-17, 2.534637e-17, 1.941264e-17, 8.571927e-20, 2.604353e-17, 5.833164e-18, 2.305025e-17, 6.210750e-03, 4.140521e+08, 4.140521e+08, 9.364098e-07, 1.691110e-06, 5.719191e-09, 3.891888e-07, 3.292155e+01, 2.140935e-06, 1.370000e+00, 2.700000e+01,
1.000000e-13, 1.000000e-13, 7.716731e+10, 1.098771e-16, 1.405788e-16, 2.026257e-17, 1.043911e-17, 2.162344e-19, 1.461817e-16, 2.061959e-17, 1.207249e-18, 7.000682e-06, 1.000000e-13, 1.000000e-13, 6.222732e-03, 6.222732e-03, 0.000000e+00, 0.000000e+00, 1.598732e-11, 3.562157e-01, 6.467451e-02, 5.263096e-10, 4.786596e-11, 2.426992e-09, 5.877746e-17, 1.418046e-17, 2.518930e-17, 1.940770e-17, 8.447913e-20, 2.586860e-17, 5.672526e-18, 2.300499e-17, 6.592494e-03, 4.120327e+08, 4.120327e+08, 8.869817e-07, 1.575580e-06, 5.284133e-09, 3.548140e-07, 3.292043e+01, 2.283681e-06, 1.370000e+00, 2.700000e+01,
1.000000e-13, 1.000000e-13, 7.716731e+10, 1.098771e-16, 1.405788e-16, 2.026257e-17, 1.043911e-17, 2.162344e-19, 1.461817e-16, 2.061959e-17, 1.207249e-18, 7.000682e-06, 1.000000e-13, 1.000000e-13, 6.558583e-03, 6.558583e-03, 0.000000e+00, 0.000000e+00, 1.698665e-11, 3.562150e-01, 6.467457e-02, 5.591893e-10, 5.084963e-11, 2.438639e-09, 5.876155e-17, 1.431883e-17, 2.503992e-17, 1.940281e-17, 8.328662e-20, 2.570223e-17, 5.519891e-18, 2.296231e-17, 6.971077e-03, 4.100647e+08, 4.100647e+08, 8.429459e-07, 1.474094e-06, 4.903063e-09, 3.249546e-07, 3.291933e+01, 2.426428e-06, 1.370000e+00, 2.700000e+01,
1.000000e-13, 1.000000e-13, 7.716731e+10, 1.098771e-16, 1.405788e-16, 2.026257e-17, 1.043911e-17, 2.162344e-19, 1.461817e-16, 2.061959e-17, 1.207249e-18, 7.000682e-06, 1.000000e-13, 1.000000e-13, 6.889497e-03, 6.889497e-03, 0.000000e+00, 0.000000e+00, 1.798600e-11, 3.562142e-01, 6.467463e-02, 5.920676e-10, 5.383252e-11, 2.450103e-09, 5.874617e-17, 1.445051e-17, 2.489769e-17, 1.939796e-17, 8.213907e-20, 2.554383e-17, 5.374701e-18, 2.292205e-17, 7.346614e-03, 4.081461e+08, 4.081461e+08, 8.034312e-07, 1.384281e-06, 4.566834e-09, 2.988269e-07, 3.291824e+01, 2.569179e-06, 1.370000e+00, 2.700000e+01,
1.000000e-13, 1.000000e-13, 7.716731e+10, 1.098771e-16, 1.405788e-16, 2.026257e-17, 1.043911e-17, 2.162344e-19, 1.461817e-16, 2.061959e-17, 1.207249e-18, 7.000682e-06, 1.000000e-13, 1.000000e-13, 7.215639e-03, 7.215639e-03, 0.000000e+00, 0.000000e+00, 1.898537e-11, 3.562135e-01, 6.467469e-02, 6.249445e-10, 5.681465e-11, 2.461388e-09, 5.873127e-17, 1.457598e-17, 2.476213e-17, 1.939317e-17, 8.103400e-20, 2.539286e-17, 5.236450e-18, 2.288402e-17, 7.719218e-03, 4.062748e+08, 4.062748e+08, 7.677478e-07, 1.304274e-06, 4.268234e-09, 2.758150e-07, 3.291716e+01, 2.711932e-06, 1.370000e+00, 2.700000e+01,
1.000000e-13, 1.000000e-13, 7.716731e+10, 1.098771e-16, 1.405788e-16, 2.026257e-17, 1.043911e-17, 2.162344e-19, 1.461817e-16, 2.061959e-17, 1.207249e-18, 7.000682e-06, 1.000000e-13, 1.000000e-13, 7.537164e-03, 7.537164e-03, 0.000000e+00, 0.000000e+00, 1.998476e-11, 3.562128e-01, 6.467475e-02, 6.578203e-10, 5.979604e-11, 2.472499e-09, 5.871685e-17, 1.469563e-17, 2.463280e-17, 1.938841e-17, 7.996909e-20, 2.524883e-17, 5.104672e-18, 2.284808e-17, 8.088995e-03, 4.044490e+08, 4.044490e+08, 7.353418e-07, 1.232579e-06, 4.001504e-09, 2.554282e-07, 3.291610e+01, 2.854688e-06, 1.370000e+00, 2.700000e+01,
1.000000e-13, 1.000000e-13, 7.716731e+10, 1.098771e-16, 1.405788e-16, 2.026257e-17, 1.043911e-17, 2.162344e-19, 1.461817e-16, 2.061959e-17, 1.207249e-18, 7.000682e-06, 1.000000e-13, 1.000000e-13, 7.854218e-03, 7.854218e-03, 0.000000e+00, 0.000000e+00, 2.098418e-11, 3.562121e-01, 6.467481e-02, 6.906949e-10, 6.277672e-11, 2.483441e-09, 5.870287e-17, 1.480986e-17, 2.450930e-17, 1.938371e-17, 7.894220e-20, 2.511129e-17, 4.978942e-18, 2.281408e-17, 8.456045e-03, 4.026670e+08, 4.026670e+08, 7.057630e-07, 1.167990e-06, 3.761987e-09, 2.372713e-07, 3.291504e+01, 2.997448e-06, 1.370000e+00, 2.700000e+01,
1.000000e-13, 1.000000e-13, 7.716731e+10, 1.098771e-16, 1.405788e-16, 2.026257e-17, 1.043911e-17, 2.162344e-19, 1.461817e-16, 2.061959e-17, 1.207249e-18, 7.000682e-06, 1.000000e-13, 1.000000e-13, 8.166943e-03, 8.166943e-03, 0.000000e+00, 0.000000e+00, 2.198362e-11, 3.562114e-01, 6.467487e-02, 7.235687e-10, 6.575672e-11, 2.494219e-09, 5.868931e-17, 1.491901e-17, 2.439126e-17, 1.937904e-17, 7.795133e-20, 2.497982e-17, 4.858871e-18, 2.278191e-17, 8.820467e-03, 4.009271e+08, 4.009271e+08, 6.786419e-07, 1.109520e-06, 3.545882e-09, 2.210223e-07, 3.291399e+01, 3.140212e-06, 1.370000e+00, 2.700000e+01,
1.000000e-13, 1.000000e-13, 7.716731e+10, 1.098771e-16, 1.405788e-16, 2.026257e-17, 1.043911e-17, 2.162344e-19, 1.461817e-16, 2.061959e-17, 1.207249e-18, 7.000682e-06, 1.000000e-13, 1.000000e-13, 8.475472e-03, 8.475472e-03, 0.000000e+00, 0.000000e+00, 2.298310e-11, 3.562107e-01, 6.467492e-02, 7.564417e-10, 6.873607e-11, 2.504836e-09, 5.867616e-17, 1.502340e-17, 2.427833e-17, 1.937443e-17, 7.699463e-20, 2.485406e-17, 4.744100e-18, 2.275143e-17, 9.182351e-03, 3.992278e+08, 3.992278e+08, 6.536716e-07, 1.056356e-06, 3.350054e-09, 2.064169e-07, 3.291295e+01, 3.282980e-06, 1.370000e+00, 2.700000e+01,
1.000000e-13, 1.000000e-13, 7.716731e+10, 1.098771e-16, 1.405788e-16, 2.026257e-17, 1.043911e-17, 2.162344e-19, 1.461817e-16, 2.061959e-17, 1.207249e-18, 7.000682e-06, 1.000000e-13, 1.000000e-13, 8.779934e-03, 8.779934e-03, 0.000000e+00, 0.000000e+00, 2.398262e-11, 3.562101e-01, 6.467498e-02, 7.893141e-10, 7.171481e-11, 2.515296e-09, 5.866339e-17, 1.512333e-17, 2.417020e-17, 1.936985e-17, 7.607034e-20, 2.473363e-17, 4.634300e-18, 2.272255e-17, 9.541785e-03, 3.975675e+08, 3.975675e+08, 6.305956e-07, 1.007821e-06, 3.171894e-09, 1.932358e-07, 3.291192e+01, 3.425755e-06, 1.370000e+00, 2.700000e+01,
1.000000e-13, 1.000000e-13, 7.716731e+10, 1.098771e-16, 1.405788e-16, 2.026257e-17, 1.043911e-17, 2.162344e-19, 1.461817e-16, 2.061959e-17, 1.207249e-18, 7.000682e-06, 1.000000e-13, 1.000000e-13, 9.080450e-03, 9.080450e-03, 0.000000e+00, 0.000000e+00, 2.498218e-11, 3.562094e-01, 6.467504e-02, 8.221862e-10, 7.469295e-11, 2.525604e-09, 5.865098e-17, 1.521908e-17, 2.406658e-17, 1.936532e-17, 7.517684e-20, 2.461823e-17, 4.529167e-18, 2.269517e-17, 9.898856e-03, 3.959449e+08, 3.959449e+08, 6.091974e-07, 9.633497e-07, 3.009218e-09, 1.812959e-07, 3.291090e+01, 3.568536e-06, 1.370000e+00, 2.700000e+01,
1.000000e-13, 1.000000e-13, 7.716731e+10, 1.098771e-16, 1.405788e-16, 2.026257e-17, 1.043911e-17, 2.162344e-19, 1.461817e-16, 2.061959e-17, 1.207249e-18, 7.000682e-06, 1.000000e-13, 1.000000e-13, 9.377137e-03, 9.377137e-03, 0.000000e+00, 0.000000e+00, 2.598180e-11, 3.562087e-01, 6.467510e-02, 8.550583e-10, 7.767055e-11, 2.535763e-09, 5.863893e-17, 1.531089e-17, 2.396720e-17, 1.936083e-17, 7.431262e-20, 2.450756e-17, 4.428421e-18, 2.266918e-17, 1.025364e-02, 3.943586e+08, 3.943586e+08, 5.892929e-07, 9.224611e-07, 2.860179e-09, 1.704432e-07, 3.290989e+01, 3.711325e-06, 1.370000e+00, 2.700000e+01,
1.000000e-13, 1.000000e-13, 7.716731e+10, 1.098771e-16, 1.405788e-16, 2.026257e-17, 1.043911e-17, 2.162344e-19, 1.461817e-16, 2.061959e-17, 1.207249e-18, 7.000682e-06, 1.000000e-13, 1.000000e-13, 9.670106e-03, 9.670106e-03, 0.000000e+00, 0.000000e+00, 2.698148e-11, 3.562081e-01, 6.467516e-02, 8.879307e-10, 8.064763e-11, 2.545778e-09, 5.862721e-17, 1.539900e-17, 2.387182e-17, 1.935639e-17, 7.347624e-20, 2.440134e-17, 4.331802e-18, 2.264452e-17, 1.060622e-02, 3.928073e+08, 3.928073e+08, 5.707247e-07, 8.847483e-07, 2.723210e-09, 1.605472e-07, 3.290889e+01, 3.854123e-06, 1.370000e+00, 2.700000e+01,
1.000000e-13, 1.000000e-13, 7.716731e+10, 1.098771e-16, 1.405788e-16, 2.026257e-17, 1.043911e-17, 2.162344e-19, 1.461817e-16, 2.061959e-17, 1.207249e-18, 7.000682e-06, 1.000000e-13, 1.000000e-13, 9.959467e-03, 9.959467e-03, 0.000000e+00, 0.000000e+00, 2.798124e-11, 3.562074e-01, 6.467521e-02, 9.208036e-10, 8.362425e-11, 2.555650e-09, 5.861581e-17, 1.548362e-17, 2.378021e-17, 1.935198e-17, 7.266637e-20, 2.429931e-17, 4.239072e-18, 2.262109e-17, 1.095667e-02, 3.912898e+08, 3.912898e+08, 5.533572e-07, 8.498626e-07, 2.596968e-09, 1.514969e-07, 3.290789e+01, 3.996931e-06, 1.370000e+00, 2.700000e+01,
1.000000e-13, 1.000000e-13, 7.716731e+10, 1.098771e-16, 1.405788e-16, 2.026257e-17, 1.043911e-17, 2.162344e-19, 1.461817e-16, 2.061959e-17, 1.207249e-18, 7.000682e-06, 1.000000e-13, 1.000000e-13, 1.024532e-02, 1.024532e-02, 0.000000e+00, 0.000000e+00, 2.898107e-11, 3.562068e-01, 6.467527e-02, 9.536775e-10, 8.660044e-11, 2.565385e-09, 5.860471e-17, 1.556495e-17, 2.369215e-17, 1.934762e-17, 7.188177e-20, 2.420123e-17, 4.150008e-18, 2.259883e-17, 1.130506e-02, 3.898050e+08, 3.898050e+08, 5.370729e-07, 8.175040e-07, 2.480300e-09, 1.431972e-07, 3.290691e+01, 4.139750e-06, 1.370000e+00, 2.700000e+01,
1.000000e-13, 1.000000e-13, 7.716731e+10, 1.098771e-16, 1.405788e-16, 2.026257e-17, 1.043911e-17, 2.162344e-19, 1.461817e-16, 2.061959e-17, 1.207249e-18, 7.000682e-06, 1.000000e-13, 1.000000e-13, 1.052777e-02, 1.052777e-02, 0.000000e+00, 0.000000e+00, 2.998101e-11, 3.562062e-01, 6.467533e-02, 9.865529e-10, 8.957625e-11, 2.574985e-09, 5.859391e-17, 1.564318e-17, 2.360744e-17, 1.934329e-17, 7.112124e-20, 2.410690e-17, 4.064404e-18, 2.257768e-17, 1.165147e-02, 3.883518e+08, 3.883518e+08, 5.217696e-07, 7.874132e-07, 2.372210e-09, 1.355660e-07, 3.290593e+01, 4.282584e-06, 1.370000e+00, 2.700000e+01,
1.000000e-13, 1.000000e-13, 7.716731e+10, 1.098771e-16, 1.405788e-16, 2.026257e-17, 1.043911e-17, 2.162344e-19, 1.461817e-16, 2.061959e-17, 1.207249e-18, 7.000682e-06, 1.000000e-13, 1.000000e-13, 1.080690e-02, 1.080690e-02, 0.000000e+00, 0.000000e+00, 3.098105e-11, 3.562056e-01, 6.467539e-02, 1.019430e-09, 9.255174e-11, 2.584452e-09, 5.858338e-17, 1.571847e-17, 2.352591e-17, 1.933900e-17, 7.038369e-20, 2.401610e-17, 3.982068e-18, 2.255756e-17, 1.199595e-02, 3.869292e+08, 3.869292e+08, 5.073576e-07, 7.593645e-07, 2.271831e-09, 1.285324e-07, 3.290496e+01, 4.425433e-06, 1.370000e+00, 2.700000e+01,
1.000000e-13, 1.000000e-13, 7.716731e+10, 1.098771e-16, 1.405788e-16, 2.026257e-17, 1.043911e-17, 2.162344e-19, 1.461817e-16, 2.061959e-17, 1.207249e-18, 7.000682e-06, 1.000000e-13, 1.000000e-13, 1.108281e-02, 1.108281e-02, 0.000000e+00, 0.000000e+00, 3.198121e-11, 3.562049e-01, 6.467544e-02, 1.052310e-09, 9.552697e-11, 2.593791e-09, 5.857313e-17, 1.579099e-17, 2.344738e-17, 1.933476e-17, 6.966807e-20, 2.392864e-17, 3.902824e-18, 2.253841e-17, 1.233857e-02, 3.855360e+08, 3.855360e+08, 4.937584e-07, 7.331610e-07, 2.178406e-09, 1.220349e-07, 3.290400e+01, 4.568300e-06, 1.370000e+00, 2.700000e+01,
