L_u, W_u, ft_u, cgs_u, cgg_u, cgd_u, cgb_u, cdb_u, css_u, cdd_u, cds_u, id_u, L, W, VGS, VDS, VSB, type, ids, vth, vdsat, gm, gmb, gds, cgg, cgs, cgd, cgb, cdb, cdd, cds, css, va, ro, rds, kcgs, kcgd, kcdb, kcds, kgm, ic, n, T
1.000000e-13, 1.000000e-13, 7.716731e+10, 1.098771e-16, 1.405788e-16, 2.026257e-17, 1.043911e-17, 2.162344e-19, 1.461817e-16, 2.061959e-17, 1.207249e-18, 7.000682e-06, 2.000000e-13, 2.000000e-13, 1.799867e-03, 1.799867e-03, 0.000000e+00, 0.000000e+00, 9.962544e-13, 3.938924e-01, 5.505938e-02, 3.241561e-11, 3.304916e-12, 5.432934e-10, 1.636757e-16, 1.844301e-17, 6.198450e-17, 8.324818e-17, 3.402040e-19, 7.064540e-17, 2.864535e-17, 5.333683e-17, 1.840522e-03, 1.840626e+09, 1.840626e+09, 1.851235e-05, 6.221754e-05, 3.414831e-07, 2.875305e-05, 3.253748e+01, 1.423082e-07, 1.370000e+00, 2.700000e+01,
1.000000e-13, 1.000000e-13, 7.716731e+10, 1.098771e-16, 1.405788e-16, 2.026257e-17, 1.043911e-17, 2.162344e-19, 1.461817e-16, 2.061959e-17, 1.207249e-18, 7.000682e-06, 2.000000e-13, 2.000000e-13, 3.470567e-03, 3.470567e-03, 0.000000e+00, 0.000000e+00, 1.993652e-12, 3.938923e-01, 5.505944e-02, 6.486400e-11, 6.607109e-12, 5.537496e-10, 1.633409e-16, 2.148290e-17, 5.872912e-17, 8.312884e-17, 3.111253e-19, 6.619295e-17, 2.449493e-17, 5.203808e-17, 3.613127e-03, 1.805871e+09, 1.805871e+09, 1.077565e-05, 2.945806e-05, 1.560580e-07, 1.228646e-05, 3.253527e+01, 2.847797e-07, 1.370000e+00, 2.700000e+01,
1.000000e-13, 1.000000e-13, 7.716731e+10, 1.098771e-16, 1.405788e-16, 2.026257e-17, 1.043911e-17, 2.162344e-19, 1.461817e-16, 2.061959e-17, 1.207249e-18, 7.000682e-06, 2.000000e-13, 2.000000e-13, 5.027851e-03, 5.027851e-03, 0.000000e+00, 0.000000e+00, 2.989344e-12, 3.938922e-01, 5.505949e-02, 9.725280e-11, 9.897779e-12, 5.631877e-10, 1.630534e-16, 2.381338e-17, 5.622426e-17, 8.301572e-17, 2.874458e-19, 6.276701e-17, 2.131505e-17, 5.105894e-17, 5.326210e-03, 1.775607e+09, 1.775607e+09, 7.966091e-06, 1.880823e-05, 9.615682e-08, 7.130346e-06, 3.253316e+01, 4.270075e-07, 1.370000e+00, 2.700000e+01,
1.000000e-13, 1.000000e-13, 7.716731e+10, 1.098771e-16, 1.405788e-16, 2.026257e-17, 1.043911e-17, 2.162344e-19, 1.461817e-16, 2.061959e-17, 1.207249e-18, 7.000682e-06, 2.000000e-13, 2.000000e-13, 6.492154e-03, 6.492154e-03, 0.000000e+00, 0.000000e+00, 3.986242e-12, 3.938921e-01, 5.505954e-02, 1.296770e-10, 1.318706e-11, 5.717554e-10, 1.628017e-16, 2.565283e-17, 5.424083e-17, 8.290801e-17, 2.677464e-19, 6.005422e-17, 1.880706e-17, 5.030062e-17, 6.995232e-03, 1.749000e+09, 1.749000e+09, 6.435341e-06, 1.360701e-05, 6.716763e-08, 4.717992e-06, 3.253114e+01, 5.694077e-07, 1.370000e+00, 2.700000e+01,
1.000000e-13, 1.000000e-13, 7.716731e+10, 1.098771e-16, 1.405788e-16, 2.026257e-17, 1.043911e-17, 2.162344e-19, 1.461817e-16, 2.061959e-17, 1.207249e-18, 7.000682e-06, 2.000000e-13, 2.000000e-13, 7.874287e-03, 7.874287e-03, 0.000000e+00, 0.000000e+00, 4.983330e-12, 3.938921e-01, 5.505960e-02, 1.621037e-10, 1.647201e-11, 5.795390e-10, 1.625786e-16, 2.713487e-17, 5.263830e-17, 8.280538e-17, 2.511202e-19, 5.786242e-17, 1.678815e-17, 4.970251e-17, 8.626667e-03, 1.725509e+09, 1.725509e+09, 5.445129e-06, 1.056288e-05, 5.039204e-08, 3.368862e-06, 3.252920e+01, 7.118350e-07, 1.370000e+00, 2.700000e+01,
1.000000e-13, 1.000000e-13, 7.716731e+10, 1.098771e-16, 1.405788e-16, 2.026257e-17, 1.043911e-17, 2.162344e-19, 1.461817e-16, 2.061959e-17, 1.207249e-18, 7.000682e-06, 2.000000e-13, 2.000000e-13, 9.184296e-03, 9.184296e-03, 0.000000e+00, 0.000000e+00, 5.980617e-12, 3.938920e-01, 5.505965e-02, 1.945335e-10, 1.975301e-11, 5.866185e-10, 1.623785e-16, 2.835107e-17, 5.132007e-17, 8.270739e-17, 2.368999e-19, 5.605944e-17, 1.513310e-17, 4.922320e-17, 1.022721e-02, 1.704685e+09, 1.704685e+09, 4.740493e-06, 8.581066e-06, 3.961127e-08, 2.530357e-06, 3.252732e+01, 8.542907e-07, 1.370000e+00, 2.700000e+01,
1.000000e-13, 1.000000e-13, 7.716731e+10, 1.098771e-16, 1.405788e-16, 2.026257e-17, 1.043911e-17, 2.162344e-19, 1.461817e-16, 2.061959e-17, 1.207249e-18, 7.000682e-06, 2.000000e-13, 2.000000e-13, 1.043045e-02, 1.043045e-02, 0.000000e+00, 0.000000e+00, 6.978147e-12, 3.938919e-01, 5.505970e-02, 2.269678e-10, 2.303051e-11, 5.930613e-10, 1.621975e-16, 2.936492e-17, 5.021893e-17, 8.261365e-17, 2.245969e-19, 5.455339e-17, 1.375505e-17, 4.883402e-17, 1.180243e-02, 1.686166e+09, 1.686166e+09, 4.208126e-06, 7.196600e-06, 3.218575e-08, 1.971161e-06, 3.252551e+01, 9.967811e-07, 1.370000e+00, 2.700000e+01,
1.000000e-13, 1.000000e-13, 7.716731e+10, 1.098771e-16, 1.405788e-16, 2.026257e-17, 1.043911e-17, 2.162344e-19, 1.461817e-16, 2.061959e-17, 1.207249e-18, 7.000682e-06, 2.000000e-13, 2.000000e-13, 1.161968e-02, 1.161968e-02, 0.000000e+00, 0.000000e+00, 7.976008e-12, 3.938919e-01, 5.505975e-02, 2.594097e-10, 2.630505e-11, 5.989250e-10, 1.620323e-16, 3.022166e-17, 4.928686e-17, 8.252380e-17, 2.138455e-19, 5.327857e-17, 1.259212e-17, 4.851458e-17, 1.335706e-02, 1.669658e+09, 1.669658e+09, 3.789071e-06, 6.179389e-06, 2.681109e-08, 1.578749e-06, 3.252375e+01, 1.139319e-06, 1.370000e+00, 2.700000e+01,
1.000000e-13, 1.000000e-13, 7.716731e+10, 1.098771e-16, 1.405788e-16, 2.026257e-17, 1.043911e-17, 2.162344e-19, 1.461817e-16, 2.061959e-17, 1.207249e-18, 7.000682e-06, 2.000000e-13, 2.000000e-13, 1.275787e-02, 1.275787e-02, 0.000000e+00, 0.000000e+00, 8.974350e-12, 3.938918e-01, 5.505980e-02, 2.918641e-10, 2.957734e-11, 6.042596e-10, 1.618805e-16, 3.095433e-17, 4.848869e-17, 8.243750e-17, 2.043664e-19, 5.218689e-17, 1.159911e-17, 4.825001e-17, 1.489519e-02, 1.654918e+09, 1.654918e+09, 3.449200e-06, 5.403030e-06, 2.277228e-08, 1.292473e-06, 3.252203e+01, 1.281925e-06, 1.370000e+00, 2.700000e+01,
1.000000e-13, 1.000000e-13, 7.716731e+10, 1.098771e-16, 1.405788e-16, 2.026257e-17, 1.043911e-17, 2.162344e-19, 1.461817e-16, 2.061959e-17, 1.207249e-18, 7.000682e-06, 2.000000e-13, 2.000000e-13, 1.385008e-02, 1.385008e-02, 0.000000e+00, 0.000000e+00, 9.973396e-12, 3.938918e-01, 5.505985e-02, 3.243385e-10, 3.284832e-11, 6.091089e-10, 1.617402e-16, 3.158754e-17, 4.779816e-17, 8.235446e-17, 1.959430e-19, 5.124244e-17, 1.074235e-17, 4.802926e-17, 1.642048e-02, 1.641743e+09, 1.641743e+09, 3.167180e-06, 4.792566e-06, 1.964657e-08, 1.077101e-06, 3.252037e+01, 1.424632e-06, 1.370000e+00, 2.700000e+01,
1.000000e-13, 1.000000e-13, 7.716731e+10, 1.098771e-16, 1.405788e-16, 2.026257e-17, 1.043911e-17, 2.162344e-19, 1.461817e-16, 2.061959e-17, 1.207249e-18, 7.000682e-06, 2.000000e-13, 2.000000e-13, 1.490076e-02, 1.490076e-02, 0.000000e+00, 0.000000e+00, 1.097345e-11, 3.938917e-01, 5.505990e-02, 3.568428e-10, 3.611917e-11, 6.135114e-10, 1.616097e-16, 3.213998e-17, 4.719528e-17, 8.227441e-17, 1.884047e-19, 5.041788e-17, 9.996276e-18, 4.784398e-17, 1.793623e-02, 1.629962e+09, 1.629962e+09, 2.928885e-06, 4.300861e-06, 1.716914e-08, 9.109510e-07, 3.251874e+01, 1.567483e-06, 1.370000e+00, 2.700000e+01,
1.000000e-13, 1.000000e-13, 7.716731e+10, 1.098771e-16, 1.405788e-16, 2.026257e-17, 1.043911e-17, 2.162344e-19, 1.461817e-16, 2.061959e-17, 1.207249e-18, 7.000682e-06, 2.000000e-13, 2.000000e-13, 1.591383e-02, 1.591383e-02, 0.000000e+00, 0.000000e+00, 1.197492e-11, 3.938917e-01, 5.505995e-02, 3.893903e-10, 3.939134e-11, 6.175016e-10, 1.614878e-16, 3.262607e-17, 4.666460e-17, 8.219710e-17, 1.816148e-19, 4.969206e-17, 9.341157e-18, 4.768774e-17, 1.944552e-02, 1.619429e+09, 1.619429e+09, 2.724533e-06, 3.896861e-06, 1.516627e-08, 7.800600e-07, 3.251715e+01, 1.710536e-06, 1.370000e+00, 2.700000e+01,
1.000000e-13, 1.000000e-13, 7.716731e+10, 1.098771e-16, 1.405788e-16, 2.026257e-17, 1.043911e-17, 2.162344e-19, 1.461817e-16, 2.061959e-17, 1.207249e-18, 7.000682e-06, 2.000000e-13, 2.000000e-13, 1.689283e-02, 1.689283e-02, 0.000000e+00, 0.000000e+00, 1.297832e-11, 3.938916e-01, 5.506000e-02, 4.219976e-10, 4.266666e-11, 6.211102e-10, 1.613734e-16, 3.305710e-17, 4.619398e-17, 8.212230e-17, 1.754632e-19, 4.904838e-17, 8.761546e-18, 4.755550e-17, 2.095129e-02, 1.610020e+09, 1.610020e+09, 2.547102e-06, 3.559320e-06, 1.351972e-08, 6.750911e-07, 3.251559e+01, 1.853865e-06, 1.370000e+00, 2.700000e+01,
1.000000e-13, 1.000000e-13, 7.716731e+10, 1.098771e-16, 1.405788e-16, 2.026257e-17, 1.043911e-17, 2.162344e-19, 1.461817e-16, 2.061959e-17, 1.207249e-18, 7.000682e-06, 2.000000e-13, 2.000000e-13, 1.782044e-02, 1.782044e-02, 0.000000e+00, 0.000000e+00, 1.396216e-11, 3.938916e-01, 5.506005e-02, 4.539670e-10, 4.587521e-11, 6.242967e-10, 1.612679e-16, 3.343403e-17, 4.578252e-17, 8.205135e-17, 1.699773e-19, 4.848562e-17, 8.255918e-18, 4.744560e-17, 2.242334e-02, 1.601802e+09, 1.601802e+09, 2.394618e-06, 3.279043e-06, 1.217414e-08, 5.913067e-07, 3.251409e+01, 1.994400e-06, 1.370000e+00, 2.700000e+01,
1.000000e-13, 1.000000e-13, 7.716731e+10, 1.098771e-16, 1.405788e-16, 2.026257e-17, 1.043911e-17, 2.162344e-19, 1.461817e-16, 2.061959e-17, 1.207249e-18, 7.000682e-06, 2.000000e-13, 2.000000e-13, 1.873120e-02, 1.873120e-02, 0.000000e+00, 0.000000e+00, 1.496023e-11, 3.938915e-01, 5.506010e-02, 4.863960e-10, 4.912729e-11, 6.271980e-10, 1.611669e-16, 3.377724e-17, 4.540806e-17, 8.198165e-17, 1.648914e-19, 4.797346e-17, 7.796740e-18, 4.735096e-17, 2.391393e-02, 1.594393e+09, 1.594393e+09, 2.257802e-06, 3.035252e-06, 1.102199e-08, 5.211645e-07, 3.251261e+01, 2.136967e-06, 1.370000e+00, 2.700000e+01,
1.000000e-13, 1.000000e-13, 7.716731e+10, 1.098771e-16, 1.405788e-16, 2.026257e-17, 1.043911e-17, 2.162344e-19, 1.461817e-16, 2.061959e-17, 1.207249e-18, 7.000682e-06, 2.000000e-13, 2.000000e-13, 1.961370e-02, 1.961370e-02, 0.000000e+00, 0.000000e+00, 1.595837e-11, 3.938915e-01, 5.506015e-02, 5.188248e-10, 5.237684e-11, 6.297880e-10, 1.610714e-16, 3.408674e-17, 4.507063e-17, 8.191408e-17, 1.602276e-19, 4.751195e-17, 7.383813e-18, 4.727072e-17, 2.540336e-02, 1.587836e+09, 1.587836e+09, 2.135980e-06, 2.824264e-06, 1.004035e-08, 4.626923e-07, 3.251115e+01, 2.279544e-06, 1.370000e+00, 2.700000e+01,
1.000000e-13, 1.000000e-13, 7.716731e+10, 1.098771e-16, 1.405788e-16, 2.026257e-17, 1.043911e-17, 2.162344e-19, 1.461817e-16, 2.061959e-17, 1.207249e-18, 7.000682e-06, 2.000000e-13, 2.000000e-13, 2.046986e-02, 2.046986e-02, 0.000000e+00, 0.000000e+00, 1.695657e-11, 3.938915e-01, 5.506020e-02, 5.512534e-10, 5.562396e-11, 6.320874e-10, 1.609809e-16, 3.436728e-17, 4.476511e-17, 8.184850e-17, 1.559347e-19, 4.709409e-17, 7.010670e-18, 4.720281e-17, 2.689297e-02, 1.582060e+09, 1.582060e+09, 2.026782e-06, 2.639986e-06, 9.196120e-09, 4.134485e-07, 3.250972e+01, 2.422132e-06, 1.370000e+00, 2.700000e+01,
1.000000e-13, 1.000000e-13, 7.716731e+10, 1.098771e-16, 1.405788e-16, 2.026257e-17, 1.043911e-17, 2.162344e-19, 1.461817e-16, 2.061959e-17, 1.207249e-18, 7.000682e-06, 2.000000e-13, 2.000000e-13, 2.130141e-02, 2.130141e-02, 0.000000e+00, 0.000000e+00, 1.795486e-11, 3.938914e-01, 5.506025e-02, 5.836821e-10, 5.886876e-11, 6.341149e-10, 1.608948e-16, 3.462275e-17, 4.448727e-17, 8.178480e-17, 1.519696e-19, 4.671409e-17, 6.671976e-18, 4.714550e-17, 2.838400e-02, 1.577001e+09, 1.577001e+09, 1.928322e-06, 2.477729e-06, 8.463980e-09, 3.715972e-07, 3.250831e+01, 2.564730e-06, 1.370000e+00, 2.700000e+01,
1.000000e-13, 1.000000e-13, 7.716731e+10, 1.098771e-16, 1.405788e-16, 2.026257e-17, 1.043911e-17, 2.162344e-19, 1.461817e-16, 2.061959e-17, 1.207249e-18, 7.000682e-06, 2.000000e-13, 2.000000e-13, 2.210992e-02, 2.210992e-02, 0.000000e+00, 0.000000e+00, 1.895324e-11, 3.938914e-01, 5.506030e-02, 6.161114e-10, 6.211137e-11, 6.358880e-10, 1.608128e-16, 3.485638e-17, 4.423359e-17, 8.172287e-17, 1.482956e-19, 4.636712e-17, 6.363288e-18, 4.709737e-17, 2.987754e-02, 1.572604e+09, 1.572604e+09, 1.839073e-06, 2.333827e-06, 7.824291e-09, 3.357362e-07, 3.250692e+01, 2.707342e-06, 1.370000e+00, 2.700000e+01,
1.000000e-13, 1.000000e-13, 7.716731e+10, 1.098771e-16, 1.405788e-16, 2.026257e-17, 1.043911e-17, 2.162344e-19, 1.461817e-16, 2.061959e-17, 1.207249e-18, 7.000682e-06, 2.000000e-13, 2.000000e-13, 2.289680e-02, 2.289680e-02, 0.000000e+00, 0.000000e+00, 1.995173e-11, 3.938913e-01, 5.506035e-02, 6.485421e-10, 6.535194e-11, 6.374227e-10, 1.607346e-16, 3.507091e-17, 4.400110e-17, 8.166259e-17, 1.448815e-19, 4.604915e-17, 6.080882e-18, 4.705723e-17, 3.137461e-02, 1.568818e+09, 1.568818e+09, 1.757788e-06, 2.205378e-06, 7.261601e-09, 3.047797e-07, 3.250556e+01, 2.849969e-06, 1.370000e+00, 2.700000e+01,
1.000000e-13, 1.000000e-13, 7.716731e+10, 1.098771e-16, 1.405788e-16, 2.026257e-17, 1.043911e-17, 2.162344e-19, 1.461817e-16, 2.061959e-17, 1.207249e-18, 7.000682e-06, 2.000000e-13, 2.000000e-13, 2.366334e-02, 2.366334e-02, 0.000000e+00, 0.000000e+00, 2.095036e-11, 3.938913e-01, 5.506039e-02, 6.809752e-10, 6.859066e-11, 6.387339e-10, 1.606598e-16, 3.526863e-17, 4.378729e-17, 8.160388e-17, 1.417001e-19, 4.575673e-17, 5.821612e-18, 4.702406e-17, 3.287615e-02, 1.565597e+09, 1.565597e+09, 1.683438e-06, 2.090050e-06, 6.763610e-09, 2.778765e-07, 3.250422e+01, 2.992617e-06, 1.370000e+00, 2.700000e+01,
1.000000e-13, 1.000000e-13, 7.716731e+10, 1.098771e-16, 1.405788e-16, 2.026257e-17, 1.043911e-17, 2.162344e-19, 1.461817e-16, 2.061959e-17, 1.207249e-18, 7.000682e-06, 2.000000e-13, 2.000000e-13, 2.441073e-02, 2.441073e-02, 0.000000e+00, 0.000000e+00, 2.194919e-11, 3.938913e-01, 5.506044e-02, 7.134123e-10, 7.182774e-11, 6.398355e-10, 1.605882e-16, 3.545148e-17, 4.359005e-17, 8.154665e-17, 1.387280e-19, 4.548696e-17, 5.582805e-18, 4.699703e-17, 3.438304e-02, 1.562902e+09, 1.562902e+09, 1.615162e-06, 1.985953e-06, 6.320417e-09, 2.543513e-07, 3.250290e+01, 3.135293e-06, 1.370000e+00, 2.700000e+01,
1.000000e-13, 1.000000e-13, 7.716731e+10, 1.098771e-16, 1.405788e-16, 2.026257e-17, 1.043911e-17, 2.162344e-19, 1.461817e-16, 2.061959e-17, 1.207249e-18, 7.000682e-06, 2.000000e-13, 2.000000e-13, 2.514005e-02, 2.514005e-02, 0.000000e+00, 0.000000e+00, 2.294827e-11, 3.938912e-01, 5.506049e-02, 7.458556e-10, 7.506347e-11, 6.407404e-10, 1.605195e-16, 3.562115e-17, 4.340753e-17, 8.149082e-17, 1.359449e-19, 4.523732e-17, 5.362170e-18, 4.697541e-17, 3.589611e-02, 1.560695e+09, 1.560695e+09, 1.552237e-06, 1.891538e-06, 5.923970e-09, 2.336633e-07, 3.250160e+01, 3.278006e-06, 1.370000e+00, 2.700000e+01,
1.000000e-13, 1.000000e-13, 7.716731e+10, 1.098771e-16, 1.405788e-16, 2.026257e-17, 1.043911e-17, 2.162344e-19, 1.461817e-16, 2.061959e-17, 1.207249e-18, 7.000682e-06, 2.000000e-13, 2.000000e-13, 2.585235e-02, 2.585235e-02, 0.000000e+00, 0.000000e+00, 2.394771e-11, 3.938912e-01, 5.506054e-02, 7.783082e-10, 7.829821e-11, 6.414606e-10, 1.604535e-16, 3.577907e-17, 4.323815e-17, 8.143632e-17, 1.333328e-19, 4.500568e-17, 5.157741e-18, 4.695858e-17, 3.741618e-02, 1.558942e+09, 1.558942e+09, 1.494049e-06, 1.805523e-06, 5.567663e-09, 2.153751e-07, 3.250031e+01, 3.420769e-06, 1.370000e+00, 2.700000e+01,
1.000000e-13, 1.000000e-13, 7.716731e+10, 1.098771e-16, 1.405788e-16, 2.026257e-17, 1.043911e-17, 2.162344e-19, 1.461817e-16, 2.061959e-17, 1.207249e-18, 7.000682e-06, 2.000000e-13, 2.000000e-13, 2.654856e-02, 2.654856e-02, 0.000000e+00, 0.000000e+00, 2.494763e-11, 3.938912e-01, 5.506059e-02, 8.107743e-10, 8.153243e-11, 6.420074e-10, 1.603901e-16, 3.592648e-17, 4.308057e-17, 8.138306e-17, 1.308760e-19, 4.479015e-17, 4.967810e-18, 4.694601e-17, 3.894405e-02, 1.557614e+09, 1.557614e+09, 1.440076e-06, 1.726840e-06, 5.246029e-09, 1.991295e-07, 3.249905e+01, 3.563601e-06, 1.370000e+00, 2.700000e+01,
1.000000e-13, 1.000000e-13, 7.716731e+10, 1.098771e-16, 1.405788e-16, 2.026257e-17, 1.043911e-17, 2.162344e-19, 1.461817e-16, 2.061959e-17, 1.207249e-18, 7.000682e-06, 2.000000e-13, 2.000000e-13, 2.722960e-02, 2.722960e-02, 0.000000e+00, 0.000000e+00, 2.594820e-11, 3.938911e-01, 5.506064e-02, 8.432592e-10, 8.476673e-11, 6.423914e-10, 1.603290e-16, 3.606447e-17, 4.293357e-17, 8.133099e-17, 1.285605e-19, 4.458911e-17, 4.790894e-18, 4.693724e-17, 4.048054e-02, 1.556683e+09, 1.556683e+09, 1.389864e-06, 1.654588e-06, 4.954507e-09, 1.846330e-07, 3.249779e+01, 3.706525e-06, 1.370000e+00, 2.700000e+01,
1.000000e-13, 1.000000e-13, 7.716731e+10, 1.098771e-16, 1.405788e-16, 2.026257e-17, 1.043911e-17, 2.162344e-19, 1.461817e-16, 2.061959e-17, 1.207249e-18, 7.000682e-06, 2.000000e-13, 2.000000e-13, 2.789635e-02, 2.789635e-02, 0.000000e+00, 0.000000e+00, 2.694963e-11, 3.938911e-01, 5.506069e-02, 8.757703e-10, 8.800186e-11, 6.426222e-10, 1.602701e-16, 3.619399e-17, 4.279613e-17, 8.128003e-17, 1.263740e-19, 4.440113e-17, 4.625693e-18, 4.693187e-17, 4.202651e-02, 1.556124e+09, 1.556124e+09, 1.343023e-06, 1.588004e-06, 4.689266e-09, 1.716421e-07, 3.249656e+01, 3.849573e-06, 1.370000e+00, 2.700000e+01,
1.000000e-13, 1.000000e-13, 7.716731e+10, 1.098771e-16, 1.405788e-16, 2.026257e-17, 1.043911e-17, 2.162344e-19, 1.461817e-16, 2.061959e-17, 1.207249e-18, 7.000682e-06, 2.000000e-13, 2.000000e-13, 2.854964e-02, 2.854964e-02, 0.000000e+00, 0.000000e+00, 2.795222e-11, 3.938911e-01, 5.506074e-02, 9.083166e-10, 9.123877e-11, 6.427090e-10, 1.602133e-16, 3.631587e-17, 4.266731e-17, 8.123012e-17, 1.243052e-19, 4.422494e-17, 4.471064e-18, 4.692956e-17, 4.358288e-02, 1.555914e+09, 1.555914e+09, 1.299213e-06, 1.526437e-06, 4.447061e-09, 1.599538e-07, 3.249533e+01, 3.992785e-06, 1.370000e+00, 2.700000e+01,
1.000000e-13, 1.000000e-13, 7.716731e+10, 1.098771e-16, 1.405788e-16, 2.026257e-17, 1.043911e-17, 2.162344e-19, 1.461817e-16, 2.061959e-17, 1.207249e-18, 7.000682e-06, 2.000000e-13, 2.000000e-13, 2.919031e-02, 2.919031e-02, 0.000000e+00, 0.000000e+00, 2.895631e-11, 3.938910e-01, 5.506079e-02, 9.409098e-10, 9.447867e-11, 6.426604e-10, 1.601584e-16, 3.643086e-17, 4.254630e-17, 8.118120e-17, 1.223442e-19, 4.405944e-17, 4.325994e-18, 4.693001e-17, 4.515065e-02, 1.556032e+09, 1.556032e+09, 1.258132e-06, 1.469327e-06, 4.225132e-09, 1.493973e-07, 3.249412e+01, 4.136213e-06, 1.370000e+00, 2.700000e+01,
1.000000e-13, 1.000000e-13, 7.716731e+10, 1.098771e-16, 1.405788e-16, 2.026257e-17, 1.043911e-17, 2.162344e-19, 1.461817e-16, 2.061959e-17, 1.207249e-18, 7.000682e-06, 2.000000e-13, 2.000000e-13, 2.981918e-02, 2.981918e-02, 0.000000e+00, 0.000000e+00, 2.996235e-11, 3.938910e-01, 5.506084e-02, 9.735645e-10, 9.772305e-11, 6.424840e-10, 1.601052e-16, 3.653961e-17, 4.243237e-17, 8.113321e-17, 1.204819e-19, 4.390363e-17, 4.189584e-18, 4.693296e-17, 4.673095e-02, 1.556459e+09, 1.556459e+09, 1.219517e-06, 1.416189e-06, 4.021110e-09, 1.398283e-07, 3.249292e+01, 4.279920e-06, 1.370000e+00, 2.700000e+01,
1.000000e-13, 1.000000e-13, 7.716731e+10, 1.098771e-16, 1.405788e-16, 2.026257e-17, 1.043911e-17, 2.162344e-19, 1.461817e-16, 2.061959e-17, 1.207249e-18, 7.000682e-06, 2.000000e-13, 2.000000e-13, 3.043709e-02, 3.043709e-02, 0.000000e+00, 0.000000e+00, 3.097091e-11, 3.938910e-01, 5.506089e-02, 1.006299e-09, 1.009737e-10, 6.421871e-10, 1.600537e-16, 3.664272e-17, 4.232488e-17, 8.108608e-17, 1.187101e-19, 4.375662e-17, 4.061030e-18, 4.693818e-17, 4.832507e-02, 1.557179e+09, 1.557179e+09, 1.183133e-06, 1.366601e-06, 3.832953e-09, 1.311240e-07, 3.249173e+01, 4.423986e-06, 1.370000e+00, 2.700000e+01,
1.000000e-13, 1.000000e-13, 7.716731e+10, 1.098771e-16, 1.405788e-16, 2.026257e-17, 1.043911e-17, 2.162344e-19, 1.461817e-16, 2.061959e-17, 1.207249e-18, 7.000682e-06, 2.000000e-13, 2.000000e-13, 3.104487e-02, 3.104487e-02, 0.000000e+00, 0.000000e+00, 3.198266e-11, 3.938909e-01, 5.506093e-02, 1.039134e-09, 1.042329e-10, 6.417761e-10, 1.600037e-16, 3.674073e-17, 4.222323e-17, 8.103974e-17, 1.170211e-19, 4.361760e-17, 3.939606e-18, 4.694548e-17, 4.993446e-02, 1.558176e+09, 1.558176e+09, 1.148770e-06, 1.320191e-06, 3.658892e-09, 1.231794e-07, 3.249056e+01, 4.568507e-06, 1.370000e+00, 2.700000e+01,
