 isweep, gm, i_id, id, i_cgg, cgg, i_cgs, cgs, i_cgd, cgd, i_cds, cds, i_css, css, i_cdd, cdd, i_gds, gds, i_vth, vth, i_vdsat, vdsat, i_vgs, vgs, i_vds, vds, i_rds, rds, i_wt, wt, i_ft, ft, i_gm_id, gm_id, L, pdk
 1.00000000e-09, 2.15879487e-08, 1.00000000e-09, 9.99261232e-10, 1.00000000e-09, 2.19681367e-15, 1.00000000e-09 -8.94906302e-16, 1.00000000e-09 -1.54537035e-19, 1.00000000e-09, 4.50412758e-16, 1.00000000e-09, 6.75001242e-16, 1.00000000e-09, 1.70557085e-19, 1.00000000e-09, 2.96590230e-11, 1.00000000e-09, 1.00590017e+00, 1.00000000e-09, 4.23191682e-02, 1.00000000e-09, 7.39804086e-01, 1.00000000e-09, 7.39804086e-01, 1.00000000e-09, 3.37165523e+10, 1.00000000e-09, 9.82693663e+06, 1.00000000e-09, 1.56400554e+06, 1.00000000e-09, 2.16039090e+01 , 1.000, SKY130
 1.50000000e-09, 3.10095899e-08, 1.50000000e-09, 1.50353318e-09, 1.50000000e-09, 2.28704856e-15, 1.50000000e-09 -1.02486662e-15, 1.50000000e-09 -1.67263169e-19, 1.50000000e-09, 5.13036815e-16, 1.50000000e-09, 7.68875317e-16, 1.50000000e-09, 1.84641697e-19, 1.50000000e-09, 4.37159079e-11, 1.50000000e-09, 1.00590017e+00, 1.50000000e-09, 4.25517150e-02, 1.50000000e-09, 7.59139587e-01, 1.50000000e-09, 7.59139586e-01, 1.50000000e-09, 2.28749681e+10, 1.50000000e-09, 1.35587807e+07, 1.50000000e-09, 2.15794697e+06, 1.50000000e-09, 2.06244800e+01 , 1.000, SKY130
 2.00000000e-09, 4.02087525e-08, 2.00000000e-09, 2.00918077e-09, 2.00000000e-09, 2.36105402e-15, 2.00000000e-09 -1.12947152e-15, 2.00000000e-09 -1.77383113e-19, 2.00000000e-09, 5.63160881e-16, 2.00000000e-09, 8.44013046e-16, 2.00000000e-09, 1.95842129e-19, 2.00000000e-09, 5.75384417e-11, 2.00000000e-09, 1.00590017e+00, 2.00000000e-09, 4.27823016e-02, 2.00000000e-09, 7.73393252e-01, 2.00000000e-09, 7.73393251e-01, 2.00000000e-09, 1.73796851e+10, 2.00000000e-09, 1.70300011e+07, 2.00000000e-09, 2.71040885e+06, 2.00000000e-09, 2.00125111e+01 , 1.000, SKY130
 2.50000000e-09, 4.90828753e-08, 2.50000000e-09, 2.50376032e-09, 2.50000000e-09, 2.42308850e-15, 2.50000000e-09 -1.21609416e-15, 2.50000000e-09 -1.85711162e-19, 2.50000000e-09, 6.04493465e-16, 2.50000000e-09, 9.05972788e-16, 2.50000000e-09, 2.05059519e-19, 2.50000000e-09, 7.08562989e-11, 2.50000000e-09, 1.00590017e+00, 2.50000000e-09, 4.30054340e-02, 2.50000000e-09, 7.84490015e-01, 2.50000000e-09, 7.84490014e-01, 2.50000000e-09, 1.41130713e+10, 2.50000000e-09, 2.02563279e+07, 2.50000000e-09, 3.22389471e+06, 2.50000000e-09, 1.96036637e+01 , 1.000, SKY130
 3.00000000e-09, 5.79372050e-08, 3.00000000e-09, 3.00091241e-09, 3.00000000e-09, 2.47802401e-15, 3.00000000e-09 -1.29213620e-15, 3.00000000e-09 -1.92999395e-19, 3.00000000e-09, 6.40654932e-16, 3.00000000e-09, 9.60181264e-16, 3.00000000e-09, 2.13126189e-19, 3.00000000e-09, 8.40785947e-11, 3.00000000e-09, 1.00590017e+00, 3.00000000e-09, 4.32274174e-02, 3.00000000e-09, 7.93787972e-01, 3.00000000e-09, 7.93787971e-01, 3.00000000e-09, 1.18936336e+10, 3.00000000e-09, 2.33804050e+07, 3.00000000e-09, 3.72110702e+06, 3.00000000e-09, 1.93065298e+01 , 1.000, SKY130
 3.50000000e-09, 6.67949549e-08, 3.50000000e-09, 3.50020345e-09, 3.50000000e-09, 2.52746437e-15, 3.50000000e-09 -1.36011027e-15, 3.50000000e-09 -1.99506471e-19, 3.50000000e-09, 6.72887523e-16, 3.50000000e-09, 1.00850047e-15, 3.50000000e-09, 2.20328381e-19, 3.50000000e-09, 9.72159863e-11, 3.50000000e-09, 1.00590017e+00, 3.50000000e-09, 4.34481053e-02, 3.50000000e-09, 8.01795389e-01, 3.50000000e-09, 8.01795388e-01, 3.50000000e-09, 1.02863741e+10, 3.50000000e-09, 2.64276544e+07, 3.50000000e-09, 4.20609183e+06, 3.50000000e-09, 1.90831635e+01 , 1.000, SKY130
 4.00000000e-09, 7.56434975e-08, 4.00000000e-09, 3.99986126e-09, 4.00000000e-09, 2.57236358e-15, 4.00000000e-09 -1.42150626e-15, 4.00000000e-09 -2.05384052e-19, 4.00000000e-09, 7.01929114e-16, 4.00000000e-09, 1.05203640e-15, 4.00000000e-09, 2.26833926e-19, 4.00000000e-09, 1.10238509e-10, 4.00000000e-09, 1.00590017e+00, 4.00000000e-09, 4.36667710e-02, 4.00000000e-09, 8.08809917e-01, 4.00000000e-09, 8.08809916e-01, 4.00000000e-09, 9.07124021e+09, 4.00000000e-09, 2.94062231e+07, 4.00000000e-09, 4.68014577e+06, 4.00000000e-09, 1.89115303e+01 , 1.000, SKY130
 4.50000000e-09, 8.44903393e-08, 4.50000000e-09, 4.49964037e-09, 4.50000000e-09, 2.61352083e-15, 4.50000000e-09 -1.47753361e-15, 4.50000000e-09 -2.10752486e-19, 4.50000000e-09, 7.28373877e-16, 4.50000000e-09, 1.09167969e-15, 4.50000000e-09, 2.32776006e-19, 4.50000000e-09, 1.23152998e-10, 4.50000000e-09, 1.00590017e+00, 4.50000000e-09, 4.38833721e-02, 4.50000000e-09, 8.15049206e-01, 4.50000000e-09, 8.15049204e-01, 4.50000000e-09, 8.11998100e+09, 4.50000000e-09, 3.23281676e+07, 4.50000000e-09, 5.14518767e+06, 4.50000000e-09, 1.87771316e+01 , 1.000, SKY130
 5.00000000e-09, 9.33423959e-08, 5.00000000e-09, 4.99950238e-09, 5.00000000e-09, 2.65154086e-15, 5.00000000e-09 -1.52909488e-15, 5.00000000e-09 -2.15700411e-19, 5.00000000e-09, 7.52663756e-16, 5.00000000e-09, 1.12809278e-15, 5.00000000e-09, 2.38252709e-19, 5.00000000e-09, 1.35968906e-10, 5.00000000e-09, 1.00590017e+00, 5.00000000e-09, 4.40979545e-02, 5.00000000e-09, 8.20667413e-01, 5.00000000e-09, 8.20667412e-01, 5.00000000e-09, 7.35462267e+09, 5.00000000e-09, 3.52030766e+07, 5.00000000e-09, 5.60274365e+06, 5.00000000e-09, 1.86703373e+01 , 1.000, SKY130
 5.50000000e-09, 1.02203982e-07, 5.50000000e-09, 5.49941213e-09, 5.50000000e-09, 2.68688504e-15, 5.50000000e-09 -1.57687189e-15, 5.50000000e-09 -2.20294081e-19, 5.50000000e-09, 7.75131840e-16, 5.50000000e-09, 1.16177495e-15, 5.50000000e-09, 2.43337357e-19, 5.50000000e-09, 1.48693780e-10, 5.50000000e-09, 1.00590017e+00, 5.50000000e-09, 4.43105625e-02, 5.50000000e-09, 8.25776479e-01, 5.50000000e-09, 8.25776477e-01, 5.50000000e-09, 6.72523088e+09, 5.50000000e-09, 3.80380925e+07, 5.50000000e-09, 6.05395044e+06, 5.50000000e-09, 1.85845285e+01 , 1.000, SKY130
 6.00000000e-09, 1.11077971e-07, 6.00000000e-09, 5.99935017e-09, 6.00000000e-09, 2.71991582e-15, 6.00000000e-09 -1.62139564e-15, 6.00000000e-09 -2.24584628e-19, 6.00000000e-09, 7.96036973e-16, 6.00000000e-09, 1.19311422e-15, 6.00000000e-09, 2.48086532e-19, 6.00000000e-09, 1.61334112e-10, 6.00000000e-09, 1.00590017e+00, 6.00000000e-09, 4.45212441e-02, 6.00000000e-09, 8.30460474e-01, 6.00000000e-09, 8.30460472e-01, 6.00000000e-09, 6.19831718e+09, 6.00000000e-09, 4.08387531e+07, 6.00000000e-09, 6.49968943e+06, 6.00000000e-09, 1.85150004e+01 , 1.000, SKY130
 6.50000000e-09, 1.19966235e-07, 6.50000000e-09, 6.49930510e-09, 6.50000000e-09, 2.75092387e-15, 6.50000000e-09 -1.66308883e-15, 6.50000000e-09 -2.28612427e-19, 6.50000000e-09, 8.15584773e-16, 6.50000000e-09, 1.22241880e-15, 6.50000000e-09, 2.52544918e-19, 6.50000000e-09, 1.73895505e-10, 6.50000000e-09, 1.00590017e+00, 6.50000000e-09, 4.47300478e-02, 6.50000000e-09, 8.34784169e-01, 6.50000000e-09, 8.34784167e-01, 6.50000000e-09, 5.75057992e+09, 6.50000000e-09, 4.36094347e+07, 6.50000000e-09, 6.94065710e+06, 6.50000000e-09, 1.84583171e+01 , 1.000, SKY130
 7.00000000e-09, 1.28869990e-07, 7.00000000e-09, 6.99927271e-09, 7.00000000e-09, 2.78014650e-15, 7.00000000e-09 -1.70229433e-15, 7.00000000e-09 -2.32410005e-19, 7.00000000e-09, 8.33941717e-16, 7.00000000e-09, 1.24993822e-15, 7.00000000e-09, 2.56748512e-19, 7.00000000e-09, 1.86382894e-10, 7.00000000e-09, 1.00590017e+00, 7.00000000e-09, 4.49370230e-02, 7.00000000e-09, 8.38798562e-01, 7.00000000e-09, 8.38798560e-01, 7.00000000e-09, 5.36529925e+09, 7.00000000e-09, 4.63536689e+07, 7.00000000e-09, 7.37741554e+06, 7.00000000e-09, 1.84119116e+01 , 1.000, SKY130
 7.50000000e-09, 1.37789878e-07, 7.50000000e-09, 7.49924695e-09, 7.50000000e-09, 2.80778001e-15, 7.50000000e-09 -1.73929412e-15, 7.50000000e-09 -2.36003951e-19, 7.50000000e-09, 8.51244481e-16, 7.50000000e-09, 1.27587738e-15, 7.50000000e-09, 2.60726737e-19, 7.50000000e-09, 1.98800499e-10, 7.50000000e-09, 1.00590017e+00, 7.50000000e-09, 4.51422155e-02, 7.50000000e-09, 8.42544491e-01, 7.50000000e-09, 8.42544489e-01, 7.50000000e-09, 5.03016847e+09, 7.50000000e-09, 4.90743140e+07, 7.50000000e-09, 7.81041965e+06, 7.50000000e-09, 1.83738286e+01 , 1.000, SKY130
 8.00000000e-09, 1.46726266e-07, 8.00000000e-09, 7.99922801e-09, 8.00000000e-09, 2.83398928e-15, 8.00000000e-09 -1.77432384e-15, 8.00000000e-09 -2.39416366e-19, 8.00000000e-09, 8.67607073e-16, 8.00000000e-09, 1.30040716e-15, 8.00000000e-09, 2.64504051e-19, 8.00000000e-09, 2.11152160e-10, 8.00000000e-09, 1.00590017e+00, 8.00000000e-09, 4.53456717e-02, 8.00000000e-09, 8.46055229e-01, 8.00000000e-09, 8.46055226e-01, 8.00000000e-09, 4.73592125e+09, 8.00000000e-09, 5.17737546e+07, 8.00000000e-09, 8.24004897e+06, 8.00000000e-09, 1.83425532e+01 , 1.000, SKY130
 8.50000000e-09, 1.55679176e-07, 8.50000000e-09, 8.49921205e-09, 8.50000000e-09, 2.85891388e-15, 8.50000000e-09 -1.80758201e-15, 8.50000000e-09 -2.42665782e-19, 8.50000000e-09, 8.83125418e-16, 8.50000000e-09, 1.32367137e-15, 8.50000000e-09, 2.68100965e-19, 8.50000000e-09, 2.23441177e-10, 8.50000000e-09, 1.00590017e+00, 8.50000000e-09, 4.55474343e-02, 8.50000000e-09, 8.49358191e-01, 8.50000000e-09, 8.49358189e-01, 8.50000000e-09, 4.47545082e+09, 8.50000000e-09, 5.44539580e+07, 8.50000000e-09, 8.66661659e+06, 8.50000000e-09, 1.83168952e+01 , 1.000, SKY130
 9.00000000e-09, 1.64648500e-07, 9.00000000e-09, 8.99919885e-09, 9.00000000e-09, 2.88267342e-15, 9.00000000e-09 -1.83923812e-15, 9.00000000e-09 -2.45767958e-19, 9.00000000e-09, 8.97881277e-16, 9.00000000e-09, 1.34579256e-15, 9.00000000e-09, 2.71534918e-19, 9.00000000e-09, 2.35670580e-10, 9.00000000e-09, 1.00590017e+00, 9.00000000e-09, 4.57475454e-02, 9.00000000e-09, 8.52476286e-01, 9.00000000e-09, 8.52476283e-01, 9.00000000e-09, 4.24321101e+09, 9.00000000e-09, 5.71165984e+07, 9.00000000e-09, 9.09038896e+06, 9.00000000e-09, 1.82959064e+01 , 1.000, SKY130
 9.50000000e-09, 1.73633979e-07, 9.50000000e-09, 9.49918778e-09, 9.50000000e-09, 2.90537119e-15, 9.50000000e-09 -1.86943791e-15, 9.50000000e-09 -2.48736394e-19, 9.50000000e-09, 9.11944863e-16, 9.50000000e-09, 1.36687598e-15, 9.50000000e-09, 2.74820851e-19, 9.50000000e-09, 2.47843082e-10, 9.50000000e-09, 1.00590017e+00, 9.50000000e-09, 4.59460453e-02, 9.50000000e-09, 8.55428828e-01, 9.50000000e-09, 8.55428825e-01, 9.50000000e-09, 4.03481103e+09, 9.50000000e-09, 5.97630966e+07, 9.50000000e-09, 9.51159223e+06, 9.50000000e-09, 1.82788238e+01 , 1.000, SKY130
 1.00000000e-08, 1.82646301e-07, 1.00000000e-08, 9.99979129e-09, 1.00000000e-08, 2.92712311e-15, 1.00000000e-08 -1.89834236e-15, 1.00000000e-08 -2.51586177e-19, 1.00000000e-08, 9.25393074e-16, 1.00000000e-08, 1.38703691e-15, 1.00000000e-08, 2.77975462e-19, 1.00000000e-08, 2.59975966e-10, 1.00000000e-08, 1.00590017e+00, 1.00000000e-08, 4.61432130e-02, 1.00000000e-08, 8.58235614e-01, 1.00000000e-08, 8.58235611e-01, 1.00000000e-08, 3.84650941e+09, 1.00000000e-08, 6.23978884e+07, 1.00000000e-08, 9.93093238e+06, 1.00000000e-08, 1.82650113e+01 , 1.000, SKY130
 1.50000000e-08, 2.74581757e-07, 1.50000000e-08, 1.50633454e-08, 1.50000000e-08, 3.10644307e-15, 1.50000000e-08 -2.13539442e-15, 1.50000000e-08 -2.75333544e-19, 1.50000000e-08, 1.03525076e-15, 1.50000000e-08, 1.55173202e-15, 1.50000000e-08, 3.04263777e-19, 1.50000000e-08, 3.80060751e-10, 1.50000000e-08, 1.00590017e+00, 1.50000000e-08, 4.80566609e-02, 1.50000000e-08, 8.80669827e-01, 1.50000000e-08, 8.80669823e-01, 1.50000000e-08, 2.63115830e+09, 1.50000000e-08, 8.83910476e+07, 1.50000000e-08, 1.40678721e+07, 1.50000000e-08, 1.82284711e+01 , 1.000, SKY130
 2.00000000e-08, 3.68064256e-07, 2.00000000e-08, 2.01547859e-08, 2.00000000e-08, 3.23861807e-15, 2.00000000e-08 -2.30891404e-15, 2.00000000e-08 -2.93235321e-19, 2.00000000e-08, 1.11519499e-15, 2.00000000e-08, 1.67158361e-15, 2.00000000e-08, 3.24081955e-19, 2.00000000e-08, 4.96928171e-10, 2.00000000e-08, 1.00590017e+00, 2.00000000e-08, 4.98527196e-02, 2.00000000e-08, 8.96609752e-01, 2.00000000e-08, 8.96609746e-01, 2.00000000e-08, 2.01236327e+09, 2.00000000e-08, 1.13648553e+08, 2.00000000e-08, 1.80877289e+07, 2.00000000e-08, 1.82618788e+01 , 1.000, SKY130
 2.50000000e-08, 4.58877197e-07, 2.50000000e-08, 2.50712669e-08, 2.50000000e-08, 3.33926571e-15, 2.50000000e-08 -2.44046762e-15, 2.50000000e-08 -3.07167922e-19, 2.50000000e-08, 1.17555060e-15, 2.50000000e-08, 1.76206908e-15, 2.50000000e-08, 3.39506591e-19, 2.50000000e-08, 6.06936903e-10, 2.50000000e-08, 1.00590017e+00, 2.50000000e-08, 5.14866463e-02, 2.50000000e-08, 9.08533577e-01, 2.50000000e-08, 9.08533569e-01, 2.50000000e-08, 1.64761773e+09, 2.50000000e-08, 1.37418594e+08, 2.50000000e-08, 2.18708485e+07, 2.50000000e-08, 1.83029122e+01 , 1.000, SKY130
 3.00000000e-08, 5.50536503e-07, 3.00000000e-08, 3.00222071e-08, 3.00000000e-08, 3.42291351e-15, 3.00000000e-08 -2.54946592e-15, 3.00000000e-08 -3.18983437e-19, 3.00000000e-08, 1.22539606e-15, 3.00000000e-08, 1.83679831e-15, 3.00000000e-08, 3.52587784e-19, 3.00000000e-08, 7.15427737e-10, 3.00000000e-08, 1.00590017e+00, 3.00000000e-08, 5.30478269e-02, 3.00000000e-08, 9.18357458e-01, 3.00000000e-08, 9.18357450e-01, 3.00000000e-08, 1.39776521e+09, 3.00000000e-08, 1.60838567e+08, 3.00000000e-08, 2.55982529e+07, 3.00000000e-08, 1.83376425e+01 , 1.000, SKY130
 3.50000000e-08, 6.42885136e-07, 3.50000000e-08, 3.50119317e-08, 3.50000000e-08, 3.49443916e-15, 3.50000000e-08 -2.64244862e-15, 3.50000000e-08 -3.29279874e-19, 3.50000000e-08, 1.26780310e-15, 3.50000000e-08, 1.90037616e-15, 3.50000000e-08, 3.63987442e-19, 3.50000000e-08, 8.22821517e-10, 3.50000000e-08, 1.00590017e+00, 3.50000000e-08, 5.45476930e-02, 3.50000000e-08, 9.26725316e-01, 3.50000000e-08, 9.26725306e-01, 3.50000000e-08, 1.21533040e+09, 3.50000000e-08, 1.83973767e+08, 3.50000000e-08, 2.92803345e+07, 3.50000000e-08, 1.83618871e+01 , 1.000, SKY130
 4.00000000e-08, 7.35136578e-07, 4.00000000e-08, 4.00076388e-08, 4.00000000e-08, 3.55647922e-15, 4.00000000e-08 -2.72294829e-15, 4.00000000e-08 -3.38370479e-19, 4.00000000e-08, 1.30443256e-15, 4.00000000e-08, 1.95529243e-15, 4.00000000e-08, 3.74052271e-19, 4.00000000e-08, 9.28669098e-10, 4.00000000e-08, 1.00590017e+00, 4.00000000e-08, 5.59848846e-02, 4.00000000e-08, 9.33977258e-01, 4.00000000e-08, 9.33977247e-01, 4.00000000e-08, 1.07680982e+09, 4.00000000e-08, 2.06703465e+08, 4.00000000e-08, 3.28978782e+07, 4.00000000e-08, 1.83749054e+01 , 1.000, SKY130
 4.50000000e-08, 8.27072166e-07, 4.50000000e-08, 4.50046852e-08, 4.50000000e-08, 3.61114127e-15, 4.50000000e-08 -2.79376511e-15, 4.50000000e-08 -3.46513721e-19, 4.50000000e-08, 1.33659159e-15, 4.50000000e-08, 2.00350670e-15, 4.50000000e-08, 3.83068370e-19, 4.50000000e-08, 1.03308748e-09, 4.50000000e-08, 1.00590017e+00, 4.50000000e-08, 5.73655708e-02, 4.50000000e-08, 9.40373767e-01, 4.50000000e-08, 9.40373754e-01, 4.50000000e-08, 9.67972238e+08, 4.50000000e-08, 2.29033456e+08, 4.50000000e-08, 3.64518067e+07, 4.50000000e-08, 1.83774681e+01 , 1.000, SKY130
 5.00000000e-08, 9.18589952e-07, 5.00000000e-08, 5.00028820e-08, 5.00000000e-08, 3.65994204e-15, 5.00000000e-08 -2.85690641e-15, 5.00000000e-08 -3.53897537e-19, 5.00000000e-08, 1.36521420e-15, 5.00000000e-08, 2.04641924e-15, 5.00000000e-08, 3.91243772e-19, 5.00000000e-08, 1.13624544e-09, 5.00000000e-08, 1.00590017e+00, 5.00000000e-08, 5.86959078e-02, 5.00000000e-08, 9.46098064e-01, 5.00000000e-08, 9.46098050e-01, 5.00000000e-08, 8.80091540e+08, 5.00000000e-08, 2.50984836e+08, 5.00000000e-08, 3.99454773e+07, 5.00000000e-08, 1.83707401e+01 , 1.000, SKY130
 5.50000000e-08, 1.00960819e-06, 5.50000000e-08, 5.50017650e-08, 5.50000000e-08, 3.70397719e-15, 5.50000000e-08 -2.91381850e-15, 5.50000000e-08 -3.60658396e-19, 5.50000000e-08, 1.39097196e-15, 5.50000000e-08, 2.08503680e-15, 5.50000000e-08, 3.98729540e-19, 5.50000000e-08, 1.23827363e-09, 5.50000000e-08, 1.00590017e+00, 5.50000000e-08, 5.99809300e-02, 5.50000000e-08, 9.51280325e-01, 5.50000000e-08, 9.51280309e-01, 5.50000000e-08, 8.07575946e+08, 5.50000000e-08, 2.72574083e+08, 5.50000000e-08, 4.33815127e+07, 5.50000000e-08, 1.83559234e+01 , 1.000, SKY130
 6.00000000e-08, 1.10006699e-06, 6.00000000e-08, 6.00010319e-08, 6.00000000e-08, 3.74406607e-15, 6.00000000e-08 -2.96558044e-15, 6.00000000e-08 -3.66898982e-19, 6.00000000e-08, 1.41436491e-15, 6.00000000e-08, 2.12010905e-15, 6.00000000e-08, 4.05639342e-19, 6.00000000e-08, 1.33928186e-09, 6.00000000e-08, 1.00590017e+00, 6.00000000e-08, 6.12249034e-02, 6.00000000e-08, 9.56016596e-01, 6.00000000e-08, 9.56016579e-01, 6.00000000e-08, 7.46668814e+08, 6.00000000e-08, 2.93816127e+08, 6.00000000e-08, 4.67622889e+07, 6.00000000e-08, 1.83341345e+01 , 1.000, SKY130
 6.50000000e-08, 1.18992352e-06, 6.50000000e-08, 6.50005329e-08, 6.50000000e-08, 3.78083699e-15, 6.50000000e-08 -3.01301816e-15, 6.50000000e-08 -3.72698549e-19, 6.50000000e-08, 1.43577516e-15, 6.50000000e-08, 2.15220880e-15, 6.50000000e-08, 4.12060909e-19, 6.50000000e-08, 1.43936440e-09, 6.50000000e-08, 1.00590017e+00, 6.50000000e-08, 6.24314875e-02, 6.50000000e-08, 9.60379741e-01, 6.50000000e-08, 9.60379723e-01, 6.50000000e-08, 6.94751102e+08, 6.50000000e-08, 3.14724894e+08, 6.50000000e-08, 5.00900226e+07, 6.50000000e-08, 1.83063656e+01 , 1.000, SKY130
 7.00000000e-08, 1.27914697e-06, 7.00000000e-08, 7.00001831e-08, 7.00000000e-08, 3.81478161e-15, 7.00000000e-08 -3.05677684e-15, 7.00000000e-08 -3.78119500e-19, 7.00000000e-08, 1.45550070e-15, 7.00000000e-08, 2.18178283e-15, 7.00000000e-08, 4.18063322e-19, 7.00000000e-08, 1.53860212e-09, 7.00000000e-08, 1.00590017e+00, 7.00000000e-08, 6.36038376e-02, 7.00000000e-08, 9.64426272e-01, 7.00000000e-08, 9.64426251e-01, 7.00000000e-08, 6.49940611e+08, 7.00000000e-08, 3.35313289e+08, 7.00000000e-08, 5.33667675e+07, 7.00000000e-08, 1.82734804e+01 , 1.000, SKY130
 7.50000000e-08, 1.36771548e-06, 7.50000000e-08, 7.49999295e-08, 7.50000000e-08, 3.84629148e-15, 7.50000000e-08 -3.09736954e-15, 7.50000000e-08 -3.83211834e-19, 7.50000000e-08, 1.47377819e-15, 7.50000000e-08, 2.20918593e-15, 7.50000000e-08, 4.23701929e-19, 7.50000000e-08, 1.63706483e-09, 7.50000000e-08, 1.00590017e+00, 7.50000000e-08, 6.47446925e-02, 7.50000000e-08, 9.68200862e-01, 7.50000000e-08, 9.68200841e-01, 7.50000000e-08, 6.10849358e+08, 7.50000000e-08, 3.55593299e+08, 7.50000000e-08, 5.65944313e+07, 7.50000000e-08, 1.82362235e+01 , 1.000, SKY130
 8.00000000e-08, 1.45561408e-06, 8.00000000e-08, 7.99997424e-08, 8.00000000e-08, 3.87568326e-15, 8.00000000e-08 -3.13521065e-15, 8.00000000e-08 -3.88016231e-19, 8.00000000e-08, 1.49079854e-15, 8.00000000e-08, 2.23470430e-15, 8.00000000e-08, 4.29021764e-19, 8.00000000e-08, 1.73481331e-09, 8.00000000e-08, 1.00590017e+00, 8.00000000e-08, 6.58564478e-02, 8.00000000e-08, 9.71739425e-01, 8.00000000e-08, 9.71739402e-01, 8.00000000e-08, 5.76430903e+08, 8.00000000e-08, 3.75576119e+08, 8.00000000e-08, 5.97747958e+07, 8.00000000e-08, 1.81952346e+01 , 1.000, SKY130
 8.50000000e-08, 1.54283303e-06, 8.50000000e-08, 8.49996005e-08, 8.50000000e-08, 3.90321649e-15, 8.50000000e-08 -3.17063944e-15, 8.50000000e-08 -3.92566226e-19, 8.50000000e-08, 1.50671786e-15, 8.50000000e-08, 2.25857198e-15, 8.50000000e-08, 4.34059950e-19, 8.50000000e-08, 1.83190069e-09, 8.50000000e-08, 1.00590017e+00, 8.50000000e-08, 6.69412106e-02, 8.50000000e-08, 9.75071241e-01, 8.50000000e-08, 9.75071216e-01, 8.50000000e-08, 5.45881121e+08, 8.50000000e-08, 3.95272215e+08, 8.50000000e-08, 6.29095269e+07, 8.50000000e-08, 1.81510621e+01 , 1.000, SKY130
 9.00000000e-08, 1.62936672e-06, 9.00000000e-08, 8.99994916e-08, 9.00000000e-08, 3.92910643e-15, 9.00000000e-08 -3.20393698e-15, 9.00000000e-08 -3.96889792e-19, 9.00000000e-08, 1.52166535e-15, 9.00000000e-08, 2.28098266e-15, 9.00000000e-08, 4.38847454e-19, 9.00000000e-08, 1.92837384e-09, 9.00000000e-08, 1.00590017e+00, 9.00000000e-08, 6.80008466e-02, 9.00000000e-08, 9.78220495e-01, 9.00000000e-08, 9.78220468e-01, 9.00000000e-08, 5.18571648e+08, 9.00000000e-08, 4.14691420e+08, 9.00000000e-08, 6.60001893e+07, 9.00000000e-08, 1.81041770e+01 , 1.000, SKY130
