 isweep, gm, i_id, id, i_cgg, cgg, i_cgs, cgs, i_cgd, cgd, i_cds, cds, i_css, css, i_cdd, cdd, i_gds, gds, i_vth, vth, i_vdsat, vdsat, i_vgs, vgs, i_vds, vds, i_rds, rds, i_wt, wt, i_ft, ft, i_gm_id, gm_id, L, pdk
 1.00000000e-09, 2.16374656e-08, 1.00000000e-09, 9.99465846e-10, 1.00000000e-09, 5.74939074e-16, 1.00000000e-09 -1.28437573e-16, 1.00000000e-09, 1.56233500e-19, 1.00000000e-09, 6.36767399e-17, 1.00000000e-09, 9.53769239e-17, 1.00000000e-09 -4.11476994e-20, 1.00000000e-09, 7.91900582e-10, 1.00000000e-09, 8.90380516e-01, 1.00000000e-09, 4.13756200e-02, 1.00000000e-09, 5.34638967e-01, 1.00000000e-09, 5.34638966e-01, 1.00000000e-09, 1.26278478e+09, 1.00000000e-09, 3.76343626e+07, 1.00000000e-09, 5.98969483e+06, 1.00000000e-09, 2.16490295e+01 , .250, SKY130
 1.50000000e-09, 3.10123548e-08, 1.50000000e-09, 1.50368581e-09, 1.50000000e-09, 5.86484515e-16, 1.50000000e-09 -1.47944500e-16, 1.50000000e-09, 1.84582937e-19, 1.50000000e-09, 7.30383810e-17, 1.50000000e-09, 1.09406190e-16, 1.50000000e-09 -5.27539773e-20, 1.50000000e-09, 1.17205418e-09, 1.50000000e-09, 8.90343497e-01, 1.50000000e-09, 4.14282336e-02, 1.50000000e-09, 5.53279880e-01, 1.50000000e-09, 5.53279879e-01, 1.50000000e-09, 8.53202877e+08, 1.50000000e-09, 5.28783863e+07, 1.50000000e-09, 8.41585657e+06, 1.50000000e-09, 2.06242252e+01 , .250, SKY130
 2.00000000e-09, 4.00938057e-08, 2.00000000e-09, 2.00911908e-09, 2.00000000e-09, 5.96424046e-16, 2.00000000e-09 -1.63982395e-16, 2.00000000e-09, 2.07969822e-19, 2.00000000e-09, 8.07000114e-17, 2.00000000e-09, 1.20888212e-16, 2.00000000e-09 -6.23136891e-20, 2.00000000e-09, 1.54746199e-09, 2.00000000e-09, 8.90316169e-01, 2.00000000e-09, 4.14802210e-02, 2.00000000e-09, 5.67040561e-01, 2.00000000e-09, 5.67040560e-01, 2.00000000e-09, 6.46219427e+08, 2.00000000e-09, 6.72236573e+07, 2.00000000e-09, 1.06989774e+07, 2.00000000e-09, 1.99559131e+01 , .250, SKY130
 2.50000000e-09, 4.87969668e-08, 2.50000000e-09, 2.50376331e-09, 2.50000000e-09, 6.05072340e-16, 2.50000000e-09 -1.77533403e-16, 2.50000000e-09, 2.27780927e-19, 2.50000000e-09, 8.71511437e-17, 2.50000000e-09, 1.30556364e-16, 2.50000000e-09 -7.04021611e-20, 2.50000000e-09, 1.91075190e-09, 2.50000000e-09, 8.90294832e-01, 2.50000000e-09, 4.15305365e-02, 2.50000000e-09, 5.77784791e-01, 2.50000000e-09, 5.77784790e-01, 2.50000000e-09, 5.23354184e+08, 2.50000000e-09, 8.06465007e+07, 2.50000000e-09, 1.28352892e+07, 2.50000000e-09, 1.94894488e+01 , .250, SKY130
 3.00000000e-09, 5.74252547e-08, 3.00000000e-09, 3.00102863e-09, 3.00000000e-09, 6.12965158e-16, 3.00000000e-09 -1.89645823e-16, 3.00000000e-09, 2.45525093e-19, 3.00000000e-09, 9.29012215e-17, 3.00000000e-09, 1.39174024e-16, 3.00000000e-09 -7.76394067e-20, 3.00000000e-09, 2.27268006e-09, 3.00000000e-09, 8.90276906e-01, 3.00000000e-09, 4.15806584e-02, 3.00000000e-09, 5.86811343e-01, 3.00000000e-09, 5.86811342e-01, 3.00000000e-09, 4.40009141e+08, 3.00000000e-09, 9.36843700e+07, 3.00000000e-09, 1.49103306e+07, 3.00000000e-09, 1.91351906e+01 , .250, SKY130
 3.50000000e-09, 6.60040577e-08, 3.50000000e-09, 3.50034950e-09, 3.50000000e-09, 6.20254726e-16, 3.50000000e-09 -2.00655157e-16, 3.50000000e-09, 2.61680915e-19, 3.50000000e-09, 9.81151192e-17, 3.50000000e-09, 1.46988229e-16, 3.50000000e-09 -8.42227254e-20, 3.50000000e-09, 2.63332068e-09, 3.50000000e-09, 8.90261430e-01, 3.50000000e-09, 4.16305911e-02, 3.50000000e-09, 5.94604714e-01, 3.50000000e-09, 5.94604713e-01, 3.50000000e-09, 3.79748661e+08, 3.50000000e-09, 1.06414437e+08, 3.50000000e-09, 1.69363837e+07, 3.50000000e-09, 1.88564192e+01 , .250, SKY130
 4.00000000e-09, 7.45269420e-08, 4.00000000e-09, 4.00002235e-09, 4.00000000e-09, 6.27029637e-16, 4.00000000e-09 -2.10757551e-16, 4.00000000e-09, 2.76527546e-19, 4.00000000e-09, 1.02889509e-16, 4.00000000e-09, 1.54143826e-16, 4.00000000e-09 -9.02673301e-20, 4.00000000e-09, 2.99180213e-09, 4.00000000e-09, 8.90247835e-01, 4.00000000e-09, 4.16802105e-02, 4.00000000e-09, 6.01450238e-01, 4.00000000e-09, 6.01450237e-01, 4.00000000e-09, 3.34246703e+08, 4.00000000e-09, 1.18857128e+08, 4.00000000e-09, 1.89166995e+07, 4.00000000e-09, 1.86316314e+01 , .250, SKY130
 4.50000000e-09, 8.30055053e-08, 4.50000000e-09, 4.49981416e-09, 4.50000000e-09, 6.33371091e-16, 4.50000000e-09 -2.20115093e-16, 4.50000000e-09, 2.90297021e-19, 4.50000000e-09, 1.07303698e-16, 4.50000000e-09, 1.60759649e-16, 4.50000000e-09 -9.58687929e-20, 4.50000000e-09, 3.34823620e-09, 4.50000000e-09, 8.90235710e-01, 4.50000000e-09, 4.17295301e-02, 4.50000000e-09, 6.07555660e-01, 4.50000000e-09, 6.07555659e-01, 4.50000000e-09, 2.98664712e+08, 4.50000000e-09, 1.31053511e+08, 4.50000000e-09, 2.08578141e+07, 4.50000000e-09, 1.84464296e+01 , .250, SKY130
 5.00000000e-09, 9.14499190e-08, 5.00000000e-09, 4.99968447e-09, 5.00000000e-09, 6.39342151e-16, 5.00000000e-09 -2.28848886e-16, 5.00000000e-09, 3.03163050e-19, 5.00000000e-09, 1.11416801e-16, 5.00000000e-09, 1.66924276e-16, 5.00000000e-09 -1.01098635e-19, 5.00000000e-09, 3.70281078e-09, 5.00000000e-09, 8.90224764e-01, 5.00000000e-09, 4.17785751e-02, 5.00000000e-09, 6.13067831e-01, 5.00000000e-09, 6.13067829e-01, 5.00000000e-09, 2.70065110e+08, 5.00000000e-09, 1.43037525e+08, 5.00000000e-09, 2.27651292e+07, 5.00000000e-09, 1.82911381e+01 , .250, SKY130
 5.50000000e-09, 9.98674178e-08, 5.50000000e-09, 5.49959922e-09, 5.50000000e-09, 6.44991713e-16, 5.50000000e-09 -2.37050434e-16, 5.50000000e-09, 3.15257054e-19, 5.50000000e-09, 1.15273416e-16, 5.50000000e-09, 1.72704539e-16, 5.50000000e-09 -1.06010964e-19, 5.50000000e-09, 4.05567430e-09, 5.50000000e-09, 8.90214784e-01, 5.50000000e-09, 4.18273654e-02, 5.50000000e-09, 6.18093329e-01, 5.50000000e-09, 6.18093327e-01, 5.50000000e-09, 2.46568123e+08, 5.50000000e-09, 1.54835195e+08, 5.50000000e-09, 2.46427867e+07, 5.50000000e-09, 1.81590356e+01 , .250, SKY130
 6.00000000e-09, 1.08263493e-07, 6.00000000e-09, 5.99954173e-09, 6.00000000e-09, 6.50358797e-16, 6.00000000e-09 -2.44791108e-16, 6.00000000e-09, 3.26681676e-19, 6.00000000e-09, 1.18908281e-16, 6.00000000e-09, 1.78152488e-16, 6.00000000e-09 -1.10648037e-19, 6.00000000e-09, 4.40695559e-09, 6.00000000e-09, 8.90205611e-01, 6.00000000e-09, 4.18759187e-02, 6.00000000e-09, 6.22712178e-01, 6.00000000e-09, 6.22712177e-01, 6.00000000e-09, 2.26914018e+08, 6.00000000e-09, 1.66467331e+08, 6.00000000e-09, 2.64940985e+07, 6.00000000e-09, 1.80452938e+01 , .250, SKY130
 6.50000000e-09, 1.16642310e-07, 6.50000000e-09, 6.49950023e-09, 6.50000000e-09, 6.55475097e-16, 6.50000000e-09 -2.52127772e-16, 6.50000000e-09, 3.37518794e-19, 6.50000000e-09, 1.22349033e-16, 6.50000000e-09, 1.83309539e-16, 6.50000000e-09 -1.15043562e-19, 6.50000000e-09, 4.75676312e-09, 6.50000000e-09, 8.90197124e-01, 6.50000000e-09, 4.19242498e-02, 6.50000000e-09, 6.26985988e-01, 6.50000000e-09, 6.26985987e-01, 6.50000000e-09, 2.10226992e+08, 6.50000000e-09, 1.77950788e+08, 6.50000000e-09, 2.83217475e+07, 6.50000000e-09, 1.79463506e+01 , .250, SKY130
 7.00000000e-09, 1.25007146e-07, 7.00000000e-09, 6.99946964e-09, 7.00000000e-09, 6.60366827e-16, 7.00000000e-09 -2.59106662e-16, 7.00000000e-09, 3.47835054e-19, 7.00000000e-09, 1.25618118e-16, 7.00000000e-09, 1.88209325e-16, 7.00000000e-09 -1.19224977e-19, 7.00000000e-09, 5.10519175e-09, 7.00000000e-09, 8.90189225e-01, 7.00000000e-09, 4.19723721e-02, 7.00000000e-09, 6.30963263e-01, 7.00000000e-09, 6.30963261e-01, 7.00000000e-09, 1.95879028e+08, 7.00000000e-09, 1.89299555e+08, 7.00000000e-09, 3.01279599e+07, 7.00000000e-09, 1.78595169e+01 , .250, SKY130
 7.50000000e-09, 1.33360568e-07, 7.50000000e-09, 7.49944595e-09, 7.50000000e-09, 6.65055939e-16, 7.50000000e-09 -2.65765925e-16, 7.50000000e-09, 3.57685508e-19, 7.50000000e-09, 1.28734030e-16, 7.50000000e-09, 1.92879563e-16, 7.50000000e-09 -1.23214948e-19, 7.50000000e-09, 5.45232280e-09, 7.50000000e-09, 8.90181839e-01, 7.50000000e-09, 4.20202968e-02, 7.50000000e-09, 6.34682863e-01, 7.50000000e-09, 6.34682861e-01, 7.50000000e-09, 1.83408070e+08, 7.50000000e-09, 2.00525340e+08, 7.50000000e-09, 3.19145990e+07, 7.50000000e-09, 1.77827227e+01 , .250, SKY130
 8.00000000e-09, 1.41704652e-07, 8.00000000e-09, 7.99942818e-09, 8.00000000e-09, 6.69561067e-16, 8.00000000e-09 -2.72137509e-16, 8.00000000e-09, 3.67116306e-19, 8.00000000e-09, 1.31712244e-16, 8.00000000e-09, 1.97343438e-16, 8.00000000e-09 -1.27032474e-19, 8.00000000e-09, 5.79822832e-09, 8.00000000e-09, 8.90174901e-01, 8.00000000e-09, 4.20680342e-02, 8.00000000e-09, 6.38176440e-01, 8.00000000e-09, 6.38176438e-01, 8.00000000e-09, 1.72466475e+08, 8.00000000e-09, 2.11638130e+08, 8.00000000e-09, 3.36832545e+07, 8.00000000e-09, 1.77143477e+01 , .250, SKY130
 8.50000000e-09, 1.50041020e-07, 8.50000000e-09, 8.49941261e-09, 8.50000000e-09, 6.73898150e-16, 8.50000000e-09 -2.78248425e-16, 8.50000000e-09, 3.76166501e-19, 8.50000000e-09, 1.34565826e-16, 8.50000000e-09, 2.01620534e-16, 8.50000000e-09 -1.30693634e-19, 8.50000000e-09, 6.14296922e-09, 8.50000000e-09, 8.90168360e-01, 8.50000000e-09, 4.21155930e-02, 8.50000000e-09, 6.41470085e-01, 8.50000000e-09, 6.41470083e-01, 8.50000000e-09, 1.62787728e+08, 8.50000000e-09, 2.22646433e+08, 8.50000000e-09, 3.54352804e+07, 8.50000000e-09, 1.76531046e+01 , .250, SKY130
 9.00000000e-09, 1.58371075e-07, 9.00000000e-09, 8.99940131e-09, 9.00000000e-09, 6.78081018e-16, 9.00000000e-09 -2.84121845e-16, 9.00000000e-09, 3.84869631e-19, 9.00000000e-09, 1.37305976e-16, 9.00000000e-09, 2.05727633e-16, 9.00000000e-09 -1.34212235e-19, 9.00000000e-09, 6.48660288e-09, 9.00000000e-09, 8.90162173e-01, 9.00000000e-09, 4.21629813e-02, 9.00000000e-09, 6.44585623e-01, 9.00000000e-09, 6.44585620e-01, 9.00000000e-09, 1.54163900e+08, 9.00000000e-09, 2.33557748e+08, 9.00000000e-09, 3.71718700e+07, 9.00000000e-09, 1.75979568e+01 , .250, SKY130
 9.50000000e-09, 1.66695895e-07, 9.50000000e-09, 9.49939134e-09, 9.50000000e-09, 6.82121690e-16, 9.50000000e-09 -2.89777721e-16, 9.50000000e-09, 3.93254596e-19, 9.50000000e-09, 1.39942327e-16, 9.50000000e-09, 2.09679172e-16, 9.50000000e-09 -1.37600176e-19, 9.50000000e-09, 6.82917695e-09, 9.50000000e-09, 8.90156303e-01, 9.50000000e-09, 4.22102059e-02, 9.50000000e-09, 6.47541435e-01, 9.50000000e-09, 6.47541432e-01, 9.50000000e-09, 1.46430530e+08, 9.50000000e-09, 2.44378529e+08, 9.50000000e-09, 3.88940508e+07, 9.50000000e-09, 1.75480606e+01 , .250, SKY130
 1.00000000e-08, 1.75029755e-07, 1.00000000e-08, 1.00001848e-08, 1.00000000e-08, 6.86036912e-16, 1.00000000e-08 -2.95242047e-16, 1.00000000e-08, 4.01359371e-19, 1.00000000e-08, 1.42487276e-16, 1.00000000e-08, 2.13493727e-16, 1.00000000e-08 -1.40872989e-19, 1.00000000e-08, 7.17128297e-09, 1.00000000e-08, 8.90150710e-01, 1.00000000e-08, 4.22573487e-02, 1.00000000e-08, 6.50357600e-01, 1.00000000e-08, 6.50357597e-01, 1.00000000e-08, 1.39445062e+08, 1.00000000e-08, 2.55131688e+08, 1.00000000e-08, 4.06054693e+07, 1.00000000e-08, 1.75026521e+01 , .250, SKY130
 1.50000000e-08, 2.59040842e-07, 1.50000000e-08, 1.50554622e-08, 1.50000000e-08, 7.19856381e-16, 1.50000000e-08 -3.41881668e-16, 1.50000000e-08, 4.70673076e-19, 1.50000000e-08, 1.64128395e-16, 1.50000000e-08, 2.45931677e-16, 1.50000000e-08 -1.68782444e-19, 1.50000000e-08, 1.05750681e-08, 1.50000000e-08, 8.90105707e-01, 1.50000000e-08, 4.27254806e-02, 1.50000000e-08, 6.73018989e-01, 1.50000000e-08, 6.73018985e-01, 1.50000000e-08, 9.45620390e+07, 1.50000000e-08, 3.59850728e+08, 1.50000000e-08, 5.72720221e+07, 1.50000000e-08, 1.72057714e+01 , .250, SKY130
 2.00000000e-08, 3.43413211e-07, 2.00000000e-08, 2.01334956e-08, 2.00000000e-08, 7.46690107e-16, 2.00000000e-08 -3.78310434e-16, 2.00000000e-08, 5.24958212e-19, 2.00000000e-08, 1.80937453e-16, 2.00000000e-08, 2.71127575e-16, 2.00000000e-08 -1.90534053e-19, 2.00000000e-08, 1.39190885e-08, 2.00000000e-08, 8.90073325e-01, 2.00000000e-08, 4.31838533e-02, 2.00000000e-08, 6.89325120e-01, 2.00000000e-08, 6.89325115e-01, 2.00000000e-08, 7.18437851e+07, 2.00000000e-08, 4.59913970e+08, 2.00000000e-08, 7.31975817e+07, 2.00000000e-08, 1.70568101e+01 , .250, SKY130
 2.50000000e-08, 4.25371722e-07, 2.50000000e-08, 2.50613238e-08, 2.50000000e-08, 7.68380362e-16, 2.50000000e-08 -4.07465973e-16, 2.50000000e-08, 5.68480430e-19, 2.50000000e-08, 1.94335263e-16, 2.50000000e-08, 2.91210620e-16, 2.50000000e-08 -2.07900738e-19, 2.50000000e-08, 1.71055648e-08, 2.50000000e-08, 8.90048761e-01, 2.50000000e-08, 4.36192982e-02, 2.50000000e-08, 7.01694609e-01, 2.50000000e-08, 7.01694602e-01, 2.50000000e-08, 5.84605077e+07, 2.50000000e-08, 5.53595255e+08, 2.50000000e-08, 8.81074213e+07, 2.50000000e-08, 1.69732344e+01 , .250, SKY130
 3.00000000e-08, 5.07953896e-07, 3.00000000e-08, 3.00204306e-08, 3.00000000e-08, 7.87170229e-16, 3.00000000e-08 -4.32547110e-16, 3.00000000e-08, 6.05965713e-19, 3.00000000e-08, 2.05823490e-16, 3.00000000e-08, 3.08431522e-16, 3.00000000e-08 -2.22804254e-19, 3.00000000e-08, 2.02619871e-08, 3.00000000e-08, 8.90028417e-01, 3.00000000e-08, 4.40494165e-02, 3.00000000e-08, 7.11939070e-01, 3.00000000e-08, 7.11939061e-01, 3.00000000e-08, 4.93535010e+07, 3.00000000e-08, 6.45291040e+08, 3.00000000e-08, 1.02701259e+08, 3.00000000e-08, 1.69202735e+01 , .250, SKY130
 3.50000000e-08, 5.91169532e-07, 3.50000000e-08, 3.50113406e-08, 3.50000000e-08, 8.03780451e-16, 3.50000000e-08 -4.54600243e-16, 3.50000000e-08, 6.38955008e-19, 3.50000000e-08, 2.15897371e-16, 3.50000000e-08, 3.23532522e-16, 3.50000000e-08 -2.35876980e-19, 3.50000000e-08, 2.33932941e-08, 3.50000000e-08, 8.90011038e-01, 3.50000000e-08, 4.44749612e-02, 3.50000000e-08, 7.20690515e-01, 3.50000000e-08, 7.20690505e-01, 3.50000000e-08, 4.27472932e+07, 3.50000000e-08, 7.35486327e+08, 3.50000000e-08, 1.17056285e+08, 3.50000000e-08, 1.68850870e+01 , .250, SKY130
 4.00000000e-08, 6.74565103e-07, 4.00000000e-08, 4.00073436e-08, 4.00000000e-08, 8.18609412e-16, 4.00000000e-08 -4.74204269e-16, 4.00000000e-08, 6.68300714e-19, 4.00000000e-08, 2.24831637e-16, 4.00000000e-08, 3.36925369e-16, 4.00000000e-08 -2.47470604e-19, 4.00000000e-08, 2.64864069e-08, 4.00000000e-08, 8.89995933e-01, 4.00000000e-08, 4.48942280e-02, 4.00000000e-08, 7.28296469e-01, 4.00000000e-08, 7.28296457e-01, 4.00000000e-08, 3.77552156e+07, 4.00000000e-08, 8.24037804e+08, 4.00000000e-08, 1.31149690e+08, 4.00000000e-08, 1.68610320e+01 , .250, SKY130
 4.50000000e-08, 7.58065167e-07, 4.50000000e-08, 4.50046587e-08, 4.50000000e-08, 8.31998928e-16, 4.50000000e-08 -4.91843159e-16, 4.50000000e-08, 6.94718714e-19, 4.50000000e-08, 2.32853954e-16, 4.50000000e-08, 3.48951292e-16, 4.50000000e-08 -2.57878300e-19, 4.50000000e-08, 2.95421901e-08, 4.50000000e-08, 8.89982586e-01, 4.50000000e-08, 4.53074052e-02, 4.50000000e-08, 7.35017928e-01, 4.50000000e-08, 7.35017915e-01, 4.50000000e-08, 3.38498939e+07, 4.50000000e-08, 9.11137192e+08, 4.50000000e-08, 1.45011988e+08, 4.50000000e-08, 1.68441488e+01 , .250, SKY130
 5.00000000e-08, 8.41651620e-07, 5.00000000e-08, 5.00030063e-08, 5.00000000e-08, 8.44205452e-16, 5.00000000e-08 -5.07876101e-16, 5.00000000e-08, 7.18741396e-19, 5.00000000e-08, 2.40132701e-16, 5.00000000e-08, 3.59862660e-16, 5.00000000e-08 -2.67317567e-19, 5.00000000e-08, 3.25631159e-08, 5.00000000e-08, 8.89970629e-01, 5.00000000e-08, 4.57148897e-02, 5.00000000e-08, 7.41038903e-01, 5.00000000e-08, 7.41038889e-01, 5.00000000e-08, 3.07095919e+07, 5.00000000e-08, 9.96974868e+08, 5.00000000e-08, 1.58673478e+08, 5.00000000e-08, 1.68320203e+01 , .250, SKY130
 5.50000000e-08, 9.25303949e-07, 5.50000000e-08, 5.50019654e-08, 5.50000000e-08, 8.55420861e-16, 5.50000000e-08 -5.22569931e-16, 5.50000000e-08, 7.40764811e-19, 5.50000000e-08, 2.46792684e-16, 5.50000000e-08, 3.69846538e-16, 5.50000000e-08 -2.75950002e-19, 5.50000000e-08, 3.55511425e-08, 5.50000000e-08, 8.89959801e-01, 5.50000000e-08, 4.61170012e-02, 5.50000000e-08, 7.46491215e-01, 5.50000000e-08, 7.46491199e-01, 5.50000000e-08, 2.81284912e+07, 5.50000000e-08, 1.08169439e+09, 5.50000000e-08, 1.72157010e+08, 5.50000000e-08, 1.68231070e+01 , .250, SKY130
 6.00000000e-08, 1.00900466e-06, 6.00000000e-08, 6.00012713e-08, 6.00000000e-08, 8.65793281e-16, 6.00000000e-08 -5.36129378e-16, 6.00000000e-08, 7.61093212e-19, 6.00000000e-08, 2.52929456e-16, 6.00000000e-08, 3.79046150e-16, 6.00000000e-08 -2.83899572e-19, 6.00000000e-08, 3.85080057e-08, 6.00000000e-08, 8.89949909e-01, 6.00000000e-08, 4.65140229e-02, 6.00000000e-08, 7.51472788e-01, 6.00000000e-08, 7.51472770e-01, 6.00000000e-08, 2.59686260e+07, 6.00000000e-08, 1.16541059e+09, 6.00000000e-08, 1.85480857e+08, 6.00000000e-08, 1.68163880e+01 , .250, SKY130
 6.50000000e-08, 1.09273912e-06, 6.50000000e-08, 6.50007932e-08, 6.50000000e-08, 8.75439658e-16, 6.50000000e-08 -5.48715219e-16, 6.50000000e-08, 7.79965791e-19, 6.50000000e-08, 2.58617915e-16, 6.50000000e-08, 3.87573756e-16, 6.50000000e-08 -2.91263601e-19, 6.50000000e-08, 4.14352753e-08, 6.50000000e-08, 8.89940803e-01, 6.50000000e-08, 4.69062107e-02, 6.50000000e-08, 7.56058370e-01, 6.50000000e-08, 7.56058351e-01, 6.50000000e-08, 2.41340257e+07, 6.50000000e-08, 1.24821752e+09, 6.50000000e-08, 1.98659988e+08, 6.50000000e-08, 1.68111659e+01 , .250, SKY130
 7.00000000e-08, 1.17649421e-06, 7.00000000e-08, 7.00004511e-08, 7.00000000e-08, 8.84453947e-16, 7.00000000e-08 -5.60456038e-16, 7.00000000e-08, 7.97574027e-19, 7.00000000e-08, 2.63917857e-16, 7.00000000e-08, 3.95518985e-16, 7.00000000e-08 -2.98119901e-19, 7.00000000e-08, 4.43343559e-08, 7.00000000e-08, 8.89932367e-01, 7.00000000e-08, 4.72937936e-02, 7.00000000e-08, 7.60306272e-01, 7.00000000e-08, 7.60306252e-01, 7.00000000e-08, 2.25558707e+07, 7.00000000e-08, 1.33019273e+09, 7.00000000e-08, 2.11706748e+08, 7.00000000e-08, 1.68069518e+01 , .250, SKY130
 7.50000000e-08, 1.26025816e-06, 7.50000000e-08, 7.50002011e-08, 7.50000000e-08, 8.92912831e-16, 7.50000000e-08 -5.71456365e-16, 7.50000000e-08, 8.14073709e-19, 7.50000000e-08, 2.68877813e-16, 7.50000000e-08, 4.02954582e-16, 7.50000000e-08 -3.04531700e-19, 7.50000000e-08, 4.72065150e-08, 7.50000000e-08, 8.89924510e-01, 7.50000000e-08, 4.76769788e-02, 7.50000000e-08, 7.64262855e-01, 7.50000000e-08, 7.64262833e-01, 7.50000000e-08, 2.11835167e+07, 7.50000000e-08, 1.41140111e+09, 7.50000000e-08, 2.24631463e+08, 7.50000000e-08, 1.68033971e+01 , .250, SKY130
 8.00000000e-08, 1.34402010e-06, 8.00000000e-08, 8.00000135e-08, 8.00000000e-08, 9.00879732e-16, 8.00000000e-08 -5.81802348e-16, 8.00000000e-08, 8.29593328e-19, 8.00000000e-08, 2.73537725e-16, 8.00000000e-08, 4.09940414e-16, 8.00000000e-08 -3.10551085e-19, 8.00000000e-08, 5.00528983e-08, 8.00000000e-08, 8.89917157e-01, 8.00000000e-08, 4.80559538e-02, 8.00000000e-08, 7.67965573e-01, 8.00000000e-08, 7.67965550e-01, 8.00000000e-08, 1.99788631e+07, 8.00000000e-08, 1.49189737e+09, 8.00000000e-08, 2.37442841e+08, 8.00000000e-08, 1.68002484e+01 , .250, SKY130
 8.50000000e-08, 1.42777004e-06, 8.50000000e-08, 8.49998697e-08, 8.50000000e-08, 9.08407730e-16, 8.50000000e-08 -5.91565862e-16, 8.50000000e-08, 8.44240158e-19, 8.50000000e-08, 2.77930869e-16, 8.50000000e-08, 4.16526360e-16, 8.50000000e-08 -3.16221490e-19, 8.50000000e-08, 5.28745484e-08, 8.50000000e-08, 8.89910247e-01, 8.50000000e-08, 4.84308897e-02, 8.50000000e-08, 7.71445120e-01, 8.50000000e-08, 7.71445095e-01, 8.50000000e-08, 1.89126911e+07, 8.50000000e-08, 1.57172819e+09, 8.50000000e-08, 2.50148310e+08, 8.50000000e-08, 1.67973203e+01 , .250, SKY130
 9.00000000e-08, 1.51149867e-06, 9.00000000e-08, 8.99997564e-08, 9.00000000e-08, 9.15541715e-16, 9.00000000e-08 -6.00807515e-16, 9.00000000e-08, 8.58104712e-19, 9.00000000e-08, 2.82085271e-16, 9.00000000e-08, 4.22754429e-16, 9.00000000e-08 -3.21579524e-19, 9.00000000e-08, 5.56724191e-08, 9.00000000e-08, 8.89903730e-01, 9.00000000e-08, 4.88019433e-02, 9.00000000e-08, 7.74726957e-01, 9.00000000e-08, 7.74726931e-01, 9.00000000e-08, 1.79622157e+07, 9.00000000e-08, 1.65093370e+09, 9.00000000e-08, 2.62754259e+08, 9.00000000e-08, 1.67944751e+01 , .250, SKY130
