 isweep, gm, i_id, id, i_cgg, cgg, i_cgs, cgs, i_cgd, cgd, i_cds, cds, i_css, css, i_cdd, cdd, i_gds, gds, i_vth, vth, i_vdsat, vdsat, i_vgs, vgs, i_vds, vds, i_rds, rds, i_wt, wt, i_ft, ft, i_gm_id, gm_id, W, L, pdk
 1.00000000e-09, 2.72546853e-08, 1.00000000e-09, 9.99362237e-10, 1.00000000e-09, 6.50948770e-16, 1.00000000e-09 -2.20334610e-16, 1.00000000e-09, 1.82230196e-19, 1.00000000e-09, 1.09488276e-16, 1.00000000e-09, 1.64048743e-16, 1.00000000e-09 -4.93229596e-20, 1.00000000e-09, 6.88320618e-10, 1.00000000e-09, 9.33692610e-01, 1.00000000e-09, 4.09493661e-02, 1.00000000e-09, 6.38685022e-01, 1.00000000e-09, 6.38685022e-01, 1.00000000e-09, 1.45281134e+09, 1.00000000e-09, 4.18691710e+07, 1.00000000e-09, 6.66368553e+06, 1.00000000e-09, 2.72720785e+01 , 1, .250, SKY130
 1.50000000e-09, 4.00406837e-08, 1.50000000e-09, 1.50458758e-09, 1.50000000e-09, 6.66117987e-16, 1.50000000e-09 -2.43155540e-16, 1.50000000e-09, 2.04318036e-19, 1.50000000e-09, 1.20399981e-16, 1.50000000e-09, 1.80404240e-16, 1.50000000e-09 -5.79474175e-20, 1.50000000e-09, 1.02437707e-09, 1.50000000e-09, 9.33672447e-01, 1.50000000e-09, 4.10153699e-02, 1.50000000e-09, 6.53491828e-01, 1.50000000e-09, 6.53491828e-01, 1.50000000e-09, 9.76203028e+08, 1.50000000e-09, 6.01104977e+07, 1.50000000e-09, 9.56688284e+06, 1.50000000e-09, 2.66123981e+01 , 1, .250, SKY130
 2.00000000e-09, 5.24727940e-08, 2.00000000e-09, 2.01113071e-09, 2.00000000e-09, 6.78082998e-16, 2.00000000e-09 -2.60831389e-16, 2.00000000e-09, 2.21475353e-19, 2.00000000e-09, 1.28820996e-16, 2.00000000e-09, 1.93026687e-16, 2.00000000e-09 -6.46377236e-20, 2.00000000e-09, 1.35748950e-09, 2.00000000e-09, 9.33657829e-01, 2.00000000e-09, 4.10808563e-02, 2.00000000e-09, 6.64226229e-01, 2.00000000e-09, 6.64226229e-01, 2.00000000e-09, 7.36653951e+08, 2.00000000e-09, 7.73840285e+07, 2.00000000e-09, 1.23160507e+07, 2.00000000e-09, 2.60911902e+01 , 1, .250, SKY130
 2.50000000e-09, 6.42836820e-08, 2.50000000e-09, 2.50441530e-09, 2.50000000e-09, 6.87853519e-16, 2.50000000e-09 -2.75091059e-16, 2.50000000e-09, 2.35345036e-19, 2.50000000e-09, 1.35596160e-16, 2.50000000e-09, 2.03182266e-16, 2.50000000e-09 -7.00394432e-20, 2.50000000e-09, 1.67898864e-09, 2.50000000e-09, 9.33646580e-01, 2.50000000e-09, 4.11441021e-02, 2.50000000e-09, 6.72487109e-01, 2.50000000e-09, 6.72487108e-01, 2.50000000e-09, 5.95596644e+08, 2.50000000e-09, 9.34554818e+07, 2.50000000e-09, 1.48739019e+07, 2.50000000e-09, 2.56681398e+01 , 1, .250, SKY130
 3.00000000e-09, 7.59294925e-08, 3.00000000e-09, 3.00103386e-09, 3.00000000e-09, 6.96413515e-16, 3.00000000e-09 -2.87472703e-16, 3.00000000e-09, 2.47406979e-19, 3.00000000e-09, 1.41466316e-16, 3.00000000e-09, 2.11981383e-16, 3.00000000e-09 -7.47318222e-20, 3.00000000e-09, 2.00024351e-09, 3.00000000e-09, 9.33637161e-01, 3.00000000e-09, 4.12073314e-02, 3.00000000e-09, 6.79403894e-01, 3.00000000e-09, 6.79403893e-01, 3.00000000e-09, 4.99939131e+08, 3.00000000e-09, 1.09029321e+08, 3.00000000e-09, 1.73525553e+07, 3.00000000e-09, 2.53011116e+01 , 1, .250, SKY130
 3.50000000e-09, 8.74253250e-08, 3.50000000e-09, 3.50028463e-09, 3.50000000e-09, 7.04072221e-16, 3.50000000e-09 -2.98472142e-16, 3.50000000e-09, 2.58136185e-19, 3.50000000e-09, 1.46671604e-16, 3.50000000e-09, 2.19783957e-16, 3.50000000e-09 -7.89012867e-20, 3.50000000e-09, 2.32107457e-09, 3.50000000e-09, 9.33629040e-01, 3.50000000e-09, 4.12705017e-02, 3.50000000e-09, 6.85367539e-01, 3.50000000e-09, 6.85367538e-01, 3.50000000e-09, 4.30834931e+08, 3.50000000e-09, 1.24170962e+08, 3.50000000e-09, 1.97624224e+07, 3.50000000e-09, 2.49766331e+01 , 1, .250, SKY130
 4.00000000e-09, 9.87454087e-08, 4.00000000e-09, 3.99994033e-09, 4.00000000e-09, 7.11006345e-16, 4.00000000e-09 -3.08372831e-16, 4.00000000e-09, 2.67804076e-19, 4.00000000e-09, 1.51349458e-16, 4.00000000e-09, 2.26795976e-16, 4.00000000e-09 -8.26545145e-20, 4.00000000e-09, 2.64026408e-09, 4.00000000e-09, 9.33621912e-01, 4.00000000e-09, 4.13333674e-02, 4.00000000e-09, 6.90601597e-01, 4.00000000e-09, 6.90601596e-01, 4.00000000e-09, 3.78749992e+08, 4.00000000e-09, 1.38881192e+08, 4.00000000e-09, 2.21036282e+07, 4.00000000e-09, 2.46867205e+01 , 1, .250, SKY130
 4.50000000e-09, 1.09904679e-07, 4.50000000e-09, 4.49971899e-09, 4.50000000e-09, 7.17359581e-16, 4.50000000e-09 -3.17399480e-16, 4.50000000e-09, 2.76626644e-19, 4.50000000e-09, 1.55608333e-16, 4.50000000e-09, 2.33179996e-16, 4.50000000e-09 -8.60762790e-20, 4.50000000e-09, 2.95780700e-09, 4.50000000e-09, 9.33615554e-01, 4.50000000e-09, 4.13959228e-02, 4.50000000e-09, 6.95270919e-01, 4.50000000e-09, 6.95270918e-01, 4.50000000e-09, 3.38088320e+08, 4.50000000e-09, 1.53207237e+08, 4.50000000e-09, 2.43836891e+07, 4.50000000e-09, 2.44247873e+01 , 1, .250, SKY130
 5.00000000e-09, 1.20919715e-07, 5.00000000e-09, 4.99958528e-09, 5.00000000e-09, 7.23236863e-16, 5.00000000e-09 -3.25714528e-16, 5.00000000e-09, 2.84760258e-19, 5.00000000e-09, 1.59526502e-16, 5.00000000e-09, 2.39053333e-16, 5.00000000e-09 -8.92279383e-20, 5.00000000e-09, 3.27382051e-09, 5.00000000e-09, 9.33609807e-01, 5.00000000e-09, 4.14581873e-02, 5.00000000e-09, 6.99491003e-01, 5.00000000e-09, 6.99491002e-01, 5.00000000e-09, 3.05453520e+08, 5.00000000e-09, 1.67192411e+08, 5.00000000e-09, 2.66094986e+07, 5.00000000e-09, 2.41859490e+01 , 1, .250, SKY130
 5.50000000e-09, 1.31804038e-07, 5.50000000e-09, 5.49950103e-09, 5.50000000e-09, 7.28715666e-16, 5.50000000e-09 -3.33437097e-16, 5.50000000e-09, 2.92319705e-19, 5.50000000e-09, 1.63161304e-16, 5.50000000e-09, 2.44501934e-16, 5.50000000e-09 -9.21545340e-20, 5.50000000e-09, 3.58839419e-09, 5.50000000e-09, 9.33604559e-01, 5.50000000e-09, 4.15201756e-02, 5.50000000e-09, 7.03344721e-01, 5.50000000e-09, 7.03344719e-01, 5.50000000e-09, 2.78676184e+08, 5.50000000e-09, 1.80871696e+08, 5.50000000e-09, 2.87866245e+07, 5.50000000e-09, 2.39665449e+01 , 1, .250, SKY130
 6.00000000e-09, 1.42569266e-07, 6.00000000e-09, 5.99944446e-09, 6.00000000e-09, 7.33855171e-16, 6.00000000e-09 -3.40657625e-16, 6.00000000e-09, 2.99392212e-19, 6.00000000e-09, 1.66556230e-16, 6.00000000e-09, 2.49590981e-16, 6.00000000e-09 -9.48902918e-20, 6.00000000e-09, 3.90160893e-09, 6.00000000e-09, 9.33599726e-01, 6.00000000e-09, 4.15819010e-02, 6.00000000e-09, 7.06893724e-01, 6.00000000e-09, 7.06893722e-01, 6.00000000e-09, 2.56304519e+08, 6.00000000e-09, 1.94274390e+08, 6.00000000e-09, 3.09197295e+07, 6.00000000e-09, 2.37637445e+01 , 1, .250, SKY130
 6.50000000e-09, 1.53225465e-07, 6.50000000e-09, 6.49940434e-09, 6.50000000e-09, 7.38701706e-16, 6.50000000e-09 -3.47446527e-16, 6.50000000e-09, 3.06045749e-19, 6.50000000e-09, 1.69745110e-16, 6.50000000e-09, 2.54371184e-16, 6.50000000e-09 -9.74618810e-20, 6.50000000e-09, 4.21353776e-09, 6.50000000e-09, 9.33595244e-01, 6.50000000e-09, 4.16433758e-02, 6.50000000e-09, 7.10185148e-01, 6.50000000e-09, 7.10185146e-01, 6.50000000e-09, 2.37330257e+08, 6.50000000e-09, 2.07425357e+08, 6.50000000e-09, 3.30127708e+07, 6.50000000e-09, 2.35753089e+01 , 1, .250, SKY130
 7.00000000e-09, 1.63781441e-07, 7.00000000e-09, 6.99937638e-09, 7.00000000e-09, 7.43292284e-16, 7.00000000e-09 -3.53859795e-16, 7.00000000e-09, 3.12334405e-19, 7.00000000e-09, 1.72754822e-16, 7.00000000e-09, 2.58882828e-16, 7.00000000e-09 -9.98905223e-20, 7.00000000e-09, 4.52424678e-09, 7.00000000e-09, 9.33591062e-01, 7.00000000e-09, 4.17046113e-02, 7.00000000e-09, 7.13255851e-01, 7.00000000e-09, 7.13255849e-01, 7.00000000e-09, 2.21031267e+08, 7.00000000e-09, 2.20345945e+08, 7.00000000e-09, 3.50691463e+07, 7.00000000e-09, 2.33994333e+01 , 1, .250, SKY130
 7.50000000e-09, 1.74244822e-07, 7.50000000e-09, 7.49935489e-09, 7.50000000e-09, 7.47656940e-16, 7.50000000e-09 -3.59942671e-16, 7.50000000e-09, 3.18301917e-19, 7.50000000e-09, 1.75607070e-16, 7.50000000e-09, 2.63158445e-16, 7.50000000e-09 -1.02193375e-19, 7.50000000e-09, 4.83379218e-09, 7.50000000e-09, 9.33587142e-01, 7.50000000e-09, 4.17656168e-02, 7.50000000e-09, 7.16135182e-01, 7.50000000e-09, 7.16135180e-01, 7.50000000e-09, 2.06876912e+08, 7.50000000e-09, 2.33054510e+08, 7.50000000e-09, 3.70917774e+07, 7.50000000e-09, 2.32346415e+01 , 1, .250, SKY130
 8.00000000e-09, 1.84622387e-07, 8.00000000e-09, 7.99933829e-09, 8.00000000e-09, 7.51820459e-16, 8.00000000e-09 -3.65732349e-16, 8.00000000e-09, 3.23984263e-19, 8.00000000e-09, 1.78319681e-16, 8.00000000e-09, 2.67224756e-16, 8.00000000e-09 -1.04384551e-19, 8.00000000e-09, 5.14222550e-09, 8.00000000e-09, 9.33583449e-01, 8.00000000e-09, 4.18264013e-02, 8.00000000e-09, 7.18846927e-01, 8.00000000e-09, 7.18846925e-01, 8.00000000e-09, 1.94468329e+08, 8.00000000e-09, 2.45567122e+08, 8.00000000e-09, 3.90832214e+07, 8.00000000e-09, 2.30797073e+01 , 1, .250, SKY130
 8.50000000e-09, 1.94920147e-07, 8.50000000e-09, 8.49932589e-09, 8.50000000e-09, 7.55803545e-16, 8.50000000e-09 -3.71259784e-16, 8.50000000e-09, 3.29411403e-19, 8.50000000e-09, 1.80907485e-16, 8.50000000e-09, 2.71103990e-16, 8.50000000e-09 -1.06475805e-19, 8.50000000e-09, 5.44959281e-09, 8.50000000e-09, 9.33579958e-01, 8.50000000e-09, 4.18869727e-02, 8.50000000e-09, 7.21410629e-01, 8.50000000e-09, 7.21410627e-01, 8.50000000e-09, 1.83499948e+08, 8.50000000e-09, 2.57897900e+08, 8.50000000e-09, 4.10457257e+07, 8.50000000e-09, 2.29336008e+01 , 1, .250, SKY130
 9.00000000e-09, 2.05143432e-07, 9.00000000e-09, 8.99931560e-09, 9.00000000e-09, 7.59623671e-16, 9.00000000e-09 -3.76551023e-16, 9.00000000e-09, 3.34608561e-19, 9.00000000e-09, 1.83382952e-16, 9.00000000e-09, 2.74814837e-16, 9.00000000e-09 -1.08477030e-19, 9.00000000e-09, 5.75593444e-09, 9.00000000e-09, 9.33576646e-01, 9.00000000e-09, 4.19473378e-02, 9.00000000e-09, 7.23842537e-01, 9.00000000e-09, 7.23842534e-01, 9.00000000e-09, 1.73733737e+08, 9.00000000e-09, 2.70059293e+08, 9.00000000e-09, 4.29812715e+07, 9.00000000e-09, 2.27954481e+01 , 1, .250, SKY130
 9.50000000e-09, 2.15297038e-07, 9.50000000e-09, 9.49930669e-09, 9.50000000e-09, 7.63295754e-16, 9.50000000e-09 -3.81628230e-16, 9.50000000e-09, 3.39597215e-19, 9.50000000e-09, 1.85756687e-16, 9.50000000e-09, 2.78373193e-16, 9.50000000e-09 -1.10396651e-19, 9.50000000e-09, 6.06128733e-09, 9.50000000e-09, 9.33573495e-01, 9.50000000e-09, 4.20075030e-02, 9.50000000e-09, 7.26156321e-01, 9.50000000e-09, 7.26156318e-01, 9.50000000e-09, 1.64981455e+08, 9.50000000e-09, 2.82062407e+08, 9.50000000e-09, 4.48916263e+07, 9.50000000e-09, 2.26645001e+01 , 1, .250, SKY130
 1.00000000e-08, 2.25385085e-07, 1.00000000e-08, 9.99928847e-09, 1.00000000e-08, 7.66832565e-16, 1.00000000e-08 -3.86510339e-16, 1.00000000e-08, 3.44395715e-19, 1.00000000e-08, 1.88037744e-16, 1.00000000e-08, 2.81792631e-16, 1.00000000e-08 -1.12241864e-19, 1.00000000e-08, 6.36567888e-09, 1.00000000e-08, 9.33570489e-01, 1.00000000e-08, 4.20674730e-02, 1.00000000e-08, 7.28363549e-01, 1.00000000e-08, 7.28363546e-01, 1.00000000e-08, 1.57092436e+08, 1.00000000e-08, 2.93916946e+08, 1.00000000e-08, 4.67783347e+07, 1.00000000e-08, 2.25401123e+01 , 1, .250, SKY130
 1.50000000e-08, 3.24223625e-07, 1.50000000e-08, 1.50428182e-08, 1.50000000e-08, 7.96895799e-16, 1.50000000e-08 -4.27719136e-16, 1.50000000e-08, 3.84953281e-19, 1.50000000e-08, 2.07236167e-16, 1.50000000e-08, 3.10572547e-16, 1.50000000e-08 -1.27787044e-19, 1.50000000e-08, 9.38861453e-09, 1.50000000e-08, 9.33545961e-01, 1.50000000e-08, 4.26625860e-02, 1.50000000e-08, 7.46376097e-01, 1.50000000e-08, 7.46376092e-01, 1.50000000e-08, 1.06511988e+08, 1.50000000e-08, 4.06858243e+08, 1.50000000e-08, 6.47535005e+07, 1.50000000e-08, 2.15533831e+01 , 1, .250, SKY130
 2.00000000e-08, 4.19478332e-07, 2.00000000e-08, 2.00972991e-08, 2.00000000e-08, 8.20343294e-16, 2.00000000e-08 -4.59546965e-16, 2.00000000e-08, 4.16334747e-19, 2.00000000e-08, 2.21999044e-16, 2.00000000e-08, 3.32703663e-16, 2.00000000e-08 -1.39748423e-19, 2.00000000e-08, 1.23441726e-08, 2.00000000e-08, 9.33527889e-01, 2.00000000e-08, 4.32433592e-02, 2.00000000e-08, 7.59647207e-01, 2.00000000e-08, 7.59647201e-01, 2.00000000e-08, 8.10098848e+07, 2.00000000e-08, 5.11344866e+08, 2.00000000e-08, 8.13830631e+07, 2.00000000e-08, 2.08723735e+01 , 1, .250, SKY130
 2.50000000e-08, 5.10259479e-07, 2.50000000e-08, 2.50422972e-08, 2.50000000e-08, 8.39352389e-16, 2.50000000e-08 -4.85179962e-16, 2.50000000e-08, 4.41636638e-19, 2.50000000e-08, 2.33849202e-16, 2.50000000e-08, 3.50468563e-16, 2.50000000e-08 -1.49346635e-19, 2.50000000e-08, 1.51757643e-08, 2.50000000e-08, 9.33513780e-01, 2.50000000e-08, 4.37985585e-02, 2.50000000e-08, 7.70008260e-01, 2.50000000e-08, 7.70008253e-01, 2.50000000e-08, 6.58945396e+07, 2.50000000e-08, 6.07920447e+08, 2.50000000e-08, 9.67535441e+07, 2.50000000e-08, 2.03759054e+01 , 1, .250, SKY130
 3.00000000e-08, 5.99849593e-07, 3.00000000e-08, 3.00149152e-08, 3.00000000e-08, 8.55782005e-16, 3.00000000e-08 -5.07226078e-16, 3.00000000e-08, 4.63414220e-19, 3.00000000e-08, 2.44014005e-16, 3.00000000e-08, 3.65707077e-16, 3.00000000e-08 -1.57573091e-19, 3.00000000e-08, 1.79708963e-08, 3.00000000e-08, 9.33501911e-01, 3.00000000e-08, 4.43453341e-02, 3.00000000e-08, 7.78724405e-01, 3.00000000e-08, 7.78724396e-01, 3.00000000e-08, 5.56455271e+07, 3.00000000e-08, 7.00937376e+08, 3.00000000e-08, 1.11557648e+08, 3.00000000e-08, 1.99850504e+01 , 1, .250, SKY130
 3.50000000e-08, 6.88538563e-07, 3.50000000e-08, 3.50083194e-08, 3.50000000e-08, 8.70283850e-16, 3.50000000e-08 -5.26609454e-16, 3.50000000e-08, 4.82571435e-19, 3.50000000e-08, 2.52930890e-16, 3.50000000e-08, 3.79074914e-16, 3.50000000e-08 -1.64781739e-19, 3.50000000e-08, 2.07303986e-08, 3.50000000e-08, 9.33491649e-01, 3.50000000e-08, 4.48838378e-02, 3.50000000e-08, 7.86260599e-01, 3.50000000e-08, 7.86260589e-01, 3.50000000e-08, 4.82383391e+07, 3.50000000e-08, 7.91165506e+08, 3.50000000e-08, 1.25917901e+08, 3.50000000e-08, 1.96678553e+01 , 1, .250, SKY130
 4.00000000e-08, 7.76299275e-07, 4.00000000e-08, 4.00051846e-08, 4.00000000e-08, 8.83250182e-16, 4.00000000e-08 -5.43884747e-16, 4.00000000e-08, 4.99651348e-19, 4.00000000e-08, 2.60862381e-16, 4.00000000e-08, 3.90965592e-16, 4.00000000e-08 -1.71185698e-19, 4.00000000e-08, 2.34485589e-08, 4.00000000e-08, 9.33482621e-01, 4.00000000e-08, 4.54129760e-02, 4.00000000e-08, 7.92890556e-01, 4.00000000e-08, 7.92890544e-01, 4.00000000e-08, 4.26465441e+07, 4.00000000e-08, 8.78912103e+08, 4.00000000e-08, 1.39883206e+08, 4.00000000e-08, 1.94049667e+01 , 1, .250, SKY130
 4.50000000e-08, 8.63289291e-07, 4.50000000e-08, 4.50032052e-08, 4.50000000e-08, 8.94984634e-16, 4.50000000e-08 -5.59476418e-16, 4.50000000e-08, 5.15070515e-19, 4.50000000e-08, 2.68008449e-16, 4.50000000e-08, 4.01678867e-16, 4.50000000e-08 -1.76947629e-19, 4.50000000e-08, 2.61274475e-08, 4.50000000e-08, 9.33474555e-01, 4.50000000e-08, 4.59331917e-02, 4.50000000e-08, 7.98813428e-01, 4.50000000e-08, 7.98813414e-01, 4.50000000e-08, 3.82739262e+07, 4.50000000e-08, 9.64585601e+08, 4.50000000e-08, 1.53518566e+08, 4.50000000e-08, 1.91828402e+01 , 1, .250, SKY130
 5.00000000e-08, 9.49642984e-07, 5.00000000e-08, 5.00020009e-08, 5.00000000e-08, 9.05708643e-16, 5.00000000e-08 -5.73692295e-16, 5.00000000e-08, 5.29131420e-19, 5.00000000e-08, 2.74513812e-16, 5.00000000e-08, 4.11431674e-16, 5.00000000e-08 -1.82185449e-19, 5.00000000e-08, 2.87696424e-08, 5.00000000e-08, 9.33467262e-01, 5.00000000e-08, 4.64450315e-02, 5.00000000e-08, 8.04169702e-01, 5.00000000e-08, 8.04169687e-01, 5.00000000e-08, 3.47588610e+07, 5.00000000e-08, 1.04850825e+09, 5.00000000e-08, 1.66875271e+08, 5.00000000e-08, 1.89920997e+01 , 1, .250, SKY130
 5.50000000e-08, 1.03545715e-06, 5.50000000e-08, 5.50012339e-08, 5.50000000e-08, 9.15586855e-16, 5.50000000e-08 -5.86760313e-16, 5.50000000e-08, 5.42058268e-19, 5.50000000e-08, 2.80485460e-16, 5.50000000e-08, 4.20384396e-16, 5.50000000e-08 -1.86986465e-19, 5.50000000e-08, 3.13773303e-08, 5.50000000e-08, 9.33460601e-01, 5.50000000e-08, 4.69489674e-02, 5.50000000e-08, 8.09061171e-01, 5.50000000e-08, 8.09061155e-01, 5.50000000e-08, 3.18701429e+07, 5.50000000e-08, 1.13092182e+09, 5.50000000e-08, 1.79991797e+08, 5.50000000e-08, 1.88260713e+01 , 1, .250, SKY130
 6.00000000e-08, 1.12080487e-06, 6.00000000e-08, 6.00007218e-08, 6.00000000e-08, 9.24745656e-16, 6.00000000e-08 -5.98854787e-16, 6.00000000e-08, 5.54022677e-19, 6.00000000e-08, 2.86005095e-16, 6.00000000e-08, 4.28659504e-16, 6.00000000e-08 -1.91417426e-19, 6.00000000e-08, 3.39524633e-08, 6.00000000e-08, 9.33454469e-01, 6.00000000e-08, 4.74454251e-02, 6.00000000e-08, 8.13564180e-01, 6.00000000e-08, 8.13564163e-01, 6.00000000e-08, 2.94529440e+07, 6.00000000e-08, 1.21201420e+09, 6.00000000e-08, 1.92898052e+08, 6.00000000e-08, 1.86798564e+01 , 1, .250, SKY130
 6.50000000e-08, 1.20574196e-06, 6.50000000e-08, 6.50003655e-08, 6.50000000e-08, 9.33284369e-16, 6.50000000e-08 -6.10112259e-16, 6.50000000e-08, 5.65159184e-19, 6.50000000e-08, 2.91136624e-16, 6.50000000e-08, 4.36352803e-16, 6.50000000e-08 -1.95530599e-19, 6.50000000e-08, 3.64967863e-08, 6.50000000e-08, 9.33448787e-01, 6.50000000e-08, 4.79347889e-02, 6.50000000e-08, 8.17737504e-01, 6.50000000e-08, 8.17737485e-01, 6.50000000e-08, 2.73996727e+07, 6.50000000e-08, 1.29193416e+09, 6.50000000e-08, 2.05617708e+08, 6.50000000e-08, 1.85497720e+01 , 1, .250, SKY130
 7.00000000e-08, 1.29031145e-06, 7.00000000e-08, 7.00001091e-08, 7.00000000e-08, 9.41282599e-16, 7.00000000e-08 -6.20641840e-16, 7.00000000e-08, 5.75575373e-19, 7.00000000e-08, 2.95931055e-16, 7.00000000e-08, 4.43540752e-16, 7.00000000e-08 -1.99367733e-19, 7.00000000e-08, 3.90118641e-08, 7.00000000e-08, 9.33443490e-01, 7.00000000e-08, 4.84174061e-02, 7.00000000e-08, 8.21627384e-01, 7.00000000e-08, 8.21627363e-01, 7.00000000e-08, 2.56332278e+07, 7.00000000e-08, 1.37080134e+09, 7.00000000e-08, 2.18169810e+08, 7.00000000e-08, 1.84329920e+01 , 1, .250, SKY130
 7.50000000e-08, 1.37454682e-06, 7.50000000e-08, 7.49999214e-08, 7.50000000e-08, 9.48805215e-16, 7.50000000e-08 -6.30532211e-16, 7.50000000e-08, 5.85358740e-19, 7.50000000e-08, 3.00429793e-16, 7.50000000e-08, 4.50285422e-16, 7.50000000e-08 -2.02962742e-19, 7.50000000e-08, 4.14991074e-08, 7.50000000e-08, 9.33438529e-01, 7.50000000e-08, 4.88935922e-02, 7.50000000e-08, 8.25270880e-01, 7.50000000e-08, 8.25270858e-01, 7.50000000e-08, 2.40969038e+07, 7.50000000e-08, 1.44871339e+09, 7.50000000e-08, 2.30569897e+08, 7.50000000e-08, 1.83273101e+01 , 1, .250, SKY130
 8.00000000e-08, 1.45847422e-06, 8.00000000e-08, 7.99997796e-08, 8.00000000e-08, 9.55905833e-16, 8.00000000e-08 -6.39856489e-16, 8.00000000e-08, 5.94581469e-19, 8.00000000e-08, 3.04666940e-16, 8.00000000e-08, 4.56637935e-16, 8.00000000e-08 -2.06343576e-19, 8.00000000e-08, 4.39597924e-08, 8.00000000e-08, 9.33433862e-01, 8.00000000e-08, 4.93636345e-02, 8.00000000e-08, 8.28698162e-01, 8.00000000e-08, 8.28698139e-01, 8.00000000e-08, 2.27480601e+07, 8.00000000e-08, 1.52575093e+09, 8.00000000e-08, 2.42830803e+08, 8.00000000e-08, 1.82309779e+01 , 1, .250, SKY130
 8.50000000e-08, 1.54211429e-06, 8.50000000e-08, 8.49996698e-08, 8.50000000e-08, 9.62629324e-16, 8.50000000e-08 -6.48675736e-16, 8.50000000e-08, 6.03303872e-19, 8.50000000e-08, 3.08670946e-16, 8.50000000e-08, 4.62640938e-16, 8.50000000e-08 -2.09533560e-19, 8.50000000e-08, 4.63950817e-08, 8.50000000e-08, 9.33429455e-01, 8.50000000e-08, 4.98277962e-02, 8.50000000e-08, 8.31934133e-01, 8.50000000e-08, 8.31934109e-01, 8.50000000e-08, 2.15540088e+07, 8.50000000e-08, 1.60198142e+09, 8.50000000e-08, 2.54963262e+08, 8.50000000e-08, 1.81425916e+01 , 1, .250, SKY130
 9.00000000e-08, 1.62548345e-06, 9.00000000e-08, 8.99995833e-08, 9.00000000e-08, 9.69013649e-16, 9.00000000e-08 -6.57041503e-16, 9.00000000e-08, 6.11576893e-19, 9.00000000e-08, 3.12465806e-16, 9.00000000e-08, 4.68330401e-16, 9.00000000e-08 -2.12552375e-19, 9.00000000e-08, 4.88060400e-08, 9.00000000e-08, 9.33425281e-01, 9.00000000e-08, 5.02863195e-02, 9.00000000e-08, 8.34999595e-01, 9.00000000e-08, 8.34999569e-01, 9.00000000e-08, 2.04892673e+07, 9.00000000e-08, 1.67746187e+09, 9.00000000e-08, 2.66976348e+08, 9.00000000e-08, 1.80610108e+01 , 1, .250, SKY130
