 isweep, gm, i_id, id, i_cgg, cgg, i_cgs, cgs, i_cgd, cgd, i_cds, cds, i_css, css, i_cdd, cdd, i_gds, gds, i_vth, vth, i_vdsat, vdsat, i_vgs, vgs, i_vds, vds, i_rds, rds, i_wt, wt, i_ft, ft, i_gm_id, gm_id, W, L, pdk
 1.00000000e-09, 1.59408489e-08, 1.00000000e-09, 9.99653980e-10, 1.00000000e-09, 5.47255374e-16, 1.00000000e-09 -6.44363068e-17, 1.00000000e-09, 5.33009053e-18, 1.00000000e-09, 4.20116600e-17, 1.00000000e-09, 6.28514890e-17, 1.00000000e-09 -3.47630108e-18, 1.00000000e-09, 2.08032989e-09, 1.00000000e-09, 7.57901744e-01, 1.00000000e-09, 4.05776029e-02, 1.00000000e-09, 3.46219992e-01, 1.00000000e-09, 3.46219992e-01, 1.00000000e-09, 4.80692991e+08, 1.00000000e-09, 2.91287207e+07, 1.00000000e-09, 4.63597989e+06, 1.00000000e-09, 1.59463667e+01 , 1, .150, SKY130
 1.50000000e-09, 2.34741230e-08, 1.50000000e-09, 1.50499204e-09, 1.50000000e-09, 5.53383406e-16, 1.50000000e-09 -7.67824808e-17, 1.50000000e-09, 6.39861087e-18, 1.50000000e-09, 4.99076113e-17, 1.50000000e-09, 7.46769488e-17, 1.50000000e-09 -4.16337322e-18, 1.50000000e-09, 3.05018908e-09, 1.50000000e-09, 7.54984446e-01, 1.50000000e-09, 4.06420603e-02, 1.50000000e-09, 3.69186881e-01, 1.50000000e-09, 3.69186881e-01, 1.50000000e-09, 3.27848528e+08, 1.50000000e-09, 4.24192753e+07, 1.50000000e-09, 6.75123735e+06, 1.50000000e-09, 1.55975064e+01 , 1, .150, SKY130
 2.00000000e-09, 3.10230854e-08, 2.00000000e-09, 2.01245318e-09, 2.00000000e-09, 5.58750579e-16, 2.00000000e-09 -8.69747380e-17, 2.00000000e-09, 7.28295561e-18, 2.00000000e-09, 5.63965891e-17, 2.00000000e-09, 8.43961816e-17, 2.00000000e-09 -4.72924512e-18, 2.00000000e-09, 4.01879781e-09, 2.00000000e-09, 7.52877012e-01, 2.00000000e-09, 4.07060403e-02, 2.00000000e-09, 3.85777982e-01, 2.00000000e-09, 3.85777982e-01, 2.00000000e-09, 2.48830632e+08, 2.00000000e-09, 5.55222430e+07, 2.00000000e-09, 8.83663942e+06, 2.00000000e-09, 1.54155564e+01 , 1, .150, SKY130
 2.50000000e-09, 3.83590941e-08, 2.50000000e-09, 2.50555736e-09, 2.50000000e-09, 5.63409892e-16, 2.50000000e-09 -9.55096809e-17, 2.50000000e-09, 8.02495575e-18, 2.50000000e-09, 6.18124215e-17, 2.50000000e-09, 9.25085665e-17, 2.50000000e-09 -5.20239434e-18, 2.50000000e-09, 4.95786378e-09, 2.50000000e-09, 7.51272347e-01, 2.50000000e-09, 4.07677267e-02, 2.50000000e-09, 3.98410964e-01, 2.50000000e-09, 3.98410963e-01, 2.50000000e-09, 2.01699773e+08, 2.50000000e-09, 6.80838136e+07, 2.50000000e-09, 1.08358755e+07, 2.50000000e-09, 1.53096052e+01 , 1, .150, SKY130
 3.00000000e-09, 4.57462506e-08, 3.00000000e-09, 3.00166144e-09, 3.00000000e-09, 5.67669532e-16, 3.00000000e-09 -1.03121583e-16, 3.00000000e-09, 8.68776207e-18, 3.00000000e-09, 6.66299381e-17, 3.00000000e-09, 9.97250686e-17, 3.00000000e-09 -5.62391934e-18, 3.00000000e-09, 5.90178633e-09, 3.00000000e-09, 7.49941765e-01, 3.00000000e-09, 4.08294154e-02, 3.00000000e-09, 4.08886181e-01, 3.00000000e-09, 4.08886180e-01, 3.00000000e-09, 1.69440224e+08, 3.00000000e-09, 8.05860594e+07, 3.00000000e-09, 1.28256697e+07, 3.00000000e-09, 1.52403099e+01 , 1, .150, SKY130
 3.50000000e-09, 5.31874306e-08, 3.50000000e-09, 3.50077074e-09, 3.50000000e-09, 5.71606856e-16, 3.50000000e-09 -1.10027437e-16, 3.50000000e-09, 9.28990367e-18, 3.50000000e-09, 7.09910461e-17, 3.50000000e-09, 1.06258124e-16, 3.50000000e-09 -6.00602184e-18, 3.50000000e-09, 6.85123298e-09, 3.50000000e-09, 7.48804325e-01, 3.50000000e-09, 4.08911603e-02, 3.50000000e-09, 4.17840856e-01, 3.50000000e-09, 4.17840855e-01, 3.50000000e-09, 1.45959129e+08, 3.50000000e-09, 9.30489725e+07, 3.50000000e-09, 1.48092039e+07, 3.50000000e-09, 1.51930631e+01 , 1, .150, SKY130
 4.00000000e-09, 6.06465861e-08, 4.00000000e-09, 4.00037001e-09, 4.00000000e-09, 5.75259572e-16, 4.00000000e-09 -1.16340741e-16, 4.00000000e-09, 9.84102640e-18, 4.00000000e-09, 7.49704602e-17, 4.00000000e-09, 1.12219573e-16, 4.00000000e-09 -6.35509589e-18, 4.00000000e-09, 7.80182012e-09, 4.00000000e-09, 7.47815092e-01, 4.00000000e-09, 4.09526843e-02, 4.00000000e-09, 4.25628752e-01, 4.00000000e-09, 4.25628751e-01, 4.00000000e-09, 1.28175219e+08, 4.00000000e-09, 1.05424732e+08, 4.00000000e-09, 1.67788672e+07, 4.00000000e-09, 1.51602442e+01 , 1, .150, SKY130
 4.50000000e-09, 6.81191081e-08, 4.50000000e-09, 4.50010131e-09, 4.50000000e-09, 5.78670043e-16, 4.50000000e-09 -1.22165575e-16, 4.50000000e-09, 1.03500345e-17, 4.50000000e-09, 7.86359445e-17, 4.50000000e-09, 1.17710873e-16, 4.50000000e-09 -6.67697281e-18, 4.50000000e-09, 8.75312651e-09, 4.50000000e-09, 7.46940489e-01, 4.50000000e-09, 4.10139678e-02, 4.50000000e-09, 4.32514205e-01, 4.50000000e-09, 4.32514203e-01, 4.50000000e-09, 1.14244893e+08, 4.50000000e-09, 1.17716666e+08, 4.50000000e-09, 1.87351892e+07, 4.50000000e-09, 1.51372388e+01 , 1, .150, SKY130
 5.00000000e-09, 7.56049271e-08, 5.00000000e-09, 4.99993415e-09, 5.00000000e-09, 5.81872741e-16, 5.00000000e-09 -1.27581617e-16, 5.00000000e-09, 1.08237572e-17, 5.00000000e-09, 8.20392023e-17, 5.00000000e-09, 1.22809442e-16, 5.00000000e-09 -6.97610850e-18, 5.00000000e-09, 9.70527025e-09, 5.00000000e-09, 7.46156829e-01, 5.00000000e-09, 4.10750248e-02, 5.00000000e-09, 4.38683690e-01, 5.00000000e-09, 4.38683688e-01, 5.00000000e-09, 1.03036801e+08, 5.00000000e-09, 1.29933784e+08, 5.00000000e-09, 2.06796040e+07, 5.00000000e-09, 1.51211846e+01 , 1, .150, SKY130
 5.50000000e-09, 8.31036189e-08, 5.50000000e-09, 5.49982716e-09, 5.50000000e-09, 5.84894667e-16, 5.50000000e-09 -1.32649150e-16, 5.50000000e-09, 1.12673664e-17, 5.50000000e-09, 8.52192831e-17, 5.50000000e-09, 1.27573751e-16, 5.50000000e-09 -7.25587076e-18, 5.50000000e-09, 1.06582968e-08, 5.50000000e-09, 7.45447111e-01, 5.50000000e-09, 4.11358631e-02, 5.50000000e-09, 4.44271056e-01, 5.50000000e-09, 4.44271054e-01, 5.50000000e-09, 9.38236213e+07, 5.50000000e-09, 1.42083051e+08, 5.50000000e-09, 2.26132199e+07, 5.50000000e-09, 1.51102237e+01 , 1, .150, SKY130
 6.00000000e-09, 9.06148675e-08, 6.00000000e-09, 5.99975399e-09, 6.00000000e-09, 5.87757562e-16, 6.00000000e-09 -1.37415283e-16, 6.00000000e-09, 1.16849075e-17, 6.00000000e-09, 8.82066498e-17, 6.00000000e-09, 1.32049418e-16, 6.00000000e-09 -7.51888891e-18, 6.00000000e-09, 1.16122458e-08, 6.00000000e-09, 7.44798688e-01, 6.00000000e-09, 4.11964896e-02, 6.00000000e-09, 4.49375868e-01, 6.00000000e-09, 4.49375866e-01, 6.00000000e-09, 8.61159865e+07, 6.00000000e-09, 1.54170483e+08, 6.00000000e-09, 2.45369945e+07, 6.00000000e-09, 1.51030972e+01 , 1, .150, SKY130
 6.50000000e-09, 9.81384966e-08, 6.50000000e-09, 6.49970235e-09, 6.50000000e-09, 5.90479255e-16, 6.50000000e-09 -1.41917679e-16, 6.50000000e-09, 1.20796179e-17, 6.50000000e-09, 9.10256184e-17, 6.50000000e-09, 1.36272857e-16, 6.50000000e-09 -7.76726339e-18, 6.50000000e-09, 1.25671603e-08, 6.50000000e-09, 7.44201893e-01, 6.50000000e-09, 4.12569108e-02, 6.50000000e-09, 4.54074233e-01, 6.50000000e-09, 4.54074231e-01, 6.50000000e-09, 7.95724712e+07, 6.50000000e-09, 1.66201430e+08, 6.50000000e-09, 2.64517791e+07, 6.50000000e-09, 1.50989217e+01 , 1, .150, SKY130
 7.00000000e-09, 1.05674362e-07, 7.00000000e-09, 6.99966515e-09, 7.00000000e-09, 5.93074551e-16, 7.00000000e-09 -1.46186957e-16, 7.00000000e-09, 1.24541318e-17, 7.00000000e-09, 9.36959300e-17, 7.00000000e-09, 1.40273631e-16, 7.00000000e-09 -8.00270066e-18, 7.00000000e-09, 1.35230764e-08, 7.00000000e-09, 7.43649175e-01, 7.00000000e-09, 4.13171325e-02, 7.00000000e-09, 4.58425588e-01, 7.00000000e-09, 4.58425586e-01, 7.00000000e-09, 7.39476705e+07, 7.00000000e-09, 1.78180571e+08, 7.00000000e-09, 2.83583186e+07, 7.00000000e-09, 1.50970596e+01 , 1, .150, SKY130
 7.50000000e-09, 1.13222304e-07, 7.50000000e-09, 7.49963633e-09, 7.50000000e-09, 5.95555889e-16, 7.50000000e-09 -1.50248381e-16, 7.50000000e-09, 1.28106240e-17, 7.50000000e-09, 9.62338513e-17, 7.50000000e-09, 1.44076101e-16, 7.50000000e-09 -8.22660783e-18, 7.50000000e-09, 1.44800200e-08, 7.50000000e-09, 7.43134530e-01, 7.50000000e-09, 4.13771593e-02, 7.50000000e-09, 4.62477220e-01, 7.50000000e-09, 4.62477218e-01, 7.50000000e-09, 6.90606781e+07, 7.50000000e-09, 1.90111971e+08, 7.50000000e-09, 3.02572599e+07, 7.50000000e-09, 1.50970392e+01 , 1, .150, SKY130
 8.00000000e-09, 1.20782208e-07, 8.00000000e-09, 7.99961415e-09, 8.00000000e-09, 5.97933856e-16, 8.00000000e-09 -1.54123104e-16, 8.00000000e-09, 1.31509173e-17, 8.00000000e-09, 9.86529862e-17, 8.00000000e-09, 1.47700641e-16, 8.00000000e-09 -8.44016248e-18, 8.00000000e-09, 1.54380158e-08, 8.00000000e-09, 7.42653095e-01, 8.00000000e-09, 4.14369958e-02, 8.00000000e-09, 4.66267389e-01, 8.00000000e-09, 4.66267387e-01, 8.00000000e-09, 6.47751637e+07, 8.00000000e-09, 2.01999280e+08, 8.00000000e-09, 3.21491839e+07, 8.00000000e-09, 1.50985043e+01 , 1, .150, SKY130
 8.50000000e-09, 1.28353933e-07, 8.50000000e-09, 8.49959598e-09, 8.50000000e-09, 6.00217527e-16, 8.50000000e-09 -1.57829013e-16, 8.50000000e-09, 1.34765536e-17, 8.50000000e-09, 1.00964825e-16, 8.50000000e-09, 1.51164459e-16, 8.50000000e-09 -8.64435984e-18, 8.50000000e-09, 1.63970798e-08, 8.50000000e-09, 7.42200888e-01, 8.50000000e-09, 4.14966457e-02, 8.50000000e-09, 4.69827464e-01, 8.50000000e-09, 4.69827462e-01, 8.50000000e-09, 6.09864692e+07, 8.50000000e-09, 2.13845693e+08, 8.50000000e-09, 3.40345991e+07, 8.50000000e-09, 1.51011805e+01 , 1, .150, SKY130
 9.00000000e-09, 1.35937364e-07, 9.00000000e-09, 8.99958166e-09, 9.00000000e-09, 6.02414769e-16, 9.00000000e-09 -1.61381411e-16, 9.00000000e-09, 1.37888534e-17, 9.00000000e-09, 1.03179189e-16, 9.00000000e-09, 1.54482265e-16, 9.00000000e-09 -8.84005104e-18, 9.00000000e-09, 1.73572271e-08, 9.00000000e-09, 7.41774597e-01, 9.00000000e-09, 4.15561126e-02, 9.00000000e-09, 4.73183503e-01, 9.00000000e-09, 4.73183500e-01, 9.00000000e-09, 5.76128890e+07, 9.00000000e-09, 2.25654102e+08, 9.00000000e-09, 3.59139657e+07, 9.00000000e-09, 1.51048536e+01 , 1, .150, SKY130
 9.50000000e-09, 1.43532373e-07, 9.50000000e-09, 9.49957059e-09, 9.50000000e-09, 6.04532441e-16, 9.50000000e-09 -1.64793492e-16, 9.50000000e-09, 1.40889556e-17, 9.50000000e-09, 1.05304536e-16, 9.50000000e-09, 1.57666725e-16, 9.50000000e-09 -9.02796960e-18, 9.50000000e-09, 1.83184678e-08, 9.50000000e-09, 7.41371446e-01, 9.50000000e-09, 4.16153996e-02, 9.50000000e-09, 4.76357372e-01, 9.50000000e-09, 4.76357369e-01, 9.50000000e-09, 5.45897186e+07, 9.50000000e-09, 2.37427082e+08, 9.50000000e-09, 3.77876938e+07, 9.50000000e-09, 1.51093539e+01 , 1, .150, SKY130
 1.00000000e-08, 1.51141690e-07, 1.00000000e-08, 9.99974997e-09, 1.00000000e-08, 6.06577320e-16, 1.00000000e-08 -1.68077938e-16, 1.00000000e-08, 1.43779575e-17, 1.00000000e-08, 1.07348967e-16, 1.00000000e-08, 1.60729974e-16, 1.00000000e-08 -9.20881961e-18, 1.00000000e-08, 1.92811698e-08, 1.00000000e-08, 7.40988941e-01, 1.00000000e-08, 4.16745318e-02, 1.00000000e-08, 4.79368706e-01, 1.00000000e-08, 4.79368703e-01, 1.00000000e-08, 5.18640732e+07, 1.00000000e-08, 2.49171351e+08, 1.00000000e-08, 3.96568521e+07, 1.00000000e-08, 1.51145469e+01 , 1, .150, SKY130
 1.50000000e-08, 2.28851476e-07, 1.50000000e-08, 1.50674004e-08, 1.50000000e-08, 6.24112568e-16, 1.50000000e-08 -1.95883536e-16, 1.50000000e-08, 1.68292955e-17, 1.50000000e-08, 1.24603786e-16, 1.50000000e-08, 1.86584523e-16, 1.50000000e-08 -1.07384121e-17, 1.50000000e-08, 2.90968334e-08, 1.50000000e-08, 7.37939242e-01, 1.50000000e-08, 4.22641558e-02, 1.50000000e-08, 5.03377947e-01, 1.50000000e-08, 5.03377943e-01, 1.50000000e-08, 3.43680011e+07, 1.50000000e-08, 3.66683011e+08, 1.50000000e-08, 5.83594137e+07, 1.50000000e-08, 1.51885176e+01 , 1, .150, SKY130
 2.00000000e-08, 3.08046911e-07, 2.00000000e-08, 2.01643082e-08, 2.00000000e-08, 6.37796888e-16, 2.00000000e-08 -2.17219900e-16, 2.00000000e-08, 1.87156027e-17, 2.00000000e-08, 1.37783709e-16, 2.00000000e-08, 2.06334352e-16, 2.00000000e-08 -1.19104752e-17, 2.00000000e-08, 3.90789068e-08, 2.00000000e-08, 7.35782929e-01, 2.00000000e-08, 4.28410496e-02, 2.00000000e-08, 5.20353862e-01, 2.00000000e-08, 5.20353856e-01, 2.00000000e-08, 2.55892521e+07, 2.00000000e-08, 4.82985911e+08, 2.00000000e-08, 7.68695952e+07, 2.00000000e-08, 1.52768401e+01 , 1, .150, SKY130
 2.50000000e-08, 3.85240802e-07, 2.50000000e-08, 2.50763798e-08, 2.50000000e-08, 6.48631516e-16, 2.50000000e-08 -2.33935302e-16, 2.50000000e-08, 2.01963341e-17, 2.50000000e-08, 1.48074875e-16, 2.50000000e-08, 2.21756035e-16, 2.50000000e-08 -1.28277498e-17, 2.50000000e-08, 4.87947869e-08, 2.50000000e-08, 7.34178513e-01, 2.50000000e-08, 4.33830376e-02, 2.50000000e-08, 5.32984886e-01, 2.50000000e-08, 5.32984879e-01, 2.50000000e-08, 2.04939926e+07, 2.50000000e-08, 5.93928591e+08, 2.50000000e-08, 9.45266710e+07, 2.50000000e-08, 1.53626961e+01 , 1, .150, SKY130
 3.00000000e-08, 4.63757683e-07, 3.00000000e-08, 3.00239646e-08, 3.00000000e-08, 6.57922126e-16, 3.00000000e-08 -2.48162580e-16, 3.00000000e-08, 2.14585807e-17, 3.00000000e-08, 1.56811425e-16, 3.00000000e-08, 2.34848454e-16, 3.00000000e-08 -1.36078496e-17, 3.00000000e-08, 5.86668083e-08, 3.00000000e-08, 7.32860448e-01, 3.00000000e-08, 4.39161128e-02, 3.00000000e-08, 5.43361565e-01, 3.00000000e-08, 5.43361556e-01, 3.00000000e-08, 1.70454134e+07, 3.00000000e-08, 7.04882333e+08, 3.00000000e-08, 1.12185508e+08, 3.00000000e-08, 1.54462507e+01 , 1, .150, SKY130
 3.50000000e-08, 5.43626292e-07, 3.50000000e-08, 3.50132614e-08, 3.50000000e-08, 6.66069834e-16, 3.50000000e-08 -2.60568488e-16, 3.50000000e-08, 2.25606143e-17, 3.50000000e-08, 1.64412933e-16, 3.50000000e-08, 2.46240198e-16, 3.50000000e-08 -1.42876107e-17, 3.50000000e-08, 6.87004254e-08, 3.50000000e-08, 7.31740998e-01, 3.50000000e-08, 4.44415410e-02, 3.50000000e-08, 5.52174616e-01, 3.50000000e-08, 5.52174606e-01, 3.50000000e-08, 1.45559506e+07, 3.50000000e-08, 8.16170113e+08, 3.50000000e-08, 1.29897508e+08, 3.50000000e-08, 1.55262969e+01 , 1, .150, SKY130
 4.00000000e-08, 6.24211840e-07, 4.00000000e-08, 4.00088778e-08, 4.00000000e-08, 6.73280225e-16, 4.00000000e-08 -2.71496996e-16, 4.00000000e-08, 2.35324329e-17, 4.00000000e-08, 1.71096650e-16, 4.00000000e-08, 2.56256733e-16, 4.00000000e-08 -1.48860592e-17, 4.00000000e-08, 7.88172111e-08, 4.00000000e-08, 7.30774548e-01, 4.00000000e-08, 4.49562169e-02, 4.00000000e-08, 5.59783155e-01, 4.00000000e-08, 5.59783144e-01, 4.00000000e-08, 1.26875842e+07, 4.00000000e-08, 9.27120413e+08, 4.00000000e-08, 1.47555797e+08, 4.00000000e-08, 1.56018333e+01 , 1, .150, SKY130
 4.50000000e-08, 7.05364535e-07, 4.50000000e-08, 4.50057495e-08, 4.50000000e-08, 6.79738081e-16, 4.50000000e-08 -2.81248046e-16, 4.50000000e-08, 2.44003301e-17, 4.50000000e-08, 1.77050488e-16, 4.50000000e-08, 2.65179597e-16, 4.50000000e-08 -1.54197449e-17, 4.50000000e-08, 8.89993838e-08, 4.50000000e-08, 7.29925684e-01, 4.50000000e-08, 4.54603046e-02, 4.50000000e-08, 5.66465974e-01, 4.50000000e-08, 5.66465961e-01, 4.50000000e-08, 1.12360328e+07, 4.50000000e-08, 1.03770048e+09, 4.50000000e-08, 1.65155161e+08, 4.50000000e-08, 1.56727650e+01 , 1, .150, SKY130
 5.00000000e-08, 7.87021876e-07, 5.00000000e-08, 5.00038078e-08, 5.00000000e-08, 6.85582566e-16, 5.00000000e-08 -2.90044911e-16, 5.00000000e-08, 2.51839166e-17, 5.00000000e-08, 1.82413908e-16, 5.00000000e-08, 2.73217743e-16, 5.00000000e-08 -1.59009762e-17, 5.00000000e-08, 9.92398757e-08, 5.00000000e-08, 7.29169384e-01, 5.00000000e-08, 4.59544274e-02, 5.00000000e-08, 5.72420069e-01, 5.00000000e-08, 5.72420055e-01, 5.00000000e-08, 1.00765946e+07, 5.00000000e-08, 1.14796075e+09, 5.00000000e-08, 1.82703628e+08, 5.00000000e-08, 1.57392389e+01 , 1, .150, SKY130
 5.50000000e-08, 8.69121440e-07, 5.50000000e-08, 5.50025876e-08, 5.50000000e-08, 6.90916900e-16, 5.50000000e-08 -2.98052021e-16, 5.50000000e-08, 2.58976516e-17, 5.50000000e-08, 1.87289435e-16, 5.50000000e-08, 2.80524790e-16, 5.50000000e-08 -1.63388129e-17, 5.50000000e-08, 1.09531456e-07, 5.50000000e-08, 7.28487851e-01, 5.50000000e-08, 4.64391094e-02, 5.50000000e-08, 5.77785546e-01, 5.50000000e-08, 5.77785530e-01, 5.50000000e-08, 9.12979736e+06, 5.50000000e-08, 1.25792471e+09, 5.50000000e-08, 2.00204935e+08, 5.50000000e-08, 1.58014646e+01 , 1, .150, SKY130
 6.00000000e-08, 9.51608965e-07, 6.00000000e-08, 6.00017778e-08, 6.00000000e-08, 6.95820293e-16, 6.00000000e-08 -3.05394762e-16, 6.00000000e-08, 2.65525729e-17, 6.00000000e-08, 1.91755117e-16, 6.00000000e-08, 2.87217680e-16, 6.00000000e-08 -1.67401603e-17, 6.00000000e-08, 1.19867797e-07, 6.00000000e-08, 7.27867928e-01, 6.00000000e-08, 4.69148396e-02, 6.00000000e-08, 5.82665992e-01, 6.00000000e-08, 5.82665975e-01, 6.00000000e-08, 8.34252423e+06, 6.00000000e-08, 1.36760738e+09, 6.00000000e-08, 2.17661474e+08, 6.00000000e-08, 1.58596795e+01 , 1, .150, SKY130
 6.50000000e-08, 1.03443764e-06, 6.50000000e-08, 6.50012184e-08, 6.50000000e-08, 7.00354930e-16, 6.50000000e-08 -3.12171042e-16, 6.50000000e-08, 2.71573083e-17, 6.50000000e-08, 1.95871805e-16, 6.50000000e-08, 2.93387592e-16, 6.50000000e-08 -1.71104079e-17, 6.50000000e-08, 1.30243415e-07, 6.50000000e-08, 7.27299612e-01, 6.50000000e-08, 4.73820764e-02, 6.50000000e-08, 5.87140158e-01, 6.50000000e-08, 5.87140139e-01, 6.50000000e-08, 7.67793137e+06, 6.50000000e-08, 1.47701915e+09, 6.50000000e-08, 2.35074898e+08, 6.50000000e-08, 1.59141270e+01 , 1, .150, SKY130
 7.00000000e-08, 1.11756619e-06, 7.00000000e-08, 7.00008192e-08, 7.00000000e-08, 7.04570513e-16, 7.00000000e-08 -3.18458751e-16, 7.00000000e-08, 2.77187274e-17, 7.00000000e-08, 1.99687841e-16, 7.00000000e-08, 2.99106964e-16, 7.00000000e-08 -1.74538416e-17, 7.00000000e-08, 1.40653454e-07, 7.00000000e-08, 7.26775127e-01, 7.00000000e-08, 4.78412453e-02, 7.00000000e-08, 5.91269254e-01, 7.00000000e-08, 5.91269234e-01, 7.00000000e-08, 7.10967256e+06, 7.00000000e-08, 1.58616657e+09, 7.00000000e-08, 2.52446250e+08, 7.00000000e-08, 1.59650445e+01 , 1, .150, SKY130
 7.50000000e-08, 1.20095781e-06, 7.50000000e-08, 7.50005269e-08, 7.50000000e-08, 7.08507391e-16, 7.50000000e-08 -3.24320865e-16, 7.50000000e-08, 2.82423891e-17, 7.50000000e-08, 2.03242264e-16, 7.50000000e-08, 3.04434289e-16, 7.50000000e-08 -1.77739255e-17, 7.50000000e-08, 1.51093566e-07, 7.50000000e-08, 7.26288314e-01, 7.50000000e-08, 4.82927395e-02, 7.50000000e-08, 5.95101768e-01, 7.50000000e-08, 5.95101747e-01, 7.50000000e-08, 6.61841550e+06, 7.50000000e-08, 1.69505333e+09, 7.50000000e-08, 2.69776116e+08, 7.50000000e-08, 1.60126583e+01 , 1, .150, SKY130
 8.00000000e-08, 1.28457944e-06, 8.00000000e-08, 8.00003088e-08, 8.00000000e-08, 7.12198767e-16, 8.00000000e-08 -3.29809023e-16, 8.00000000e-08, 2.87328548e-17, 8.00000000e-08, 2.06567045e-16, 8.00000000e-08, 3.09417478e-16, 8.00000000e-08 -1.80734989e-17, 8.00000000e-08, 1.61559834e-07, 8.00000000e-08, 7.25834214e-01, 8.00000000e-08, 4.87369223e-02, 8.00000000e-08, 5.98676749e-01, 8.00000000e-08, 5.98676726e-01, 8.00000000e-08, 6.18965725e+06, 8.00000000e-08, 1.80368107e+09, 8.00000000e-08, 2.87064758e+08, 8.00000000e-08, 1.60571810e+01 , 1, .150, SKY130
 8.50000000e-08, 1.36840117e-06, 8.50000000e-08, 8.50001413e-08, 8.50000000e-08, 7.15672293e-16, 8.50000000e-08 -3.34966090e-16, 8.50000000e-08, 2.91939134e-17, 8.50000000e-08, 2.09688697e-16, 8.50000000e-08, 3.14096258e-16, 8.50000000e-08 -1.83549181e-17, 8.50000000e-08, 1.72048705e-07, 8.50000000e-08, 7.25408775e-01, 8.50000000e-08, 4.91741298e-02, 8.50000000e-08, 6.02026091e-01, 8.50000000e-08, 6.02026066e-01, 8.50000000e-08, 5.81230761e+06, 8.50000000e-08, 1.91204995e+09, 8.50000000e-08, 3.04312201e+08, 8.50000000e-08, 1.60988106e+01 , 1, .150, SKY130
 9.00000000e-08, 1.45239599e-06, 9.00000000e-08, 9.00000114e-08, 9.00000000e-08, 7.18951241e-16, 9.00000000e-08 -3.39828042e-16, 9.00000000e-08, 2.96287469e-17, 9.00000000e-08, 2.12629448e-16, 9.00000000e-08, 3.18503938e-16, 9.00000000e-08 -1.86201600e-17, 9.00000000e-08, 1.82556959e-07, 9.00000000e-08, 7.25008645e-01, 9.00000000e-08, 4.96046739e-02, 9.00000000e-08, 6.05176176e-01, 9.00000000e-08, 6.05176150e-01, 9.00000000e-08, 5.47774243e+06, 9.00000000e-08, 2.02015923e+09, 9.00000000e-08, 3.21518327e+08, 9.00000000e-08, 1.61377311e+01 , 1, .150, SKY130
