 isweep, gm, i_id, id, i_cgg, cgg, i_cgs, cgs, i_cgd, cgd, i_cds, cds, i_css, css, i_cdd, cdd, i_gds, gds, i_vth, vth, i_vdsat, vdsat, i_vgs, vgs, i_vds, vds, i_rds, rds, i_wt, wt, i_ft, ft, i_gm_id, gm_id, W, L, pdk
 1.00000000e-09, 2.16961237e-08, 1.00000000e-09, 9.99527437e-10, 1.00000000e-09, 6.06310788e-16, 1.00000000e-09 -9.65131660e-17, 1.00000000e-09, 6.28569344e-18, 1.00000000e-09, 6.41519588e-17, 1.00000000e-09, 9.60579443e-17, 1.00000000e-09 -4.20971054e-18, 1.00000000e-09, 2.15504185e-09, 1.00000000e-09, 8.26565198e-01, 1.00000000e-09, 4.02535546e-02, 1.00000000e-09, 4.94914641e-01, 1.00000000e-09, 4.94914640e-01, 1.00000000e-09, 4.64028112e+08, 1.00000000e-09, 3.57838325e+07, 1.00000000e-09, 5.69517382e+06, 1.00000000e-09, 2.17063813e+01 , 1, .150, SKY130
 1.50000000e-09, 3.10730275e-08, 1.50000000e-09, 1.50365002e-09, 1.50000000e-09, 6.14517209e-16, 1.50000000e-09 -1.10881583e-16, 1.50000000e-09, 7.24694195e-18, 1.50000000e-09, 7.35149520e-17, 1.50000000e-09, 1.10086617e-16, 1.50000000e-09 -4.83865842e-18, 1.50000000e-09, 3.08352535e-09, 1.50000000e-09, 8.24853319e-01, 1.50000000e-09, 4.03325325e-02, 1.50000000e-09, 5.12459183e-01, 1.50000000e-09, 5.12459182e-01, 1.50000000e-09, 3.24304128e+08, 1.50000000e-09, 5.05649428e+07, 1.50000000e-09, 8.04766059e+06, 1.50000000e-09, 2.06650664e+01 , 1, .150, SKY130
 2.00000000e-09, 4.01650509e-08, 2.00000000e-09, 2.00900539e-09, 2.00000000e-09, 6.21400824e-16, 2.00000000e-09 -1.22619077e-16, 2.00000000e-09, 8.03348158e-18, 2.00000000e-09, 8.11371780e-17, 2.00000000e-09, 1.21507532e-16, 2.00000000e-09 -5.35162956e-18, 2.00000000e-09, 3.98266343e-09, 2.00000000e-09, 8.23587667e-01, 2.00000000e-09, 4.04111590e-02, 2.00000000e-09, 5.25430473e-01, 2.00000000e-09, 5.25430472e-01, 2.00000000e-09, 2.51088252e+08, 2.00000000e-09, 6.46363013e+07, 2.00000000e-09, 1.02871869e+07, 2.00000000e-09, 1.99925053e+01 , 1, .150, SKY130
 2.50000000e-09, 4.88945945e-08, 2.50000000e-09, 2.50375917e-09, 2.50000000e-09, 6.27285364e-16, 2.50000000e-09 -1.32480131e-16, 2.50000000e-09, 8.69510094e-18, 2.50000000e-09, 8.75241392e-17, 2.50000000e-09, 1.31077839e-16, 2.50000000e-09 -5.78207668e-18, 2.50000000e-09, 4.84505085e-09, 2.50000000e-09, 8.22598403e-01, 2.50000000e-09, 4.04877073e-02, 2.50000000e-09, 5.35569142e-01, 2.50000000e-09, 5.35569141e-01, 2.50000000e-09, 2.06396183e+08, 2.50000000e-09, 7.79463340e+07, 2.50000000e-09, 1.24055444e+07, 2.50000000e-09, 1.95284735e+01 , 1, .150, SKY130
 3.00000000e-09, 5.75629130e-08, 3.00000000e-09, 3.00107017e-09, 3.00000000e-09, 6.32580512e-16, 3.00000000e-09 -1.41242481e-16, 3.00000000e-09, 9.28358867e-18, 3.00000000e-09, 9.31874978e-17, 3.00000000e-09, 1.39564080e-16, 3.00000000e-09 -6.16419249e-18, 3.00000000e-09, 5.70062883e-09, 3.00000000e-09, 8.21767223e-01, 3.00000000e-09, 4.05642724e-02, 3.00000000e-09, 5.44087662e-01, 3.00000000e-09, 5.44087661e-01, 3.00000000e-09, 1.75419244e+08, 3.00000000e-09, 9.09969750e+07, 3.00000000e-09, 1.44826184e+07, 3.00000000e-09, 1.91807954e+01 , 1, .150, SKY130
 3.50000000e-09, 6.61967471e-08, 3.50000000e-09, 3.50039706e-09, 3.50000000e-09, 6.37413582e-16, 3.50000000e-09 -1.49162109e-16, 3.50000000e-09, 9.81592468e-18, 3.50000000e-09, 9.82969834e-17, 3.50000000e-09, 1.47220516e-16, 3.50000000e-09 -6.50927158e-18, 3.50000000e-09, 6.55214106e-09, 3.50000000e-09, 8.21049694e-01, 3.50000000e-09, 4.06407943e-02, 3.50000000e-09, 5.51441409e-01, 3.50000000e-09, 5.51441408e-01, 3.50000000e-09, 1.52621867e+08, 3.50000000e-09, 1.03852113e+08, 3.50000000e-09, 1.65285771e+07, 3.50000000e-09, 1.89112109e+01 , 1, .150, SKY130
 4.00000000e-09, 7.47903612e-08, 4.00000000e-09, 4.00007156e-09, 4.00000000e-09, 6.41859897e-16, 4.00000000e-09 -1.56390474e-16, 4.00000000e-09, 1.03021473e-17, 4.00000000e-09, 1.02953187e-16, 4.00000000e-09, 1.54197831e-16, 4.00000000e-09 -6.82400178e-18, 4.00000000e-09, 7.39910489e-09, 4.00000000e-09, 8.20419596e-01, 4.00000000e-09, 4.07170341e-02, 4.00000000e-09, 5.57899097e-01, 4.00000000e-09, 5.57899096e-01, 4.00000000e-09, 1.35151483e+08, 4.00000000e-09, 1.16521318e+08, 4.00000000e-09, 1.85449437e+07, 4.00000000e-09, 1.86972558e+01 , 1, .150, SKY130
 4.50000000e-09, 8.33552555e-08, 4.50000000e-09, 4.49986296e-09, 4.50000000e-09, 6.45984189e-16, 4.50000000e-09 -1.63051400e-16, 4.50000000e-09, 1.07504850e-17, 4.50000000e-09, 1.07237924e-16, 4.50000000e-09, 1.60618592e-16, 4.50000000e-09 -7.11383790e-18, 4.50000000e-09, 8.24272176e-09, 4.50000000e-09, 8.19857844e-01, 4.50000000e-09, 4.07929701e-02, 4.50000000e-09, 5.63656328e-01, 4.50000000e-09, 5.63656327e-01, 4.50000000e-09, 1.21319150e+08, 4.50000000e-09, 1.29036061e+08, 4.50000000e-09, 2.05367270e+07, 4.50000000e-09, 1.85239542e+01 , 1, .150, SKY130
 5.00000000e-09, 9.19013749e-08, 5.00000000e-09, 4.99973277e-09, 5.00000000e-09, 6.49835833e-16, 5.00000000e-09 -1.69237439e-16, 5.00000000e-09, 1.11670935e-17, 5.00000000e-09, 1.11212228e-16, 5.00000000e-09, 1.66574237e-16, 5.00000000e-09 -7.38285349e-18, 5.00000000e-09, 9.08402614e-09, 5.00000000e-09, 8.19350927e-01, 5.00000000e-09, 4.08686070e-02, 5.00000000e-09, 5.68851569e-01, 5.00000000e-09, 5.68851568e-01, 5.00000000e-09, 1.10083347e+08, 5.00000000e-09, 1.41422449e+08, 5.00000000e-09, 2.25080818e+07, 5.00000000e-09, 1.83812574e+01 , 1, .150, SKY130
 5.50000000e-09, 1.00435648e-07, 5.50000000e-09, 5.49964810e-09, 5.50000000e-09, 6.53452716e-16, 5.50000000e-09 -1.75018616e-16, 5.50000000e-09, 1.15566335e-17, 5.50000000e-09, 1.14922225e-16, 5.50000000e-09, 1.72133869e-16, 5.50000000e-09 -7.63412911e-18, 5.50000000e-09, 9.92374510e-09, 5.50000000e-09, 8.18889027e-01, 5.50000000e-09, 4.09439483e-02, 5.50000000e-09, 5.73585438e-01, 5.50000000e-09, 5.73585436e-01, 5.50000000e-09, 1.00768408e+08, 5.50000000e-09, 1.53699947e+08, 5.50000000e-09, 2.44621063e+07, 5.50000000e-09, 1.82621953e+01 , 1, .150, SKY130
 6.00000000e-09, 1.08963176e-07, 6.00000000e-09, 5.99959003e-09, 6.00000000e-09, 6.56864777e-16, 6.00000000e-09 -1.80449573e-16, 6.00000000e-09, 1.19227439e-17, 6.00000000e-09, 1.18403865e-16, 6.00000000e-09, 1.77351346e-16, 6.00000000e-09 -7.87006725e-18, 6.00000000e-09, 1.07624182e-08, 6.00000000e-09, 8.18464769e-01, 6.00000000e-09, 4.10189983e-02, 6.00000000e-09, 5.77933537e-01, 6.00000000e-09, 5.77933536e-01, 6.00000000e-09, 9.29159212e+07, 6.00000000e-09, 1.65883725e+08, 6.00000000e-09, 2.64012148e+07, 6.00000000e-09, 1.81617703e+01 , 1, .150, SKY130
 6.50000000e-09, 1.17487799e-07, 6.50000000e-09, 6.49954853e-09, 6.50000000e-09, 6.60096174e-16, 6.50000000e-09 -1.85573928e-16, 6.50000000e-09, 1.22683310e-17, 6.50000000e-09, 1.21685810e-16, 6.50000000e-09, 1.82269612e-16, 6.50000000e-09 -8.09258473e-18, 6.50000000e-09, 1.16004546e-08, 6.50000000e-09, 8.18072463e-01, 6.50000000e-09, 4.10937618e-02, 6.50000000e-09, 5.81954166e-01, 6.50000000e-09, 5.81954164e-01, 6.50000000e-09, 8.62035181e+07, 6.50000000e-09, 1.77985881e+08, 6.50000000e-09, 2.83273328e+07, 6.50000000e-09, 1.80763016e+01 , 1, .150, SKY130
 7.00000000e-09, 1.26012436e-07, 7.00000000e-09, 6.99951808e-09, 7.00000000e-09, 6.63166740e-16, 7.00000000e-09 -1.90427141e-16, 7.00000000e-09, 1.25957592e-17, 7.00000000e-09, 1.24791342e-16, 7.00000000e-09, 1.86923547e-16, 7.00000000e-09 -8.30323930e-18, 7.00000000e-09, 1.24381684e-08, 7.00000000e-09, 8.17707629e-01, 7.00000000e-09, 4.11682432e-02, 7.00000000e-09, 5.85693242e-01, 7.00000000e-09, 5.85693240e-01, 7.00000000e-09, 8.03976892e+07, 7.00000000e-09, 1.90016218e+08, 7.00000000e-09, 3.02420204e+07, 7.00000000e-09, 1.80030160e+01 , 1, .150, SKY130
 7.50000000e-09, 1.34539311e-07, 7.50000000e-09, 7.49949460e-09, 7.50000000e-09, 6.66092992e-16, 7.50000000e-09 -1.95038496e-16, 7.50000000e-09, 1.29069816e-17, 7.50000000e-09, 1.27739664e-16, 7.50000000e-09, 1.91341923e-16, 7.50000000e-09 -8.50331663e-18, 7.50000000e-09, 1.32758016e-08, 7.50000000e-09, 8.17366674e-01, 7.50000000e-09, 4.12424470e-02, 7.50000000e-09, 5.89187589e-01, 7.50000000e-09, 5.89187587e-01, 7.50000000e-09, 7.53250184e+07, 7.50000000e-09, 2.01982775e+08, 7.50000000e-09, 3.21465571e+07, 7.50000000e-09, 1.79397837e+01 , 1, .150, SKY130
 8.00000000e-09, 1.43070163e-07, 8.00000000e-09, 7.99947648e-09, 8.00000000e-09, 6.68888868e-16, 8.00000000e-09 -1.99432511e-16, 8.00000000e-09, 1.32036347e-17, 8.00000000e-09, 1.30546846e-16, 8.00000000e-09, 1.95548813e-16, 8.00000000e-09 -8.69389298e-18, 8.00000000e-09, 1.41135452e-08, 8.00000000e-09, 8.17046670e-01, 8.00000000e-09, 4.13163775e-02, 8.00000000e-09, 5.92467212e-01, 8.00000000e-09, 5.92467209e-01, 8.00000000e-09, 7.08539200e+07, 8.00000000e-09, 2.13892276e+08, 8.00000000e-09, 3.40420131e+07, 8.00000000e-09, 1.78849407e+01 , 1, .150, SKY130
 8.50000000e-09, 1.51606322e-07, 8.50000000e-09, 8.49946151e-09, 8.50000000e-09, 6.71566250e-16, 8.50000000e-09 -2.03629946e-16, 8.50000000e-09, 1.34871041e-17, 8.50000000e-09, 1.33226476e-16, 8.50000000e-09, 1.99564580e-16, 8.50000000e-09 -8.87587907e-18, 8.50000000e-09, 1.49515478e-08, 8.50000000e-09, 8.16745202e-01, 8.50000000e-09, 4.13900383e-02, 8.50000000e-09, 5.95556876e-01, 8.50000000e-09, 5.95556874e-01, 8.50000000e-09, 6.68827075e+07, 8.50000000e-09, 2.25750359e+08, 8.50000000e-09, 3.59292856e+07, 8.50000000e-09, 1.78371679e+01 , 1, .150, SKY130
 9.00000000e-09, 1.60148850e-07, 9.00000000e-09, 8.99944918e-09, 9.00000000e-09, 6.74135374e-16, 9.00000000e-09 -2.07648571e-16, 9.00000000e-09, 1.37585771e-17, 9.00000000e-09, 1.35790179e-16, 9.00000000e-09, 2.03406640e-16, 9.00000000e-09 -9.05005428e-18, 9.00000000e-09, 1.57899294e-08, 9.00000000e-09, 8.16460248e-01, 9.00000000e-09, 4.14634334e-02, 9.00000000e-09, 5.98477281e-01, 9.00000000e-09, 5.98477279e-01, 9.00000000e-09, 6.33315057e+07, 9.00000000e-09, 2.37561854e+08, 9.00000000e-09, 3.78091434e+07, 9.00000000e-09, 1.77954057e+01 , 1, .150, SKY130
 9.50000000e-09, 1.68698582e-07, 9.50000000e-09, 9.49943958e-09, 9.50000000e-09, 6.76605131e-16, 9.50000000e-09 -2.11503730e-16, 9.50000000e-09, 1.40190788e-17, 9.50000000e-09, 1.38247987e-16, 9.50000000e-09, 2.07090022e-16, 9.50000000e-09 -9.21709140e-18, 9.50000000e-09, 1.66287860e-08, 9.50000000e-09, 8.16190104e-01, 9.50000000e-09, 4.15365663e-02, 9.50000000e-09, 6.01245904e-01, 9.50000000e-09, 6.01245902e-01, 9.50000000e-09, 6.01366811e+07, 9.50000000e-09, 2.49330923e+08, 9.50000000e-09, 3.96822488e+07, 9.50000000e-09, 1.77587931e+01 , 1, .150, SKY130
 1.00000000e-08, 1.77293115e-07, 1.00000000e-08, 1.00015900e-08, 1.00000000e-08, 6.78993373e-16, 1.00000000e-08 -2.15224456e-16, 1.00000000e-08, 1.42705617e-17, 1.00000000e-08, 1.40618605e-16, 1.00000000e-08, 2.10642758e-16, 1.00000000e-08 -9.37825468e-18, 1.00000000e-08, 1.74718177e-08, 1.00000000e-08, 8.15932237e-01, 1.00000000e-08, 4.16097545e-02, 1.00000000e-08, 6.03888713e-01, 1.00000000e-08, 6.03888710e-01, 1.00000000e-08, 5.72350293e+07, 1.00000000e-08, 2.61111702e+08, 1.00000000e-08, 4.15572181e+07, 1.00000000e-08, 1.77264930e+01 , 1, .150, SKY130
 1.50000000e-08, 2.64371037e-07, 1.50000000e-08, 1.50593722e-08, 1.50000000e-08, 6.99130688e-16, 1.50000000e-08 -2.46349077e-16, 1.50000000e-08, 1.63766385e-17, 1.50000000e-08, 1.60394034e-16, 1.50000000e-08, 2.40280006e-16, 1.50000000e-08 -1.07245637e-17, 1.50000000e-08, 2.60030290e-08, 1.50000000e-08, 8.13870032e-01, 1.50000000e-08, 4.23330424e-02, 1.50000000e-08, 6.25023648e-01, 1.50000000e-08, 6.25023644e-01, 1.50000000e-08, 3.84570582e+07, 1.50000000e-08, 3.78142516e+08, 1.50000000e-08, 6.01832506e+07, 1.50000000e-08, 1.75552496e+01 , 1, .150, SKY130
 2.00000000e-08, 3.52925774e-07, 2.00000000e-08, 2.01457721e-08, 2.00000000e-08, 7.14578385e-16, 2.00000000e-08 -2.69973266e-16, 2.00000000e-08, 1.79777970e-17, 2.00000000e-08, 1.75340597e-16, 2.00000000e-08, 2.62681089e-16, 2.00000000e-08 -1.17442673e-17, 2.00000000e-08, 3.46647701e-08, 2.00000000e-08, 8.12395409e-01, 2.00000000e-08, 4.30368265e-02, 2.00000000e-08, 6.40136623e-01, 2.00000000e-08, 6.40136617e-01, 2.00000000e-08, 2.88477321e+07, 2.00000000e-08, 4.93893717e+08, 2.00000000e-08, 7.86056264e+07, 2.00000000e-08, 1.75186025e+01 , 1, .150, SKY130
 2.50000000e-08, 4.39507513e-07, 2.50000000e-08, 2.50686540e-08, 2.50000000e-08, 7.26696387e-16, 2.50000000e-08 -2.88380442e-16, 2.50000000e-08, 1.92267764e-17, 2.50000000e-08, 1.86949982e-16, 2.50000000e-08, 2.80081048e-16, 2.50000000e-08 -1.25375020e-17, 2.50000000e-08, 4.31237912e-08, 2.50000000e-08, 8.11286848e-01, 2.50000000e-08, 4.36975705e-02, 2.50000000e-08, 6.51497937e-01, 2.50000000e-08, 6.51497930e-01, 2.50000000e-08, 2.31890558e+07, 2.50000000e-08, 6.04802117e+08, 2.50000000e-08, 9.62572466e+07, 2.50000000e-08, 1.75321545e+01 , 1, .150, SKY130
 3.00000000e-08, 5.27398417e-07, 3.00000000e-08, 3.00226656e-08, 3.00000000e-08, 7.36962637e-16, 3.00000000e-08 -3.03900399e-16, 3.00000000e-08, 2.02807387e-17, 3.00000000e-08, 1.96714090e-16, 3.00000000e-08, 2.94715636e-16, 3.00000000e-08 -1.32054405e-17, 3.00000000e-08, 5.17032251e-08, 3.00000000e-08, 8.10373672e-01, 3.00000000e-08, 4.43439568e-02, 3.00000000e-08, 6.60856821e-01, 3.00000000e-08, 6.60856812e-01, 3.00000000e-08, 1.93411532e+07, 3.00000000e-08, 7.15637932e+08, 3.00000000e-08, 1.13897314e+08, 3.00000000e-08, 1.75666752e+01 , 1, .150, SKY130
 3.50000000e-08, 6.16592135e-07, 3.50000000e-08, 3.50125861e-08, 3.50000000e-08, 7.45871966e-16, 3.50000000e-08 -3.17319439e-16, 3.50000000e-08, 2.11926428e-17, 3.50000000e-08, 2.05138723e-16, 3.50000000e-08, 3.07342815e-16, 3.50000000e-08 -1.37823113e-17, 3.50000000e-08, 6.04036686e-08, 3.50000000e-08, 8.09596796e-01, 3.50000000e-08, 4.49777273e-02, 3.50000000e-08, 6.68818795e-01, 3.50000000e-08, 6.68818784e-01, 3.50000000e-08, 1.65552859e+07, 3.50000000e-08, 8.26672892e+08, 3.50000000e-08, 1.31569077e+08, 3.50000000e-08, 1.76105853e+01 , 1, .150, SKY130
 4.00000000e-08, 7.06460128e-07, 4.00000000e-08, 4.00082915e-08, 4.00000000e-08, 7.53693135e-16, 4.00000000e-08 -3.29064742e-16, 4.00000000e-08, 2.19912495e-17, 4.00000000e-08, 2.12499160e-16, 4.00000000e-08, 3.18375096e-16, 4.00000000e-08 -1.42867302e-17, 4.00000000e-08, 6.91647067e-08, 4.00000000e-08, 8.08924590e-01, 4.00000000e-08, 4.55961519e-02, 4.00000000e-08, 6.75708044e-01, 4.00000000e-08, 6.75708032e-01, 4.00000000e-08, 1.44582410e+07, 4.00000000e-08, 9.37331249e+08, 4.00000000e-08, 1.49180902e+08, 4.00000000e-08, 1.76578430e+01 , 1, .150, SKY130
 4.50000000e-08, 7.96835554e-07, 4.50000000e-08, 4.50053267e-08, 4.50000000e-08, 7.60649917e-16, 4.50000000e-08 -3.39486584e-16, 4.50000000e-08, 2.27001986e-17, 4.50000000e-08, 2.19019772e-16, 4.50000000e-08, 3.28148722e-16, 4.50000000e-08 -1.47339160e-17, 4.50000000e-08, 7.79707867e-08, 4.50000000e-08, 8.08333000e-01, 4.50000000e-08, 4.61998007e-02, 4.50000000e-08, 6.81771075e-01, 4.50000000e-08, 6.81771062e-01, 4.50000000e-08, 1.28253163e+07, 4.50000000e-08, 1.04757200e+09, 4.50000000e-08, 1.66726262e+08, 4.50000000e-08, 1.77053609e+01 , 1, .150, SKY130
 5.00000000e-08, 8.87637477e-07, 5.00000000e-08, 5.00034882e-08, 5.00000000e-08, 7.66907748e-16, 5.00000000e-08 -3.48842163e-16, 5.00000000e-08, 2.33368668e-17, 5.00000000e-08, 2.24864889e-16, 5.00000000e-08, 3.36909962e-16, 5.00000000e-08 -1.51350294e-17, 5.00000000e-08, 8.68145748e-08, 5.00000000e-08, 8.07805029e-01, 5.00000000e-08, 4.67896610e-02, 5.00000000e-08, 6.87182098e-01, 5.00000000e-08, 6.87182084e-01, 5.00000000e-08, 1.15188032e+07, 5.00000000e-08, 1.15742406e+09, 5.00000000e-08, 1.84209760e+08, 5.00000000e-08, 1.77515111e+01 , 1, .150, SKY130
 5.50000000e-08, 9.78789633e-07, 5.50000000e-08, 5.50023275e-08, 5.50000000e-08, 7.72588620e-16, 5.50000000e-08 -3.57320279e-16, 5.50000000e-08, 2.39140191e-17, 5.50000000e-08, 2.30154941e-16, 5.50000000e-08, 3.44839299e-16, 5.50000000e-08 -1.54982567e-17, 5.50000000e-08, 9.56890810e-08, 5.50000000e-08, 8.07328533e-01, 5.50000000e-08, 4.73665830e-02, 5.50000000e-08, 6.92065574e-01, 5.50000000e-08, 6.92065559e-01, 5.50000000e-08, 1.04505132e+07, 5.50000000e-08, 1.26689626e+09, 5.50000000e-08, 2.01632802e+08, 5.50000000e-08, 1.77954221e+01 , 1, .150, SKY130
 6.00000000e-08, 1.07022665e-06, 6.00000000e-08, 6.00015545e-08, 6.00000000e-08, 7.77785453e-16, 6.00000000e-08 -3.65064182e-16, 6.00000000e-08, 2.44413468e-17, 6.00000000e-08, 2.34981163e-16, 6.00000000e-08, 3.52073463e-16, 6.00000000e-08 -1.58298044e-17, 6.00000000e-08, 1.04588295e-07, 6.00000000e-08, 8.06894508e-01, 6.00000000e-08, 4.79313438e-02, 6.00000000e-08, 6.96513769e-01, 6.00000000e-08, 6.96513752e-01, 6.00000000e-08, 9.56129937e+06, 6.00000000e-08, 1.37599211e+09, 6.00000000e-08, 2.18995946e+08, 6.00000000e-08, 1.78366487e+01 , 1, .150, SKY130
 6.50000000e-08, 1.16189271e-06, 6.50000000e-08, 6.50010191e-08, 6.50000000e-08, 7.82570682e-16, 6.50000000e-08 -3.72185161e-16, 6.50000000e-08, 2.49263835e-17, 6.50000000e-08, 2.39414335e-16, 6.50000000e-08, 3.58718530e-16, 6.50000000e-08 -1.61344912e-17, 6.50000000e-08, 1.13507078e-07, 6.50000000e-08, 8.06496098e-01, 6.50000000e-08, 4.84846570e-02, 6.50000000e-08, 7.00596963e-01, 6.50000000e-08, 7.00596944e-01, 6.50000000e-08, 8.81002327e+06, 6.50000000e-08, 1.48471280e+09, 6.50000000e-08, 2.36299381e+08, 6.50000000e-08, 1.78749922e+01 , 1, .150, SKY130
 7.00000000e-08, 1.25373934e-06, 7.00000000e-08, 7.00006381e-08, 7.00000000e-08, 7.87001824e-16, 7.00000000e-08 -3.78771330e-16, 7.00000000e-08, 2.53750972e-17, 7.00000000e-08, 2.43510425e-16, 7.00000000e-08, 3.64858382e-16, 7.00000000e-08 -1.64161298e-17, 7.00000000e-08, 1.22440959e-07, 7.00000000e-08, 8.06127964e-01, 7.00000000e-08, 4.90271744e-02, 7.00000000e-08, 7.04369870e-01, 7.00000000e-08, 7.04369849e-01, 7.00000000e-08, 8.16720161e+06, 7.00000000e-08, 1.59305773e+09, 7.00000000e-08, 2.53543013e+08, 7.00000000e-08, 1.79103987e+01 , 1, .150, SKY130
 7.50000000e-08, 1.34572395e-06, 7.50000000e-08, 7.50003590e-08, 7.50000000e-08, 7.91125288e-16, 7.50000000e-08 -3.84893605e-16, 7.50000000e-08, 2.57922930e-17, 7.50000000e-08, 2.47314428e-16, 7.50000000e-08, 3.70560453e-16, 7.50000000e-08 -1.66777869e-17, 7.50000000e-08, 1.31386004e-07, 7.50000000e-08, 8.05785870e-01, 7.50000000e-08, 4.95594898e-02, 7.50000000e-08, 7.07875889e-01, 7.50000000e-08, 7.07875867e-01, 7.50000000e-08, 7.61116077e+06, 7.50000000e-08, 1.70102508e+09, 7.50000000e-08, 2.70726549e+08, 7.50000000e-08, 1.79429002e+01 , 1, .150, SKY130
 8.00000000e-08, 1.43780895e-06, 8.00000000e-08, 8.00001490e-08, 8.00000000e-08, 7.94979049e-16, 8.00000000e-08 -3.90609888e-16, 8.00000000e-08, 2.61818960e-17, 8.00000000e-08, 2.50863042e-16, 8.00000000e-08, 3.75879742e-16, 8.00000000e-08 -1.69219652e-17, 8.00000000e-08, 1.40338735e-07, 8.00000000e-08, 8.05466404e-01, 8.00000000e-08, 5.00821461e-02, 8.00000000e-08, 7.11150008e-01, 8.00000000e-08, 7.11149985e-01, 8.00000000e-08, 7.12561644e+06, 8.00000000e-08, 1.80861237e+09, 8.00000000e-08, 2.87849600e+08, 8.00000000e-08, 1.79725783e+01 , 1, .150, SKY130
 8.50000000e-08, 1.52996101e-06, 8.50000000e-08, 8.49999891e-08, 8.50000000e-08, 7.98594570e-16, 8.50000000e-08 -3.95968050e-16, 8.50000000e-08, 2.65471527e-17, 8.50000000e-08, 2.54186578e-16, 8.50000000e-08, 3.80861677e-16, 8.50000000e-08 -1.71507330e-17, 8.50000000e-08, 1.49296070e-07, 8.50000000e-08, 8.05166774e-01, 8.50000000e-08, 5.05956407e-02, 8.50000000e-08, 7.14220834e-01, 8.50000000e-08, 7.14220809e-01, 8.50000000e-08, 6.69809994e+06, 8.50000000e-08, 1.91581695e+09, 8.50000000e-08, 3.04911737e+08, 8.50000000e-08, 1.79995436e+01 , 1, .150, SKY130
 9.00000000e-08, 1.62215047e-06, 9.00000000e-08, 8.99998652e-08, 9.00000000e-08, 8.01998196e-16, 9.00000000e-08 -4.01008108e-16, 9.00000000e-08, 2.68907775e-17, 9.00000000e-08, 2.57310349e-16, 9.00000000e-08, 3.85544198e-16, 9.00000000e-08 -1.73658180e-17, 9.00000000e-08, 1.58255260e-07, 9.00000000e-08, 8.04884670e-01, 9.00000000e-08, 5.11004296e-02, 9.00000000e-08, 7.17112045e-01, 9.00000000e-08, 7.17112019e-01, 9.00000000e-08, 6.31890530e+06, 9.00000000e-08, 2.02263606e+09, 9.00000000e-08, 3.21912527e+08, 9.00000000e-08, 1.80239211e+01 , 1, .150, SKY130
