 isweep, gm, i_id, id, i_cgg, cgg, i_cgs, cgs, i_cgd, cgd, i_cds, cds, i_css, css, i_cdd, cdd, i_gds, gds, i_vth, vth, i_vdsat, vdsat, i_vgs, vgs, i_vds, vds, i_rds, rds, i_wt, wt, i_ft, ft, i_gm_id, gm_id, W, L, pdk
 1.00000000e-09, 2.96182116e-08, 1.00000000e-09, 9.99547897e-10, 1.00000000e-09, 8.57293796e-16, 1.00000000e-09 -2.85277368e-16, 1.00000000e-09, 7.08511570e-19, 1.00000000e-09, 1.65711493e-16, 1.00000000e-09, 2.48051351e-16, 1.00000000e-09 -2.76006368e-19, 1.00000000e-09, 4.59492174e-10, 1.00000000e-09, 7.35490366e-01, 1.00000000e-09, 3.68590990e-02, 1.00000000e-09, 4.54699921e-01, 1.00000000e-09, 4.54699921e-01, 1.00000000e-09, 2.17631563e+09, 1.00000000e-09, 3.45484964e+07, 1.00000000e-09, 5.49856398e+06, 1.00000000e-09, 2.96316082e+01 , 1,.300, SKY130
 1.50000000e-09, 4.42527824e-08, 1.50000000e-09, 1.50559185e-09, 1.50000000e-09, 8.79176513e-16, 1.50000000e-09 -3.17121045e-16, 1.50000000e-09, 7.96004724e-19, 1.50000000e-09, 1.82415701e-16, 1.50000000e-09, 2.73075753e-16, 1.50000000e-09 -3.16906561e-19, 1.50000000e-09, 6.83584318e-10, 1.50000000e-09, 7.35441295e-01, 1.50000000e-09, 3.68819072e-02, 1.50000000e-09, 4.68367221e-01, 1.50000000e-09, 4.68367220e-01, 1.50000000e-09, 1.46287733e+09, 1.50000000e-09, 5.03343547e+07, 1.50000000e-09, 8.01096135e+06, 1.50000000e-09, 2.93922835e+01 , 1,.300, SKY130
 2.00000000e-09, 5.87877077e-08, 2.00000000e-09, 2.01359118e-09, 2.00000000e-09, 8.96032296e-16, 2.00000000e-09 -3.41367245e-16, 2.00000000e-09, 8.62303501e-19, 2.00000000e-09, 1.95016519e-16, 2.00000000e-09, 2.91953725e-16, 2.00000000e-09 -3.47533911e-19, 2.00000000e-09, 9.06075122e-10, 2.00000000e-09, 7.35406205e-01, 2.00000000e-09, 3.69046858e-02, 2.00000000e-09, 4.78140523e-01, 2.00000000e-09, 4.78140522e-01, 2.00000000e-09, 1.10366125e+09, 2.00000000e-09, 6.56089161e+07, 2.00000000e-09, 1.04419833e+07, 2.00000000e-09, 2.91954535e+01 , 1,.300, SKY130
 2.50000000e-09, 7.27451036e-08, 2.50000000e-09, 2.50576356e-09, 2.50000000e-09, 9.09447005e-16, 2.50000000e-09 -3.60518168e-16, 2.50000000e-09, 9.14484263e-19, 2.50000000e-09, 2.04903408e-16, 2.50000000e-09, 3.06766270e-16, 2.50000000e-09 -3.71436612e-19, 2.50000000e-09, 1.11983119e-09, 2.50000000e-09, 7.35379648e-01, 2.50000000e-09, 3.69266660e-02, 2.50000000e-09, 4.85537429e-01, 2.50000000e-09, 4.85537428e-01, 2.50000000e-09, 8.92991739e+08, 2.50000000e-09, 7.99882820e+07, 2.50000000e-09, 1.27305305e+07, 2.50000000e-09, 2.90311123e+01 , 1,.300, SKY130
 3.00000000e-09, 8.66968084e-08, 3.00000000e-09, 3.00153576e-09, 3.00000000e-09, 9.21002288e-16, 3.00000000e-09 -3.76924403e-16, 3.00000000e-09, 9.59060345e-19, 3.00000000e-09, 2.13330027e-16, 3.00000000e-09, 3.19391343e-16, 3.00000000e-09 -3.91722691e-19, 3.00000000e-09, 1.33368088e-09, 3.00000000e-09, 7.35357604e-01, 3.00000000e-09, 3.69487320e-02, 3.00000000e-09, 4.91677076e-01, 3.00000000e-09, 4.91677075e-01, 3.00000000e-09, 7.49804556e+08, 3.00000000e-09, 9.41331086e+07, 3.00000000e-09, 1.49817495e+07, 3.00000000e-09, 2.88841498e+01 , 1,.300, SKY130
 3.50000000e-09, 1.00645234e-07, 3.50000000e-09, 3.50064780e-09, 3.50000000e-09, 9.31192329e-16, 3.50000000e-09 -3.91330035e-16, 3.50000000e-09, 9.98106708e-19, 3.50000000e-09, 2.20697826e-16, 3.50000000e-09, 3.30430274e-16, 3.50000000e-09 -4.09395907e-19, 3.50000000e-09, 1.54769856e-09, 3.50000000e-09, 7.35338730e-01, 3.50000000e-09, 3.69708799e-02, 3.50000000e-09, 4.96934012e-01, 3.50000000e-09, 4.96934011e-01, 3.50000000e-09, 6.46120649e+08, 3.50000000e-09, 1.08082113e+08, 3.50000000e-09, 1.72018025e+07, 3.50000000e-09, 2.87504599e+01 , 1,.300, SKY130
 4.00000000e-09, 1.14519203e-07, 4.00000000e-09, 4.00025803e-09, 4.00000000e-09, 9.40286832e-16, 4.00000000e-09 -4.04141829e-16, 4.00000000e-09, 1.03276019e-18, 4.00000000e-09, 2.27226932e-16, 4.00000000e-09, 3.40212787e-16, 4.00000000e-09 -4.25008063e-19, 4.00000000e-09, 1.76080867e-09, 4.00000000e-09, 7.35322287e-01, 4.00000000e-09, 3.69929891e-02, 4.00000000e-09, 5.01513726e-01, 4.00000000e-09, 5.01513724e-01, 4.00000000e-09, 5.67920876e+08, 4.00000000e-09, 1.21791776e+08, 4.00000000e-09, 1.93837631e+07, 4.00000000e-09, 2.86279540e+01 , 1,.300, SKY130
 4.50000000e-09, 1.28315767e-07, 4.50000000e-09, 4.49999535e-09, 4.50000000e-09, 9.48509472e-16, 4.50000000e-09 -4.15691448e-16, 4.50000000e-09, 1.06394163e-18, 4.50000000e-09, 2.33094521e-16, 4.50000000e-09, 3.49004287e-16, 4.50000000e-09 -4.38999165e-19, 4.50000000e-09, 1.97297003e-09, 4.50000000e-09, 7.35307719e-01, 4.50000000e-09, 3.70150480e-02, 4.50000000e-09, 5.05571413e-01, 4.50000000e-09, 5.05571412e-01, 4.50000000e-09, 5.06850072e+08, 4.50000000e-09, 1.35281482e+08, 4.50000000e-09, 2.15307166e+07, 4.50000000e-09, 2.85146445e+01 , 1,.300, SKY130
 5.00000000e-09, 1.42040404e-07, 5.00000000e-09, 4.99983556e-09, 5.00000000e-09, 9.56023767e-16, 5.00000000e-09 -4.26219710e-16, 5.00000000e-09, 1.09231803e-18, 5.00000000e-09, 2.38428592e-16, 5.00000000e-09, 3.56996514e-16, 5.00000000e-09 -4.51685959e-19, 5.00000000e-09, 2.18426504e-09, 5.00000000e-09, 7.35294633e-01, 5.00000000e-09, 3.70370594e-02, 5.00000000e-09, 5.09216030e-01, 5.00000000e-09, 5.09216029e-01, 5.00000000e-09, 4.57819899e+08, 5.00000000e-09, 1.48574135e+08, 5.00000000e-09, 2.36463080e+07, 5.00000000e-09, 2.84090152e+01 , 1,.300, SKY130
 5.50000000e-09, 1.55697108e-07, 5.50000000e-09, 5.49973542e-09, 5.50000000e-09, 9.62949694e-16, 5.50000000e-09 -4.35902524e-16, 5.50000000e-09, 1.11837589e-18, 5.50000000e-09, 2.43322342e-16, 5.50000000e-09, 3.64329081e-16, 5.50000000e-09 -4.63298573e-19, 5.50000000e-09, 2.39475016e-09, 5.50000000e-09, 7.35282752e-01, 5.50000000e-09, 3.70590243e-02, 5.50000000e-09, 5.12525357e-01, 5.50000000e-09, 5.12525356e-01, 5.50000000e-09, 4.17580096e+08, 5.50000000e-09, 1.61687686e+08, 5.50000000e-09, 2.57333945e+07, 5.50000000e-09, 2.83099269e+01 , 1,.300, SKY130
 6.00000000e-09, 1.69289579e-07, 6.00000000e-09, 5.99966762e-09, 6.00000000e-09, 9.69378438e-16, 6.00000000e-09 -4.44873058e-16, 6.00000000e-09, 1.14248300e-18, 6.00000000e-09, 2.47846110e-16, 6.00000000e-09, 3.71107359e-16, 6.00000000e-09 -4.74010336e-19, 6.00000000e-09, 2.60447557e-09, 6.00000000e-09, 7.35271867e-01, 6.00000000e-09, 3.70809441e-02, 6.00000000e-09, 5.15557050e-01, 6.00000000e-09, 5.15557048e-01, 6.00000000e-09, 3.83954456e+08, 6.00000000e-09, 1.74637244e+08, 6.00000000e-09, 2.77943806e+07, 6.00000000e-09, 2.82164928e+01 , 1,.300, SKY130
 6.50000000e-09, 1.82821398e-07, 6.50000000e-09, 6.49962172e-09, 6.50000000e-09, 9.75381107e-16, 6.50000000e-09 -4.53234787e-16, 6.50000000e-09, 1.16492477e-18, 6.50000000e-09, 2.52054403e-16, 6.50000000e-09, 3.77413001e-16, 6.50000000e-09 -4.83955308e-19, 6.50000000e-09, 2.81348872e-09, 6.50000000e-09, 7.35261821e-01, 6.50000000e-09, 3.71028202e-02, 6.50000000e-09, 5.18355069e-01, 6.50000000e-09, 5.18355067e-01, 6.50000000e-09, 3.55430606e+08, 6.50000000e-09, 1.87435862e+08, 6.50000000e-09, 2.98313439e+07, 6.50000000e-09, 2.81280059e+01 , 1,.300, SKY130
 7.00000000e-09, 1.96295702e-07, 7.00000000e-09, 6.99958806e-09, 7.00000000e-09, 9.81014168e-16, 7.00000000e-09 -4.61069638e-16, 7.00000000e-09, 1.18592694e-18, 7.00000000e-09, 2.55990269e-16, 7.00000000e-09, 3.83310497e-16, 7.00000000e-09 -4.93239194e-19, 7.00000000e-09, 3.02182976e-09, 7.00000000e-09, 7.35252491e-01, 7.00000000e-09, 3.71246542e-02, 7.00000000e-09, 5.20953649e-01, 7.00000000e-09, 5.20953647e-01, 7.00000000e-09, 3.30925326e+08, 7.00000000e-09, 2.00094666e+08, 7.00000000e-09, 3.18460551e+07, 7.00000000e-09, 2.80438934e+01 , 1,.300, SKY130
 7.50000000e-09, 2.09715445e-07, 7.50000000e-09, 7.49956454e-09, 7.50000000e-09, 9.86323331e-16, 7.50000000e-09 -4.68443747e-16, 7.50000000e-09, 1.20567150e-18, 7.50000000e-09, 2.59688383e-16, 7.50000000e-09, 3.88851794e-16, 7.50000000e-09 -5.01947004e-19, 7.50000000e-09, 3.22953597e-09, 7.50000000e-09, 7.35243780e-01, 7.50000000e-09, 3.71464475e-02, 7.50000000e-09, 5.23380004e-01, 7.50000000e-09, 5.23380002e-01, 7.50000000e-09, 3.09642007e+08, 7.50000000e-09, 2.12623426e+08, 7.50000000e-09, 3.38400692e+07, 7.50000000e-09, 2.79636830e+01 , 1,.300, SKY130
 8.00000000e-09, 2.23083139e-07, 8.00000000e-09, 7.99954429e-09, 8.00000000e-09, 9.91346056e-16, 8.00000000e-09 -4.75411180e-16, 8.00000000e-09, 1.22430713e-18, 8.00000000e-09, 2.63177034e-16, 8.00000000e-09, 3.94079270e-16, 8.00000000e-09 -5.10147998e-19, 8.00000000e-09, 3.43663779e-09, 8.00000000e-09, 7.35235608e-01, 8.00000000e-09, 3.71682011e-02, 8.00000000e-09, 5.25656087e-01, 8.00000000e-09, 5.25656085e-01, 8.00000000e-09, 2.90982076e+08, 8.00000000e-09, 2.25030540e+08, 8.00000000e-09, 3.58147229e+07, 8.00000000e-09, 2.78869809e+01 , 1,.300, SKY130
 8.50000000e-09, 2.36401259e-07, 8.50000000e-09, 8.49952918e-09, 8.50000000e-09, 9.96113560e-16, 8.50000000e-09 -4.82016895e-16, 8.50000000e-09, 1.24195732e-18, 8.50000000e-09, 2.66479698e-16, 8.50000000e-09, 3.99028097e-16, 8.50000000e-09 -5.17899574e-19, 8.50000000e-09, 3.64316534e-09, 8.50000000e-09, 7.35227911e-01, 8.50000000e-09, 3.71899162e-02, 8.50000000e-09, 5.27799913e-01, 8.50000000e-09, 5.27799911e-01, 8.50000000e-09, 2.74486581e+08, 8.50000000e-09, 2.37323603e+08, 8.50000000e-09, 3.77712245e+07, 8.50000000e-09, 2.78134534e+01 , 1,.300, SKY130
 9.00000000e-09, 2.49671961e-07, 9.00000000e-09, 8.99951762e-09, 9.00000000e-09, 1.00065206e-15, 9.00000000e-09 -4.88298574e-16, 9.00000000e-09, 1.25872549e-18, 9.00000000e-09, 2.69616019e-16, 9.00000000e-09, 4.03727703e-16, 9.00000000e-09 -5.25249701e-19, 9.00000000e-09, 3.84914402e-09, 9.00000000e-09, 7.35220635e-01, 9.00000000e-09, 3.72115940e-02, 9.00000000e-09, 5.29826411e-01, 9.00000000e-09, 5.29826409e-01, 9.00000000e-09, 2.59798021e+08, 9.00000000e-09, 2.49509265e+08, 9.00000000e-09, 3.97106329e+07, 9.00000000e-09, 2.77428160e+01 , 1,.300, SKY130
 9.50000000e-09, 2.62897226e-07, 9.50000000e-09, 9.49950868e-09, 9.50000000e-09, 1.00498384e-15, 9.50000000e-09 -4.94288174e-16, 9.50000000e-09, 1.27469929e-18, 9.50000000e-09, 2.72602628e-16, 9.50000000e-09, 4.08203004e-16, 9.50000000e-09 -5.32238947e-19, 9.50000000e-09, 4.05459676e-09, 9.50000000e-09, 7.35213735e-01, 9.50000000e-09, 3.72332352e-02, 9.50000000e-09, 5.31748106e-01, 9.50000000e-09, 5.31748103e-01, 9.50000000e-09, 2.46633650e+08, 9.50000000e-09, 2.61593485e+08, 9.50000000e-09, 4.16338962e+07, 9.50000000e-09, 2.76748235e+01 , 1,.300, SKY130
 1.00000000e-08, 2.76077956e-07, 1.00000000e-08, 9.99946698e-09, 1.00000000e-08, 1.00912771e-15, 1.00000000e-08 -5.00012650e-16, 1.00000000e-08, 1.28995260e-18, 1.00000000e-08, 2.75453540e-16, 1.00000000e-08, 4.12474997e-16, 1.00000000e-08 -5.38901479e-19, 1.00000000e-08, 4.25953008e-09, 1.00000000e-08, 7.35207174e-01, 1.00000000e-08, 3.72548392e-02, 1.00000000e-08, 5.33575481e-01, 1.00000000e-08, 5.33575478e-01, 1.00000000e-08, 2.34767681e+08, 1.00000000e-08, 2.73580789e+08, 1.00000000e-08, 4.35417349e+07, 1.00000000e-08, 2.76092672e+01 , 1,.300, SKY130
 1.50000000e-08, 4.07199262e-07, 1.50000000e-08, 1.50536516e-08, 1.50000000e-08, 1.04336021e-15, 1.50000000e-08 -5.47120508e-16, 1.50000000e-08, 1.41497660e-18, 1.50000000e-08, 2.98789443e-16, 1.50000000e-08, 4.47444025e-16, 1.50000000e-08 -5.93095821e-19, 1.50000000e-08, 6.30642380e-09, 1.50000000e-08, 7.35154258e-01, 1.50000000e-08, 3.74713794e-02, 1.50000000e-08, 5.48313979e-01, 1.50000000e-08, 5.48313974e-01, 1.50000000e-08, 1.58568474e+08, 1.50000000e-08, 3.90276778e+08, 1.50000000e-08, 6.21144784e+07, 1.50000000e-08, 2.70498663e+01 , 1,.300, SKY130
 2.00000000e-08, 5.35564641e-07, 2.00000000e-08, 2.01227702e-08, 2.00000000e-08, 1.06887425e-15, 2.00000000e-08 -5.82043720e-16, 2.00000000e-08, 1.50708542e-18, 2.00000000e-08, 3.15953271e-16, 2.00000000e-08, 4.73165265e-16, 2.00000000e-08 -6.32557909e-19, 2.00000000e-08, 8.32175475e-09, 2.00000000e-08, 7.35116020e-01, 2.00000000e-08, 3.76854903e-02, 2.00000000e-08, 5.58964448e-01, 2.00000000e-08, 5.58964442e-01, 2.00000000e-08, 1.20166964e+08, 2.00000000e-08, 5.01054862e+08, 2.00000000e-08, 7.97453581e+07, 2.00000000e-08, 2.66148564e+01 , 1,.300, SKY130
 2.50000000e-08, 6.58073937e-07, 2.50000000e-08, 2.50532827e-08, 2.50000000e-08, 1.08877563e-15, 2.50000000e-08 -6.09188567e-16, 2.50000000e-08, 1.57833544e-18, 2.50000000e-08, 3.29218885e-16, 2.50000000e-08, 4.93045390e-16, 2.50000000e-08 -6.62817045e-19, 2.50000000e-08, 1.02525599e-08, 2.50000000e-08, 7.35086719e-01, 2.50000000e-08, 3.78910984e-02, 2.50000000e-08, 5.67125574e-01, 2.50000000e-08, 5.67125567e-01, 2.50000000e-08, 9.75366165e+07, 2.50000000e-08, 6.04416483e+08, 2.50000000e-08, 9.61958710e+07, 2.50000000e-08, 2.62669745e+01 , 1,.300, SKY130
 3.00000000e-08, 7.79513273e-07, 3.00000000e-08, 3.00174858e-08, 3.00000000e-08, 1.10557956e-15, 3.00000000e-08 -6.32049854e-16, 3.00000000e-08, 1.63810557e-18, 3.00000000e-08, 3.40342063e-16, 3.00000000e-08, 5.09715250e-16, 3.00000000e-08 -6.88022092e-19, 3.00000000e-08, 1.21713789e-08, 3.00000000e-08, 7.35062250e-01, 3.00000000e-08, 3.80956729e-02, 3.00000000e-08, 5.73940672e-01, 3.00000000e-08, 5.73940663e-01, 3.00000000e-08, 8.21599596e+07, 3.00000000e-08, 7.05072076e+08, 3.00000000e-08, 1.12215706e+08, 3.00000000e-08, 2.59686397e+01 , 1,.300, SKY130
 3.50000000e-08, 9.00011932e-07, 3.50000000e-08, 3.50096723e-08, 3.50000000e-08, 1.12013992e-15, 3.50000000e-08 -6.51818905e-16, 3.50000000e-08, 1.68961449e-18, 3.50000000e-08, 3.49925602e-16, 3.50000000e-08, 5.24078031e-16, 3.50000000e-08 -7.09612280e-19, 3.50000000e-08, 1.40784221e-08, 3.50000000e-08, 7.35041202e-01, 3.50000000e-08, 3.82990840e-02, 3.50000000e-08, 5.79803151e-01, 3.50000000e-08, 5.79803141e-01, 3.50000000e-08, 7.10306876e+07, 3.50000000e-08, 8.03481706e+08, 3.50000000e-08, 1.27878085e+08, 3.50000000e-08, 2.57075223e+01 , 1,.300, SKY130
 4.00000000e-08, 1.01921014e-06, 4.00000000e-08, 4.00061346e-08, 4.00000000e-08, 1.13294799e-15, 4.00000000e-08 -6.69180295e-16, 4.00000000e-08, 1.73471320e-18, 4.00000000e-08, 3.58315721e-16, 4.00000000e-08, 5.36652485e-16, 4.00000000e-08 -7.28415400e-19, 4.00000000e-08, 1.59665815e-08, 4.00000000e-08, 7.35022775e-01, 4.00000000e-08, 3.85004660e-02, 4.00000000e-08, 5.84935681e-01, 4.00000000e-08, 5.84935669e-01, 4.00000000e-08, 6.26308143e+07, 4.00000000e-08, 8.99608939e+08, 4.00000000e-08, 1.43177210e+08, 4.00000000e-08, 2.54763462e+01 , 1,.300, SKY130
 4.50000000e-08, 1.13720979e-06, 4.50000000e-08, 4.50038436e-08, 4.50000000e-08, 1.14438113e-15, 4.50000000e-08 -6.84656776e-16, 4.50000000e-08, 1.77480618e-18, 4.50000000e-08, 3.65774610e-16, 4.50000000e-08, 5.47831478e-16, 4.50000000e-08 -7.45052343e-19, 4.50000000e-08, 1.78363745e-08, 4.50000000e-08, 7.35006375e-01, 4.50000000e-08, 3.86997965e-02, 4.50000000e-08, 5.89503492e-01, 4.50000000e-08, 5.89503479e-01, 4.50000000e-08, 5.60652053e+07, 4.50000000e-08, 9.93733431e+08, 4.50000000e-08, 1.58157588e+08, 4.50000000e-08, 2.52691702e+01 , 1,.300, SKY130
 5.00000000e-08, 1.25414215e-06, 5.00000000e-08, 5.00024625e-08, 5.00000000e-08, 1.15470903e-15, 5.00000000e-08 -6.98620878e-16, 5.00000000e-08, 1.81089161e-18, 5.00000000e-08, 3.72488404e-16, 5.00000000e-08, 5.57893916e-16, 5.00000000e-08 -7.59962093e-19, 5.00000000e-08, 1.96890335e-08, 5.00000000e-08, 7.34991587e-01, 5.00000000e-08, 3.88971502e-02, 5.00000000e-08, 5.93622474e-01, 5.00000000e-08, 5.93622459e-01, 5.00000000e-08, 5.07896946e+07, 5.00000000e-08, 1.08611097e+09, 5.00000000e-08, 1.72859930e+08, 5.00000000e-08, 2.50816077e+01 , 1,.300, SKY130
 5.50000000e-08, 1.37011109e-06, 5.50000000e-08, 5.50015994e-08, 5.50000000e-08, 1.16412786e-15, 5.50000000e-08 -7.11343044e-16, 5.50000000e-08, 1.84369276e-18, 5.50000000e-08, 3.78591860e-16, 5.50000000e-08, 5.67041729e-16, 5.50000000e-08 -7.73461578e-19, 5.50000000e-08, 2.15255428e-08, 5.50000000e-08, 7.34978112e-01, 5.50000000e-08, 3.90925898e-02, 5.50000000e-08, 5.97375737e-01, 5.50000000e-08, 5.97375721e-01, 5.50000000e-08, 4.64564359e+07, 5.50000000e-08, 1.17694210e+09, 5.50000000e-08, 1.87316152e+08, 5.50000000e-08, 2.49103863e+01 , 1,.300, SKY130
 6.00000000e-08, 1.48520478e-06, 6.00000000e-08, 6.00010298e-08, 6.00000000e-08, 1.17278535e-15, 6.00000000e-08 -7.23026538e-16, 6.00000000e-08, 1.87375229e-18, 6.00000000e-08, 3.84186009e-16, 6.00000000e-08, 5.75426307e-16, 6.00000000e-08 -7.85787756e-19, 6.00000000e-08, 2.33467791e-08, 6.00000000e-08, 7.34965728e-01, 6.00000000e-08, 3.92861772e-02, 6.00000000e-08, 6.00825097e-01, 6.00000000e-08, 6.00825080e-01, 6.00000000e-08, 4.28324608e+07, 6.00000000e-08, 1.26639097e+09, 6.00000000e-08, 2.01552382e+08, 6.00000000e-08, 2.47529882e+01 , 1,.300, SKY130
 6.50000000e-08, 1.59949879e-06, 6.50000000e-08, 6.50006386e-08, 6.50000000e-08, 1.18079560e-15, 6.50000000e-08 -7.33828118e-16, 6.50000000e-08, 1.90148797e-18, 6.50000000e-08, 3.89348589e-16, 6.50000000e-08, 5.83164138e-16, 6.50000000e-08 -7.97122494e-19, 6.50000000e-08, 2.51535284e-08, 6.50000000e-08, 7.34954265e-01, 6.50000000e-08, 3.94779721e-02, 6.50000000e-08, 6.04017798e-01, 6.50000000e-08, 6.04017779e-01, 6.50000000e-08, 3.97558539e+07, 6.50000000e-08, 1.35459413e+09, 6.50000000e-08, 2.15590352e+08, 6.50000000e-08, 2.46074319e+01 , 1,.300, SKY130
 7.00000000e-08, 1.71305797e-06, 7.00000000e-08, 7.00003633e-08, 7.00000000e-08, 1.18824859e-15, 7.00000000e-08 -7.43871254e-16, 7.00000000e-08, 1.92722839e-18, 7.00000000e-08, 3.94140707e-16, 7.00000000e-08, 5.90346791e-16, 7.00000000e-08 -8.07608415e-19, 7.00000000e-08, 2.69464920e-08, 7.00000000e-08, 7.34943592e-01, 7.00000000e-08, 3.96680313e-02, 7.00000000e-08, 6.06990765e-01, 7.00000000e-08, 6.06990744e-01, 7.00000000e-08, 3.71105820e+07, 7.00000000e-08, 1.44166631e+09, 7.00000000e-08, 2.29448320e+08, 7.00000000e-08, 2.44721296e+01 , 1,.300, SKY130
 7.50000000e-08, 1.82593809e-06, 7.50000000e-08, 7.50001617e-08, 7.50000000e-08, 1.19521660e-15, 7.50000000e-08 -7.53254958e-16, 7.50000000e-08, 1.95123666e-18, 7.50000000e-08, 3.98611274e-16, 7.50000000e-08, 5.97047561e-16, 7.50000000e-08 -8.17359423e-19, 7.50000000e-08, 2.87262950e-08, 7.50000000e-08, 7.34933602e-01, 7.50000000e-08, 3.98564079e-02, 7.50000000e-08, 6.09773408e-01, 7.50000000e-08, 6.09773386e-01, 7.50000000e-08, 3.48113113e+07, 7.50000000e-08, 1.52770476e+09, 7.50000000e-08, 2.43141764e+08, 7.50000000e-08, 2.43457887e+01 , 1,.300, SKY130
 8.00000000e-08, 1.93818761e-06, 8.00000000e-08, 8.00000097e-08, 8.00000000e-08, 1.20175856e-15, 8.00000000e-08 -7.62059891e-16, 8.00000000e-08, 1.97372684e-18, 8.00000000e-08, 4.02800068e-16, 8.00000000e-08, 6.03326053e-16, 8.00000000e-08 -8.26467961e-19, 8.00000000e-08, 3.04935008e-08, 8.00000000e-08, 7.34924209e-01, 8.00000000e-08, 4.00431517e-02, 8.00000000e-08, 6.12389544e-01, 8.00000000e-08, 6.12389521e-01, 8.00000000e-08, 3.27938733e+07, 8.00000000e-08, 1.61279285e+09, 8.00000000e-08, 2.56683954e+08, 8.00000000e-08, 2.42273422e+01 , 1,.300, SKY130
 8.50000000e-08, 2.04984893e-06, 8.50000000e-08, 8.49998959e-08, 8.50000000e-08, 1.20792319e-15, 8.50000000e-08 -7.70352660e-16, 8.50000000e-08, 1.99487547e-18, 8.50000000e-08, 4.06739882e-16, 8.50000000e-08, 6.09231414e-16, 8.50000000e-08 -8.35010091e-19, 8.50000000e-08, 3.22486201e-08, 8.50000000e-08, 7.34915344e-01, 8.50000000e-08, 4.02283100e-02, 8.50000000e-08, 6.14858736e-01, 8.50000000e-08, 6.14858711e-01, 8.50000000e-08, 3.10090788e+07, 8.50000000e-08, 1.69700272e+09, 8.50000000e-08, 2.70086371e+08, 8.50000000e-08, 2.41158993e+01 , 1,.300, SKY130
 9.00000000e-08, 2.16095908e-06, 9.00000000e-08, 8.99998058e-08, 9.00000000e-08, 1.21375121e-15, 9.00000000e-08 -7.78188908e-16, 9.00000000e-08, 2.01482984e-18, 9.00000000e-08, 4.10458073e-16, 9.00000000e-08, 6.14804635e-16, 9.00000000e-08 -8.43049140e-19, 9.00000000e-08, 3.39921149e-08, 9.00000000e-08, 7.34906948e-01, 9.00000000e-08, 4.04119268e-02, 9.00000000e-08, 6.17197248e-01, 9.00000000e-08, 6.17197222e-01, 9.00000000e-08, 2.94185873e+07, 9.00000000e-08, 1.78039705e+09, 9.00000000e-08, 2.83358991e+08, 9.00000000e-08, 2.40107082e+01 , 1,.300, SKY130
