 isweep, gm, i_id, id, i_cgg, cgg, i_cgs, cgs, i_cgd, cgd, i_cds, cds, i_css, css, i_cdd, cdd, i_gds, gds, i_vth, vth, i_vdsat, vdsat, i_vgs, vgs, i_vds, vds, i_rds, rds, i_wt, wt, i_ft, ft, i_gm_id, gm_id, W, L, pdk
 1.00000000e-09, 2.92415113e-08, 1.00000000e-09, 9.99590523e-10, 1.00000000e-09, 8.35045846e-16, 1.00000000e-09 -2.70420394e-16, 1.00000000e-09, 9.26950694e-19, 1.00000000e-09, 1.55066154e-16, 1.00000000e-09, 2.32051732e-16, 1.00000000e-09 -3.57630987e-19, 1.00000000e-09, 5.27469631e-10, 1.00000000e-09, 7.01776992e-01, 1.00000000e-09, 3.69598356e-02, 1.00000000e-09, 4.09690980e-01, 1.00000000e-09, 4.09690980e-01, 1.00000000e-09, 1.89584374e+09, 1.00000000e-09, 3.50178513e+07, 1.00000000e-09, 5.57326413e+06, 1.00000000e-09, 2.92534899e+01 , 1,.300, SKY130
 1.50000000e-09, 4.37710116e-08, 1.50000000e-09, 1.50573110e-09, 1.50000000e-09, 8.56051907e-16, 1.50000000e-09 -3.01080978e-16, 1.50000000e-09, 1.04515493e-18, 1.50000000e-09, 1.70929726e-16, 1.50000000e-09, 2.55813375e-16, 1.50000000e-09 -4.14165869e-19, 1.50000000e-09, 7.83634548e-10, 1.50000000e-09, 7.01709446e-01, 1.50000000e-09, 3.69760049e-02, 1.50000000e-09, 4.23490652e-01, 1.50000000e-09, 4.23490651e-01, 1.50000000e-09, 1.27610504e+09, 1.50000000e-09, 5.11312588e+07, 1.50000000e-09, 8.13779259e+06, 1.50000000e-09, 2.90696072e+01 , 1,.300, SKY130
 2.00000000e-09, 5.82377296e-08, 2.00000000e-09, 2.01391024e-09, 2.00000000e-09, 8.72283793e-16, 2.00000000e-09 -3.24468568e-16, 2.00000000e-09, 1.13482951e-18, 2.00000000e-09, 1.82917960e-16, 2.00000000e-09, 2.73771196e-16, 2.00000000e-09 -4.56496893e-19, 2.00000000e-09, 1.03783692e-09, 2.00000000e-09, 7.01661216e-01, 2.00000000e-09, 3.69921567e-02, 2.00000000e-09, 4.33343904e-01, 2.00000000e-09, 4.33343903e-01, 2.00000000e-09, 9.63542522e+08, 2.00000000e-09, 6.67646585e+07, 2.00000000e-09, 1.06259254e+07, 2.00000000e-09, 2.89177385e+01 , 1,.300, SKY130
 2.50000000e-09, 7.21478586e-08, 2.50000000e-09, 2.50595551e-09, 2.50000000e-09, 8.85220521e-16, 2.50000000e-09 -3.42951705e-16, 2.50000000e-09, 1.20542508e-18, 2.50000000e-09, 1.92329646e-16, 2.50000000e-09, 2.87869994e-16, 2.50000000e-09 -4.89519812e-19, 2.50000000e-09, 1.28181300e-09, 2.50000000e-09, 7.01624784e-01, 2.50000000e-09, 3.70077348e-02, 2.50000000e-09, 4.40786978e-01, 2.50000000e-09, 4.40786977e-01, 2.50000000e-09, 7.80144997e+08, 2.50000000e-09, 8.15026955e+07, 2.50000000e-09, 1.29715569e+07, 2.50000000e-09, 2.87905585e+01 , 1,.300, SKY130
 3.00000000e-09, 8.60758049e-08, 3.00000000e-09, 3.00162000e-09, 3.00000000e-09, 8.96381785e-16, 3.00000000e-09 -3.58801152e-16, 3.00000000e-09, 1.26577977e-18, 3.00000000e-09, 2.00359211e-16, 3.00000000e-09, 2.99898710e-16, 3.00000000e-09 -5.17557926e-19, 3.00000000e-09, 1.52584587e-09, 3.00000000e-09, 7.01594575e-01, 3.00000000e-09, 3.70233768e-02, 3.00000000e-09, 4.46958549e-01, 3.00000000e-09, 4.46958548e-01, 3.00000000e-09, 6.55374188e+08, 3.00000000e-09, 9.60258300e+07, 3.00000000e-09, 1.52829855e+07, 3.00000000e-09, 2.86764497e+01 , 1,.300, SKY130
 3.50000000e-09, 1.00023516e-07, 3.50000000e-09, 3.50071490e-09, 3.50000000e-09, 9.06238090e-16, 3.50000000e-09 -3.72730532e-16, 3.50000000e-09, 1.31869004e-18, 3.50000000e-09, 2.07386436e-16, 3.50000000e-09, 3.10426120e-16, 3.50000000e-09 -5.41999093e-19, 3.50000000e-09, 1.77007625e-09, 3.50000000e-09, 7.01568731e-01, 3.50000000e-09, 3.70390825e-02, 3.50000000e-09, 4.52238506e-01, 3.50000000e-09, 4.52238505e-01, 3.50000000e-09, 5.64947413e+08, 3.50000000e-09, 1.10372227e+08, 3.50000000e-09, 1.75662854e+07, 3.50000000e-09, 2.85723113e+01 , 1,.300, SKY130
 4.00000000e-09, 1.13915517e-07, 4.00000000e-09, 4.00031874e-09, 4.00000000e-09, 9.15043569e-16, 4.00000000e-09 -3.85126317e-16, 4.00000000e-09, 1.36567374e-18, 4.00000000e-09, 2.13617731e-16, 4.00000000e-09, 3.19761345e-16, 4.00000000e-09 -5.63599245e-19, 4.00000000e-09, 2.01325200e-09, 4.00000000e-09, 7.01546237e-01, 4.00000000e-09, 3.70547643e-02, 4.00000000e-09, 4.56834097e-01, 4.00000000e-09, 4.56834096e-01, 4.00000000e-09, 4.96708807e+08, 4.00000000e-09, 1.24491905e+08, 4.00000000e-09, 1.98135021e+07, 4.00000000e-09, 2.84766102e+01 , 1,.300, SKY130
 4.50000000e-09, 1.27746829e-07, 4.50000000e-09, 4.50005230e-09, 4.50000000e-09, 9.23011503e-16, 4.50000000e-09 -3.96306522e-16, 4.50000000e-09, 1.40797022e-18, 4.50000000e-09, 2.19220679e-16, 4.50000000e-09, 3.28155381e-16, 4.50000000e-09 -5.82964699e-19, 4.50000000e-09, 2.25533292e-09, 4.50000000e-09, 7.01526323e-01, 4.50000000e-09, 3.70704138e-02, 4.50000000e-09, 4.60902384e-01, 4.50000000e-09, 4.60902382e-01, 4.50000000e-09, 4.43393518e+08, 4.50000000e-09, 1.38402207e+08, 4.50000000e-09, 2.20273953e+07, 4.50000000e-09, 2.83878542e+01 , 1,.300, SKY130
 5.00000000e-09, 1.41521366e-07, 5.00000000e-09, 4.99988890e-09, 5.00000000e-09, 9.30298196e-16, 5.00000000e-09 -4.06502417e-16, 5.00000000e-09, 1.44647819e-18, 5.00000000e-09, 2.24316529e-16, 5.00000000e-09, 3.35789829e-16, 5.00000000e-09 -6.00532039e-19, 5.00000000e-09, 2.49641972e-09, 5.00000000e-09, 7.01508451e-01, 5.00000000e-09, 3.70860330e-02, 5.00000000e-09, 4.64553617e-01, 5.00000000e-09, 4.64553615e-01, 5.00000000e-09, 4.00573667e+08, 5.00000000e-09, 1.52124735e+08, 5.00000000e-09, 2.42114035e+07, 5.00000000e-09, 2.83049022e+01 , 1,.300, SKY130
 5.50000000e-09, 1.55241890e-07, 5.50000000e-09, 5.49978604e-09, 5.50000000e-09, 9.37018514e-16, 5.50000000e-09 -4.15883110e-16, 5.50000000e-09, 1.48185364e-18, 5.50000000e-09, 2.28993650e-16, 5.50000000e-09, 3.42797048e-16, 5.50000000e-09 -6.16618496e-19, 5.50000000e-09, 2.73658314e-09, 5.50000000e-09, 7.01492235e-01, 5.50000000e-09, 3.71016228e-02, 5.50000000e-09, 4.67866496e-01, 5.50000000e-09, 4.67866494e-01, 5.50000000e-09, 3.65419192e+08, 5.50000000e-09, 1.65676439e+08, 5.50000000e-09, 2.63682241e+07, 5.50000000e-09, 2.82268963e+01 , 1,.300, SKY130
 6.00000000e-09, 1.68911072e-07, 6.00000000e-09, 5.99971795e-09, 6.00000000e-09, 9.43259863e-16, 6.00000000e-09 -4.24576710e-16, 6.00000000e-09, 1.51459270e-18, 6.00000000e-09, 2.33318783e-16, 6.00000000e-09, 3.49277004e-16, 6.00000000e-09 -6.31462993e-19, 6.00000000e-09, 2.97588584e-09, 6.00000000e-09, 7.01477390e-01, 6.00000000e-09, 3.71171842e-02, 6.00000000e-09, 4.70899342e-01, 6.00000000e-09, 4.70899340e-01, 6.00000000e-09, 3.36034396e+08, 6.00000000e-09, 1.79071620e+08, 6.00000000e-09, 2.85001335e+07, 6.00000000e-09, 2.81531687e+01 , 1,.300, SKY130
 6.50000000e-09, 1.82531453e-07, 6.50000000e-09, 6.49967009e-09, 6.50000000e-09, 9.49090406e-16, 6.50000000e-09 -4.32682731e-16, 6.50000000e-09, 1.54508019e-18, 6.50000000e-09, 2.37343628e-16, 6.50000000e-09, 3.55307137e-16, 6.50000000e-09 -6.45250155e-19, 6.50000000e-09, 3.21438367e-09, 6.50000000e-09, 7.01463698e-01, 6.50000000e-09, 3.71327184e-02, 6.50000000e-09, 4.73696575e-01, 6.50000000e-09, 4.73696573e-01, 6.50000000e-09, 3.11101630e+08, 6.50000000e-09, 1.92322514e+08, 6.50000000e-09, 3.06090788e+07, 6.50000000e-09, 2.80831874e+01 , 1,.300, SKY130
 7.00000000e-09, 1.96105475e-07, 7.00000000e-09, 6.99963703e-09, 7.00000000e-09, 9.54564407e-16, 7.00000000e-09 -4.40280120e-16, 7.00000000e-09, 1.57362098e-18, 7.00000000e-09, 2.41109099e-16, 7.00000000e-09, 3.60948729e-16, 7.00000000e-09 -6.58125766e-19, 7.00000000e-09, 3.45212742e-09, 7.00000000e-09, 7.01450990e-01, 7.00000000e-09, 3.71482263e-02, 7.00000000e-09, 4.76292821e-01, 7.00000000e-09, 4.76292819e-01, 7.00000000e-09, 2.89676446e+08, 7.00000000e-09, 2.05439752e+08, 7.00000000e-09, 3.26967520e+07, 7.00000000e-09, 2.80165206e+01 , 1,.300, SKY130
 7.50000000e-09, 2.09635219e-07, 7.50000000e-09, 7.49961084e-09, 7.50000000e-09, 9.59725727e-16, 7.50000000e-09 -4.47432499e-16, 7.50000000e-09, 1.60046047e-18, 7.50000000e-09, 2.44648095e-16, 7.50000000e-09, 3.66251059e-16, 7.50000000e-09 -6.70206825e-19, 7.50000000e-09, 3.68915925e-09, 7.50000000e-09, 7.01439132e-01, 7.50000000e-09, 3.71637090e-02, 7.50000000e-09, 4.78715549e-01, 7.50000000e-09, 4.78715547e-01, 7.50000000e-09, 2.71064471e+08, 7.50000000e-09, 2.18432426e+08, 7.50000000e-09, 3.47646004e+07, 7.50000000e-09, 2.79528129e+01 , 1,.300, SKY130
 8.00000000e-09, 2.23122756e-07, 8.00000000e-09, 7.99959201e-09, 8.00000000e-09, 9.64610456e-16, 8.00000000e-09 -4.54192072e-16, 8.00000000e-09, 1.62579980e-18, 8.00000000e-09, 2.47987553e-16, 8.00000000e-09, 3.71254476e-16, 8.00000000e-09 -6.81588950e-19, 8.00000000e-09, 3.92551939e-09, 8.00000000e-09, 7.01428014e-01, 8.00000000e-09, 3.71791674e-02, 8.00000000e-09, 4.80986967e-01, 8.00000000e-09, 4.80986965e-01, 8.00000000e-09, 2.54743360e+08, 8.00000000e-09, 2.31308665e+08, 8.00000000e-09, 3.68139173e+07, 8.00000000e-09, 2.78917670e+01 , 1,.300, SKY130
 8.50000000e-09, 2.36569798e-07, 8.50000000e-09, 8.49957515e-09, 8.50000000e-09, 9.69248561e-16, 8.50000000e-09 -4.60602079e-16, 8.50000000e-09, 1.64980539e-18, 8.50000000e-09, 2.51149743e-16, 8.50000000e-09, 3.75992339e-16, 8.50000000e-09 -6.92351075e-19, 8.50000000e-09, 4.16124042e-09, 8.50000000e-09, 7.01417547e-01, 8.50000000e-09, 3.71946023e-02, 8.50000000e-09, 4.83125234e-01, 8.50000000e-09, 4.83125232e-01, 8.50000000e-09, 2.40312960e+08, 8.50000000e-09, 2.44075470e+08, 8.50000000e-09, 3.88458175e+07, 8.50000000e-09, 2.78331321e+01 , 1,.300, SKY130
 9.00000000e-09, 2.49978135e-07, 9.00000000e-09, 8.99956427e-09, 9.00000000e-09, 9.73665335e-16, 9.00000000e-09 -4.66698931e-16, 9.00000000e-09, 1.67261725e-18, 9.00000000e-09, 2.54153384e-16, 9.00000000e-09, 3.80492687e-16, 9.00000000e-09 -7.02559431e-19, 9.00000000e-09, 4.39635535e-09, 9.00000000e-09, 7.01407659e-01, 9.00000000e-09, 3.72100144e-02, 9.00000000e-09, 4.85145447e-01, 9.00000000e-09, 4.85145444e-01, 9.00000000e-09, 2.27461140e+08, 9.00000000e-09, 2.56739278e+08, 9.00000000e-09, 4.08613251e+07, 9.00000000e-09, 2.77766931e+01 , 1,.300, SKY130
 9.50000000e-09, 2.63349178e-07, 9.50000000e-09, 9.49955469e-09, 9.50000000e-09, 9.77882200e-16, 9.50000000e-09 -4.72513405e-16, 9.50000000e-09, 1.69435363e-18, 9.50000000e-09, 2.57014274e-16, 9.50000000e-09, 3.84779184e-16, 9.50000000e-09 -7.12269848e-19, 9.50000000e-09, 4.63088977e-09, 9.50000000e-09, 7.01398286e-01, 9.50000000e-09, 3.72254043e-02, 9.50000000e-09, 4.87060229e-01, 9.50000000e-09, 4.87060226e-01, 9.50000000e-09, 2.15941223e+08, 9.50000000e-09, 2.69305626e+08, 9.50000000e-09, 4.28613216e+07, 9.50000000e-09, 2.77222656e+01 , 1,.300, SKY130
 1.00000000e-08, 2.76683424e-07, 1.00000000e-08, 9.99951216e-09, 1.00000000e-08, 9.81917293e-16, 1.00000000e-08 -4.78071522e-16, 1.00000000e-08, 1.71511445e-18, 1.00000000e-08, 2.59745755e-16, 1.00000000e-08, 3.88871817e-16, 1.00000000e-08 -7.21529435e-19, 1.00000000e-08, 4.86485263e-09, 1.00000000e-08, 7.01389378e-01, 1.00000000e-08, 3.72407716e-02, 1.00000000e-08, 4.88880167e-01, 1.00000000e-08, 4.88880164e-01, 1.00000000e-08, 2.05556072e+08, 1.00000000e-08, 2.81778746e+08, 1.00000000e-08, 4.48464804e+07, 1.00000000e-08, 2.76696922e+01 , 1,.300, SKY130
 1.50000000e-08, 4.09768451e-07, 1.50000000e-08, 1.50556597e-08, 1.50000000e-08, 1.01530400e-15, 1.50000000e-08 -5.23862896e-16, 1.50000000e-08, 1.88552191e-18, 1.50000000e-08, 2.82132747e-16, 1.50000000e-08, 4.22415779e-16, 1.50000000e-08 -7.96996955e-19, 1.50000000e-08, 7.20395106e-09, 1.50000000e-08, 7.01317663e-01, 1.50000000e-08, 3.73950741e-02, 1.50000000e-08, 5.03531626e-01, 1.50000000e-08, 5.03531621e-01, 1.50000000e-08, 1.38812714e+08, 1.50000000e-08, 4.03591882e+08, 1.50000000e-08, 6.42336430e+07, 1.50000000e-08, 2.72169045e+01 , 1,.300, SKY130
 2.00000000e-08, 5.40627228e-07, 2.00000000e-08, 2.01280370e-08, 2.00000000e-08, 1.04023885e-15, 2.00000000e-08 -5.57859173e-16, 2.00000000e-08, 2.01131248e-18, 2.00000000e-08, 2.98626307e-16, 2.00000000e-08, 4.47130419e-16, 2.00000000e-08 -8.52116921e-19, 2.00000000e-08, 9.51026890e-09, 2.00000000e-08, 7.01266011e-01, 2.00000000e-08, 3.75480692e-02, 2.00000000e-08, 5.14084112e-01, 2.00000000e-08, 5.14084106e-01, 2.00000000e-08, 1.05149498e+08, 2.00000000e-08, 5.19714515e+08, 2.00000000e-08, 8.27151340e+07, 2.00000000e-08, 2.68594114e+01 , 1,.300, SKY130
 2.50000000e-08, 6.65739540e-07, 2.50000000e-08, 2.50558657e-08, 2.50000000e-08, 1.05969468e-15, 2.50000000e-08 -5.84281040e-16, 2.50000000e-08, 2.10865433e-18, 2.50000000e-08, 3.11375265e-16, 2.50000000e-08, 4.66234682e-16, 2.50000000e-08 -8.94442229e-19, 2.50000000e-08, 1.17199755e-08, 2.50000000e-08, 7.01226582e-01, 2.50000000e-08, 3.76951733e-02, 2.50000000e-08, 5.22139500e-01, 2.50000000e-08, 5.22139492e-01, 2.50000000e-08, 8.53244105e+07, 2.50000000e-08, 6.28237126e+08, 2.50000000e-08, 9.99870440e+07, 2.50000000e-08, 2.65702071e+01 , 1,.300, SKY130
 3.00000000e-08, 7.90059655e-07, 3.00000000e-08, 3.00181769e-08, 3.00000000e-08, 1.07614782e-15, 3.00000000e-08 -6.06560924e-16, 3.00000000e-08, 2.19044933e-18, 3.00000000e-08, 3.22080360e-16, 3.00000000e-08, 4.82276686e-16, 3.00000000e-08 -9.29791131e-19, 3.00000000e-08, 1.39190781e-08, 3.00000000e-08, 7.01193716e-01, 3.00000000e-08, 3.78419076e-02, 3.00000000e-08, 5.28853990e-01, 3.00000000e-08, 5.28853982e-01, 3.00000000e-08, 7.18438387e+07, 3.00000000e-08, 7.34155329e+08, 3.00000000e-08, 1.16844450e+08, 3.00000000e-08, 2.63193750e+01 , 1,.300, SKY130
 3.50000000e-08, 9.13677181e-07, 3.50000000e-08, 3.50100639e-08, 3.50000000e-08, 1.09042615e-15, 3.50000000e-08 -6.25851946e-16, 3.50000000e-08, 2.26105851e-18, 3.50000000e-08, 3.31317023e-16, 3.50000000e-08, 4.96118525e-16, 3.50000000e-08 -9.60149251e-19, 3.50000000e-08, 1.61081326e-08, 3.50000000e-08, 7.01165484e-01, 3.50000000e-08, 3.79881909e-02, 3.50000000e-08, 5.34621808e-01, 3.50000000e-08, 5.34621798e-01, 3.50000000e-08, 6.20804425e+07, 3.50000000e-08, 8.37908352e+08, 3.50000000e-08, 1.33357256e+08, 3.50000000e-08, 2.60975582e+01 , 1,.300, SKY130
 4.00000000e-08, 1.03614180e-06, 4.00000000e-08, 4.00064275e-08, 4.00000000e-08, 1.10300064e-15, 4.00000000e-08 -6.42809438e-16, 4.00000000e-08, 2.32296241e-18, 4.00000000e-08, 3.39412258e-16, 4.00000000e-08, 5.08250104e-16, 4.00000000e-08 -9.86646232e-19, 4.00000000e-08, 1.82782961e-08, 4.00000000e-08, 7.01140804e-01, 4.00000000e-08, 3.81333457e-02, 4.00000000e-08, 5.39664072e-01, 4.00000000e-08, 5.39664060e-01, 4.00000000e-08, 5.47096947e+07, 4.00000000e-08, 9.39384589e+08, 4.00000000e-08, 1.49507701e+08, 4.00000000e-08, 2.58993832e+01 , 1,.300, SKY130
 4.50000000e-08, 1.15751817e-06, 4.50000000e-08, 4.50040513e-08, 4.50000000e-08, 1.11423716e-15, 4.50000000e-08 -6.57939082e-16, 4.50000000e-08, 2.37806337e-18, 4.50000000e-08, 3.46616270e-16, 4.50000000e-08, 5.19046295e-16, 4.50000000e-08 -1.01013880e-18, 4.50000000e-08, 2.04299915e-08, 4.50000000e-08, 7.01118867e-01, 4.50000000e-08, 3.82773349e-02, 4.50000000e-08, 5.44145709e-01, 4.50000000e-08, 5.44145696e-01, 4.50000000e-08, 4.89476465e+07, 4.50000000e-08, 1.03884362e+09, 4.50000000e-08, 1.65337098e+08, 4.50000000e-08, 2.57203104e+01 , 1,.300, SKY130
 5.00000000e-08, 1.27791480e-06, 5.00000000e-08, 5.00026165e-08, 5.00000000e-08, 1.12439781e-15, 5.00000000e-08 -6.71601942e-16, 5.00000000e-08, 2.42771612e-18, 5.00000000e-08, 3.53107035e-16, 5.00000000e-08, 5.28773754e-16, 5.00000000e-08 -1.03123406e-18, 5.00000000e-08, 2.25645514e-08, 5.00000000e-08, 7.01099109e-01, 5.00000000e-08, 3.84201981e-02, 5.00000000e-08, 5.48182396e-01, 5.00000000e-08, 5.48182382e-01, 5.00000000e-08, 4.43173003e+07, 5.00000000e-08, 1.13653263e+09, 5.00000000e-08, 1.80884786e+08, 5.00000000e-08, 2.55569586e+01 , 1,.300, SKY130
 5.50000000e-08, 1.39741753e-06, 5.50000000e-08, 5.50017209e-08, 5.50000000e-08, 1.13367323e-15, 5.50000000e-08 -6.84060080e-16, 5.50000000e-08, 2.47290225e-18, 5.50000000e-08, 3.59013390e-16, 5.50000000e-08, 5.37625514e-16, 5.50000000e-08 -1.05037037e-18, 5.50000000e-08, 2.46830129e-08, 5.50000000e-08, 7.01081123e-01, 5.50000000e-08, 3.85619663e-02, 5.50000000e-08, 5.51856973e-01, 5.50000000e-08, 5.51856957e-01, 5.50000000e-08, 4.05136927e+07, 5.50000000e-08, 1.23264578e+09, 5.50000000e-08, 1.96181670e+08, 5.50000000e-08, 2.54067965e+01 , 1,.300, SKY130
 6.00000000e-08, 1.51610064e-06, 6.00000000e-08, 6.00011310e-08, 6.00000000e-08, 1.14220702e-15, 6.00000000e-08 -6.95510478e-16, 6.00000000e-08, 2.51435831e-18, 6.00000000e-08, 3.64431936e-16, 6.00000000e-08, 5.45746319e-16, 6.00000000e-08 -1.06787562e-18, 6.00000000e-08, 2.67862930e-08, 6.00000000e-08, 7.01064608e-01, 6.00000000e-08, 3.87026704e-02, 6.00000000e-08, 5.55230986e-01, 6.00000000e-08, 5.55230968e-01, 6.00000000e-08, 3.73325268e+07, 6.00000000e-08, 1.32734313e+09, 6.00000000e-08, 2.11253220e+08, 6.00000000e-08, 2.52678676e+01 , 1,.300, SKY130
 6.50000000e-08, 1.63402892e-06, 6.50000000e-08, 6.50007271e-08, 6.50000000e-08, 1.15011011e-15, 6.50000000e-08 -7.06105059e-16, 6.50000000e-08, 2.55265151e-18, 6.50000000e-08, 3.69437017e-16, 6.50000000e-08, 5.53247560e-16, 6.50000000e-08 -1.08400156e-18, 6.50000000e-08, 2.88752094e-08, 6.50000000e-08, 7.01049335e-01, 6.50000000e-08, 3.88423411e-02, 6.50000000e-08, 5.58351427e-01, 6.50000000e-08, 5.58351408e-01, 6.50000000e-08, 3.46317835e+07, 6.50000000e-08, 1.42075867e+09, 6.50000000e-08, 2.26120766e+08, 6.50000000e-08, 2.51386252e+01 , 1,.300, SKY130
 7.00000000e-08, 1.75125870e-06, 7.00000000e-08, 7.00004402e-08, 7.00000000e-08, 1.15747003e-15, 7.00000000e-08 -7.15963486e-16, 7.00000000e-08, 2.58822799e-18, 7.00000000e-08, 3.74087073e-16, 7.00000000e-08, 5.60216802e-16, 7.00000000e-08 -1.09894571e-18, 7.00000000e-08, 3.09504855e-08, 7.00000000e-08, 7.01035123e-01, 7.00000000e-08, 3.89810073e-02, 7.00000000e-08, 5.61254987e-01, 7.00000000e-08, 5.61254967e-01, 7.00000000e-08, 3.23096709e+07, 7.00000000e-08, 1.51300566e+09, 7.00000000e-08, 2.40802330e+08, 7.00000000e-08, 2.50178241e+01 , 1,.300, SKY130
 7.50000000e-08, 1.86783922e-06, 7.50000000e-08, 7.50002313e-08, 7.50000000e-08, 1.16435705e-15, 7.50000000e-08 -7.25181735e-16, 7.50000000e-08, 2.62144510e-18, 7.50000000e-08, 3.78428893e-16, 7.50000000e-08, 5.66724151e-16, 7.50000000e-08 -1.11286588e-18, 7.50000000e-08, 3.30127647e-08, 7.50000000e-08, 7.01021829e-01, 7.50000000e-08, 3.91186963e-02, 7.50000000e-08, 5.63970868e-01, 7.50000000e-08, 5.63970846e-01, 7.50000000e-08, 3.02913134e+07, 7.50000000e-08, 1.60418079e+09, 7.50000000e-08, 2.55313303e+08, 7.50000000e-08, 2.49044461e+01 , 1,.300, SKY130
 8.00000000e-08, 1.98381363e-06, 8.00000000e-08, 8.00000751e-08, 8.00000000e-08, 1.17082852e-15, 8.00000000e-08 -7.33837985e-16, 8.00000000e-08, 2.65259360e-18, 8.00000000e-08, 3.82500526e-16, 8.00000000e-08, 5.72826622e-16, 8.00000000e-08 -1.12589020e-18, 8.00000000e-08, 3.50626206e-08, 8.00000000e-08, 7.01009339e-01, 8.00000000e-08, 3.92554338e-02, 8.00000000e-08, 5.66522692e-01, 8.00000000e-08, 5.66522669e-01, 8.00000000e-08, 2.85204010e+07, 8.00000000e-08, 1.69436736e+09, 8.00000000e-08, 2.69666940e+08, 8.00000000e-08, 2.47976471e+01 , 1,.300, SKY130
 8.50000000e-08, 2.09922007e-06, 8.50000000e-08, 8.49999576e-08, 8.50000000e-08, 1.17693183e-15, 8.50000000e-08 -7.41996793e-16, 8.50000000e-08, 2.68191328e-18, 8.50000000e-08, 3.86333343e-16, 8.50000000e-08, 5.78571220e-16, 8.50000000e-08 -1.13812412e-18, 8.50000000e-08, 3.71005697e-08, 8.50000000e-08, 7.00997557e-01, 8.50000000e-08, 3.93912436e-02, 8.50000000e-08, 5.68929848e-01, 8.50000000e-08, 5.68929823e-01, 8.50000000e-08, 2.69537640e+07, 8.50000000e-08, 1.78363777e+09, 8.50000000e-08, 2.83874768e+08, 8.50000000e-08, 2.46967190e+01 , 1,.300, SKY130
 9.00000000e-08, 2.21409221e-06, 9.00000000e-08, 8.99998640e-08, 9.00000000e-08, 1.18270661e-15, 9.00000000e-08 -7.49712089e-16, 9.00000000e-08, 2.70960427e-18, 9.00000000e-08, 3.89953516e-16, 9.00000000e-08, 5.83997161e-16, 9.00000000e-08 -1.14965545e-18, 9.00000000e-08, 3.91270760e-08, 9.00000000e-08, 7.00986404e-01, 9.00000000e-08, 3.95261485e-02, 9.00000000e-08, 5.71208441e-01, 9.00000000e-08, 5.71208415e-01, 9.00000000e-08, 2.55577493e+07, 9.00000000e-08, 1.87205532e+09, 9.00000000e-08, 2.97946858e+08, 9.00000000e-08, 2.46010617e+01 , 1,.300, SKY130
