isweep,gm,i_id,id,i_cgg,cgg,i_cgs,cgs,i_cgd,cgd,i_cds,cds,i_css,css,i_cdd,cdd,i_gds,gds,i_vth,vth,i_vdsat,vdsat,i_vgs,vgs,i_vds,vds,i_rds,rds,i_wt,wt,i_ft,ft,i_kgm,kgm,W,L,pdk
1.00000000e-09,2.51328114e-08,1.00000000e-09,9.99628692e-10,1.00000000e-09,1.11816474e-15,1.00000000e-09,-5.04493115e-16,1.00000000e-09,1.05486330e-18,1.00000000e-09,2.63860558e-16,1.00000000e-09,3.94795841e-16,1.00000000e-09,-5.81549323e-20,1.00000000e-09,2.82912686e-10,1.00000000e-09,6.41456411e-01,1.00000000e-09,4.02216793e-02,1.00000000e-09,3.70522587e-01,1.00000000e-09,3.70522586e-01,1.00000000e-09,3.53465945e+09,1.00000000e-09,2.24768412e+07,1.00000000e-09,3.57730038e+06,1.00000000e-09,2.51421469e+01,0.840,0.500,sky130
1.25000000e-09,3.13279968e-08,1.25000000e-09,1.25004576e-09,1.25000000e-09,1.13973180e-15,1.25000000e-09,-5.35161203e-16,1.25000000e-09,1.15552277e-18,1.25000000e-09,2.78072746e-16,1.25000000e-09,4.16081808e-16,1.25000000e-09,-1.03926871e-19,1.25000000e-09,3.49446419e-10,1.25000000e-09,6.41418840e-01,1.25000000e-09,4.02420845e-02,1.25000000e-09,3.79329488e-01,1.25000000e-09,3.79329488e-01,1.25000000e-09,2.86166905e+09,1.25000000e-09,2.74871657e+07,1.25000000e-09,4.37471829e+06,1.25000000e-09,2.50614799e+01,0.840,0.500,sky130
1.50000000e-09,3.75053302e-08,1.50000000e-09,1.50082151e-09,1.50000000e-09,1.15813663e-15,1.50000000e-09,-5.61149761e-16,1.50000000e-09,1.24041042e-18,1.50000000e-09,2.90059806e-16,1.50000000e-09,4.34036098e-16,1.50000000e-09,-1.41917432e-19,1.50000000e-09,4.15412363e-10,1.50000000e-09,6.41388016e-01,1.50000000e-09,4.02624707e-02,1.50000000e-09,3.86554853e-01,1.50000000e-09,3.86554853e-01,1.50000000e-09,2.40724660e+09,1.50000000e-09,3.23842016e+07,1.50000000e-09,5.15410577e+06,1.50000000e-09,2.49898671e+01,0.840,0.500,sky130
1.75000000e-09,4.36275339e-08,1.75000000e-09,1.75031723e-09,1.75000000e-09,1.17414521e-15,1.75000000e-09,-5.83632434e-16,1.75000000e-09,1.31358939e-18,1.75000000e-09,3.00390669e-16,1.75000000e-09,4.49510377e-16,1.75000000e-09,-1.74268016e-19,1.75000000e-09,4.80499553e-10,1.75000000e-09,6.41362016e-01,1.75000000e-09,4.02827099e-02,1.75000000e-09,3.92649273e-01,1.75000000e-09,3.92649273e-01,1.75000000e-09,2.08116739e+09,1.75000000e-09,3.71568470e+07,1.75000000e-09,5.91369587e+06,1.75000000e-09,2.49255010e+01,0.840,0.500,sky130
2.00000000e-09,4.97330200e-08,2.00000000e-09,1.99999970e-09,2.00000000e-09,1.18841228e-15,2.00000000e-09,-6.03581907e-16,2.00000000e-09,1.37834953e-18,2.00000000e-09,3.09528745e-16,2.00000000e-09,4.63198493e-16,2.00000000e-09,-2.02615136e-19,2.00000000e-09,5.45175103e-10,2.00000000e-09,6.41339415e-01,2.00000000e-09,4.03029251e-02,2.00000000e-09,3.97947289e-01,2.00000000e-09,3.97947288e-01,2.00000000e-09,1.83427305e+09,2.00000000e-09,4.18482887e+07,2.00000000e-09,6.66036200e+06,2.00000000e-09,2.48665137e+01,0.840,0.500,sky130
2.25000000e-09,5.58232824e-08,2.25000000e-09,2.24985767e-09,2.25000000e-09,1.20130096e-15,2.25000000e-09,-6.21538479e-16,2.25000000e-09,1.43651651e-18,2.25000000e-09,3.17731857e-16,2.25000000e-09,4.75486469e-16,2.25000000e-09,-2.27867456e-19,2.25000000e-09,6.09494681e-10,2.25000000e-09,6.41319415e-01,2.25000000e-09,4.03231179e-02,2.25000000e-09,4.02635244e-01,2.25000000e-09,4.02635243e-01,2.25000000e-09,1.64070341e+09,2.25000000e-09,4.64690233e+07,2.25000000e-09,7.39577476e+06,2.25000000e-09,2.48119173e+01,0.840,0.500,sky130
2.50000000e-09,6.18969192e-08,2.50000000e-09,2.49977327e-09,2.50000000e-09,1.21306400e-15,2.50000000e-09,-6.37876011e-16,2.50000000e-09,1.48934702e-18,2.50000000e-09,3.25177863e-16,2.50000000e-09,4.86640613e-16,2.50000000e-09,-2.50642698e-19,2.50000000e-09,6.73473144e-10,2.50000000e-09,6.41301482e-01,2.50000000e-09,4.03432807e-02,2.50000000e-09,4.06839020e-01,2.50000000e-09,4.06839019e-01,2.50000000e-09,1.48484020e+09,2.50000000e-09,5.10252707e+07,2.50000000e-09,8.12092405e+06,2.50000000e-09,2.47610133e+01,0.840,0.500,sky130
2.75000000e-09,6.79545131e-08,2.75000000e-09,2.74971893e-09,2.75000000e-09,1.22389158e-15,2.75000000e-09,-6.52873881e-16,2.75000000e-09,1.53777512e-18,2.75000000e-09,3.31999143e-16,2.75000000e-09,4.96859145e-16,2.75000000e-09,-2.71393442e-19,2.75000000e-09,7.37139470e-10,2.75000000e-09,6.41285224e-01,2.75000000e-09,4.03634130e-02,2.75000000e-09,4.10650051e-01,2.75000000e-09,4.10650050e-01,2.75000000e-09,1.35659538e+09,2.75000000e-09,5.55233111e+07,2.75000000e-09,8.83680942e+06,2.75000000e-09,2.47132579e+01,0.840,0.500,sky130
3.00000000e-09,7.39968318e-08,3.00000000e-09,2.99968190e-09,3.00000000e-09,1.23392869e-15,3.00000000e-09,-6.66743978e-16,3.00000000e-09,1.58250635e-18,3.00000000e-09,3.38295793e-16,3.00000000e-09,5.06291953e-16,3.00000000e-09,-2.90457832e-19,3.00000000e-09,8.00519703e-10,3.00000000e-09,6.41270352e-01,3.00000000e-09,4.03835151e-02,3.00000000e-09,4.14136164e-01,3.00000000e-09,4.14136163e-01,3.00000000e-09,1.24918849e+09,3.00000000e-09,5.99684830e+07,3.00000000e-09,9.54428050e+06,3.00000000e-09,2.46682263e+01,0.840,0.500,sky130
3.25000000e-09,8.00246370e-08,3.25000000e-09,3.24965493e-09,3.25000000e-09,1.24328839e-15,3.25000000e-09,-6.79650783e-16,3.25000000e-09,1.62408655e-18,3.25000000e-09,3.44145310e-16,3.25000000e-09,5.15055084e-16,3.25000000e-09,-3.08095030e-19,3.25000000e-09,8.63636267e-10,3.25000000e-09,6.41256645e-01,3.25000000e-09,4.04035874e-02,3.25000000e-09,4.17349008e-01,3.25000000e-09,4.17349007e-01,3.25000000e-09,1.15789487e+09,3.25000000e-09,6.43653057e+07,3.25000000e-09,1.02440566e+07,3.25000000e-09,2.46255799e+01,0.840,0.500,sky130
3.50000000e-09,8.60387100e-08,3.50000000e-09,3.49963626e-09,3.50000000e-09,1.25206068e-15,3.50000000e-09,-6.91724735e-16,3.50000000e-09,1.66294739e-18,3.50000000e-09,3.49609003e-16,3.50000000e-09,5.23240352e-16,3.50000000e-09,-3.24508279e-19,3.50000000e-09,9.26509133e-10,3.50000000e-09,6.41243933e-01,3.50000000e-09,4.04236308e-02,3.50000000e-09,4.20328835e-01,3.50000000e-09,4.20328834e-01,3.50000000e-09,1.07932018e+09,3.50000000e-09,6.87176840e+07,3.50000000e-09,1.09367591e+07,3.50000000e-09,2.45850436e+01,0.840,0.500,sky130
3.75000000e-09,9.20396812e-08,3.75000000e-09,3.74962171e-09,3.75000000e-09,1.26031826e-15,3.75000000e-09,-7.03070833e-16,3.75000000e-09,1.69943548e-18,3.75000000e-09,3.54736124e-16,3.75000000e-09,5.30921510e-16,3.75000000e-09,-3.39859617e-19,3.75000000e-09,9.89154667e-10,3.75000000e-09,6.41232079e-01,3.75000000e-09,4.04436458e-02,3.75000000e-09,4.23107561e-01,3.75000000e-09,4.23107560e-01,3.75000000e-09,1.01096424e+09,3.75000000e-09,7.30289197e+07,3.75000000e-09,1.16229136e+07,3.75000000e-09,2.45463912e+01,0.840,0.500,sky130
4.00000000e-09,9.80281697e-08,4.00000000e-09,3.99960980e-09,4.00000000e-09,1.26812090e-15,4.00000000e-09,-7.13775101e-16,4.00000000e-09,1.73383418e-18,4.00000000e-09,3.59566944e-16,4.00000000e-09,5.38158869e-16,4.00000000e-09,-3.54280641e-19,4.00000000e-09,1.05158754e-09,4.00000000e-09,6.41220973e-01,4.00000000e-09,4.04636329e-02,4.00000000e-09,4.25710965e-01,4.00000000e-09,4.25710963e-01,4.00000000e-09,9.50943181e+08,4.00000000e-09,7.73019119e+07,4.00000000e-09,1.23029814e+07,4.00000000e-09,2.45094333e+01,0.840,0.500,sky130
4.25000000e-09,1.04004784e-07,4.25000000e-09,4.24960135e-09,4.25000000e-09,1.27551832e-15,4.25000000e-09,-7.23908960e-16,4.25000000e-09,1.76637831e-18,4.25000000e-09,3.64134835e-16,4.25000000e-09,5.45002409e-16,4.25000000e-09,-3.67879737e-19,4.25000000e-09,1.11382106e-09,4.25000000e-09,6.41210524e-01,4.25000000e-09,4.04835929e-02,4.25000000e-09,4.28160172e-01,4.25000000e-09,4.28160170e-01,4.25000000e-09,8.97810283e+08,4.25000000e-09,8.15392317e+07,4.25000000e-09,1.29773718e+07,4.25000000e-09,2.44740095e+01,0.840,0.500,sky130
4.50000000e-09,1.09969994e-07,4.50000000e-09,4.49959364e-09,4.50000000e-09,1.28255228e-15,4.50000000e-09,-7.33532184e-16,4.50000000e-09,1.79726406e-18,4.50000000e-09,3.68467686e-16,4.50000000e-09,5.51493894e-16,4.50000000e-09,-3.80747005e-19,4.50000000e-09,1.17586609e-09,4.50000000e-09,6.41200659e-01,4.50000000e-09,4.05035261e-02,4.50000000e-09,4.30472663e-01,4.50000000e-09,4.30472662e-01,4.50000000e-09,8.50436975e+08,4.50000000e-09,8.57430889e+07,4.50000000e-09,1.36464364e+07,4.50000000e-09,2.44399834e+01,0.840,0.500,sky130
4.75000000e-09,1.15924302e-07,4.75000000e-09,4.74958730e-09,4.75000000e-09,1.28925831e-15,4.75000000e-09,-7.42695552e-16,4.75000000e-09,1.82665786e-18,4.75000000e-09,3.72589150e-16,4.75000000e-09,5.57668751e-16,4.75000000e-09,-3.92958470e-19,4.75000000e-09,1.23773301e-09,4.75000000e-09,6.41191314e-01,4.75000000e-09,4.05234330e-02,4.75000000e-09,4.32663122e-01,4.75000000e-09,4.32663121e-01,4.75000000e-09,8.07928681e+08,4.75000000e-09,8.99154971e+07,4.75000000e-09,1.43104958e+07,4.75000000e-09,2.44072369e+01,0.840,0.500,sky130
5.00000000e-09,1.21868146e-07,5.00000000e-09,4.99958195e-09,5.00000000e-09,1.29566686e-15,5.00000000e-09,-7.51442459e-16,5.00000000e-09,1.85470172e-18,5.00000000e-09,3.76519413e-16,5.00000000e-09,5.63557209e-16,5.00000000e-09,-4.04578722e-19,5.00000000e-09,1.29943087e-09,5.00000000e-09,6.41182437e-01,5.00000000e-09,4.05433141e-02,5.00000000e-09,4.34743972e-01,5.00000000e-09,4.34743970e-01,5.00000000e-09,7.69567681e+08,5.00000000e-09,9.40582407e+07,5.00000000e-09,1.49698339e+07,5.00000000e-09,2.43756672e+01,0.840,0.500,sky130
5.25000000e-09,1.27801936e-07,5.25000000e-09,5.24957759e-09,5.25000000e-09,1.30180424e-15,5.25000000e-09,-7.59810333e-16,5.25000000e-09,1.88151799e-18,5.25000000e-09,3.80275860e-16,5.25000000e-09,5.69185308e-16,5.25000000e-09,-4.15663165e-19,5.25000000e-09,1.36096786e-09,5.25000000e-09,6.41173982e-01,5.25000000e-09,4.05631697e-02,5.25000000e-09,4.36725826e-01,5.25000000e-09,4.36725824e-01,5.25000000e-09,7.34771208e+08,5.25000000e-09,9.81729297e+07,5.25000000e-09,1.56247070e+07,5.25000000e-09,2.43451846e+01,0.840,0.500,sky130
5.50000000e-09,1.33726026e-07,5.50000000e-09,5.49957315e-09,5.50000000e-09,1.30769330e-15,5.50000000e-09,-7.67831648e-16,5.50000000e-09,1.90721270e-18,5.50000000e-09,3.83873559e-16,5.50000000e-09,5.74575614e-16,5.50000000e-09,-4.26259632e-19,5.50000000e-09,1.42235114e-09,5.50000000e-09,6.41165911e-01,5.50000000e-09,4.05830003e-02,5.50000000e-09,4.38617813e-01,5.50000000e-09,4.38617811e-01,5.50000000e-09,7.03061273e+08,5.50000000e-09,1.02261001e+08,5.50000000e-09,1.62753438e+07,5.50000000e-09,2.43157100e+01,0.840,0.500,sky130
5.75000000e-09,1.39640794e-07,5.75000000e-09,5.74956971e-09,5.75000000e-09,1.31335412e-15,5.75000000e-09,-7.75534864e-16,5.75000000e-09,1.93187869e-18,5.75000000e-09,3.87325697e-16,5.75000000e-09,5.79747879e-16,5.75000000e-09,-4.36409839e-19,5.75000000e-09,1.48358769e-09,5.75000000e-09,6.41158189e-01,5.75000000e-09,4.06028061e-02,5.75000000e-09,4.40427866e-01,5.75000000e-09,4.40427864e-01,5.75000000e-09,6.74041722e+08,5.75000000e-09,1.06323794e+08,5.75000000e-09,1.69219574e+07,5.75000000e-09,2.42871729e+01,0.840,0.500,sky130
6.00000000e-09,1.45546564e-07,6.00000000e-09,5.99956717e-09,6.00000000e-09,1.31880438e-15,6.00000000e-09,-7.82944984e-16,6.00000000e-09,1.95559741e-18,6.00000000e-09,3.90643846e-16,6.00000000e-09,5.84719436e-16,6.00000000e-09,-4.46150271e-19,6.00000000e-09,1.54468363e-09,6.00000000e-09,6.41150787e-01,6.00000000e-09,4.06225875e-02,6.00000000e-09,4.42162899e-01,6.00000000e-09,4.42162897e-01,6.00000000e-09,6.47381755e+08,6.00000000e-09,1.10362512e+08,6.00000000e-09,1.75647393e+07,6.00000000e-09,2.42595107e+01,0.840,0.500,sky130
6.25000000e-09,1.51443598e-07,6.25000000e-09,6.24956365e-09,6.25000000e-09,1.32405968e-15,6.25000000e-09,-7.90084069e-16,6.25000000e-09,1.97844070e-18,6.25000000e-09,3.93838210e-16,6.25000000e-09,5.89505566e-16,6.25000000e-09,-4.55513003e-19,6.25000000e-09,1.60564413e-09,6.25000000e-09,6.41143680e-01,6.25000000e-09,4.06423448e-02,6.25000000e-09,4.43828973e-01,6.25000000e-09,4.43828971e-01,6.25000000e-09,6.22803014e+08,6.25000000e-09,1.14378226e+08,6.25000000e-09,1.82038601e+07,6.25000000e-09,2.42326674e+01,0.840,0.500,sky130
6.50000000e-09,1.57332223e-07,6.50000000e-09,6.49956098e-09,6.50000000e-09,1.32913399e-15,6.50000000e-09,-7.96971835e-16,6.50000000e-09,2.00047270e-18,6.50000000e-09,3.96917894e-16,6.50000000e-09,5.94119907e-16,6.50000000e-09,-4.64526573e-19,6.50000000e-09,1.66647478e-09,6.50000000e-09,6.41136843e-01,6.50000000e-09,4.06620782e-02,6.50000000e-09,4.45431461e-01,6.50000000e-09,4.45431459e-01,6.50000000e-09,6.00069086e+08,6.50000000e-09,1.18371980e+08,6.50000000e-09,1.88394858e+07,6.50000000e-09,2.42065923e+01,0.840,0.500,sky130
6.75000000e-09,1.63212697e-07,6.75000000e-09,6.74955873e-09,6.75000000e-09,1.33403977e-15,6.75000000e-09,-8.03625832e-16,6.75000000e-09,2.02175046e-18,6.75000000e-09,3.99890997e-16,6.75000000e-09,5.98574591e-16,6.75000000e-09,-4.73216297e-19,6.75000000e-09,1.72718027e-09,6.75000000e-09,6.41130258e-01,6.75000000e-09,4.06817880e-02,6.75000000e-09,4.46975116e-01,6.75000000e-09,4.46975114e-01,6.75000000e-09,5.78978361e+08,6.75000000e-09,1.22344701e+08,6.75000000e-09,1.94717639e+07,6.75000000e-09,2.41812397e+01,0.840,0.500,sky130
7.00000000e-09,1.69085259e-07,7.00000000e-09,6.99955632e-09,7.00000000e-09,1.33878820e-15,7.00000000e-09,-8.10061797e-16,7.00000000e-09,2.04232508e-18,7.00000000e-09,4.02764775e-16,7.00000000e-09,6.02880484e-16,7.00000000e-09,-4.81604800e-19,7.00000000e-09,1.78776485e-09,7.00000000e-09,6.41123906e-01,7.00000000e-09,4.07014744e-02,7.00000000e-09,4.48464175e-01,7.00000000e-09,4.48464173e-01,7.00000000e-09,5.59357681e+08,7.00000000e-09,1.26297243e+08,7.00000000e-09,2.01008305e+07,7.00000000e-09,2.41565681e+01,0.840,0.500,sky130
7.25000000e-09,1.74950158e-07,7.25000000e-09,7.24955431e-09,7.25000000e-09,1.34338939e-15,7.25000000e-09,-8.16293930e-16,7.25000000e-09,2.06224267e-18,7.25000000e-09,4.05545769e-16,7.25000000e-09,6.07047385e-16,7.25000000e-09,-4.89712428e-19,7.25000000e-09,1.84823276e-09,7.25000000e-09,6.41117770e-01,7.25000000e-09,4.07211378e-02,7.25000000e-09,4.49902437e-01,7.25000000e-09,4.49902435e-01,7.25000000e-09,5.41057394e+08,7.25000000e-09,1.30230415e+08,7.25000000e-09,2.07268143e+07,7.25000000e-09,2.41325397e+01,0.840,0.500,sky130
7.50000000e-09,1.80807606e-07,7.50000000e-09,7.49955227e-09,7.50000000e-09,1.34785244e-15,7.50000000e-09,-8.22335044e-16,7.50000000e-09,2.08154479e-18,7.50000000e-09,4.08239875e-16,7.50000000e-09,6.11084126e-16,7.50000000e-09,-4.97557484e-19,7.50000000e-09,1.90858770e-09,7.50000000e-09,6.41111836e-01,7.50000000e-09,4.07407782e-02,7.50000000e-09,4.51293311e-01,7.50000000e-09,4.51293308e-01,7.50000000e-09,5.23947628e+08,7.50000000e-09,1.34144956e+08,7.50000000e-09,2.13498328e+07,7.50000000e-09,2.41091201e+01,0.840,0.500,sky130
7.75000000e-09,1.86657836e-07,7.75000000e-09,7.74955101e-09,7.75000000e-09,1.35218569e-15,7.75000000e-09,-8.28196786e-16,7.75000000e-09,2.10026921e-18,7.75000000e-09,4.10852452e-16,7.75000000e-09,6.14998731e-16,7.75000000e-09,-5.05156557e-19,7.75000000e-09,1.96883344e-09,7.75000000e-09,6.41106092e-01,7.75000000e-09,4.07603960e-02,7.75000000e-09,4.52639878e-01,7.75000000e-09,4.52639876e-01,7.75000000e-09,5.07914982e+08,7.75000000e-09,1.38041571e+08,7.75000000e-09,2.19699983e+07,7.75000000e-09,2.40862775e+01,0.840,0.500,sky130
8.00000000e-09,1.92501022e-07,8.00000000e-09,7.99954950e-09,8.00000000e-09,1.35639665e-15,8.00000000e-09,-8.33889717e-16,8.00000000e-09,2.11845014e-18,8.00000000e-09,4.13388350e-16,8.00000000e-09,6.18798468e-16,8.00000000e-09,-5.12524646e-19,8.00000000e-09,2.02897304e-09,8.00000000e-09,6.41100524e-01,8.00000000e-09,4.07799912e-02,8.00000000e-09,4.53944919e-01,8.00000000e-09,4.53944916e-01,8.00000000e-09,4.92860172e+08,8.00000000e-09,1.41920892e+08,8.00000000e-09,2.25874114e+07,8.00000000e-09,2.40639828e+01,0.840,0.500,sky130
8.25000000e-09,1.98337363e-07,8.25000000e-09,8.24954812e-09,8.25000000e-09,1.36049224e-15,8.25000000e-09,-8.39423502e-16,8.25000000e-09,2.13611889e-18,8.25000000e-09,4.15852010e-16,8.25000000e-09,6.22489986e-16,8.25000000e-09,-5.19675445e-19,8.25000000e-09,2.08900972e-09,8.25000000e-09,6.41095123e-01,8.25000000e-09,4.07995642e-02,8.25000000e-09,4.55210965e-01,8.25000000e-09,4.55210962e-01,8.25000000e-09,4.78695715e+08,8.25000000e-09,1.45783531e+08,8.25000000e-09,2.32021696e+07,8.25000000e-09,2.40422093e+01,0.840,0.500,sky130
8.50000000e-09,2.04167000e-07,8.50000000e-09,8.49954523e-09,8.50000000e-09,1.36447875e-15,8.50000000e-09,-8.44806947e-16,8.50000000e-09,2.15330397e-18,8.50000000e-09,4.18247470e-16,8.50000000e-09,6.26079338e-16,8.50000000e-09,-5.26621396e-19,8.50000000e-09,2.14894601e-09,8.50000000e-09,6.41089879e-01,8.50000000e-09,4.08191149e-02,8.50000000e-09,4.56440313e-01,8.50000000e-09,4.56440310e-01,8.50000000e-09,4.65344404e+08,8.50000000e-09,1.49630033e+08,8.50000000e-09,2.38143594e+07,8.50000000e-09,2.40209323e+01,0.840,0.500,sky130
8.75000000e-09,2.09990180e-07,8.75000000e-09,8.74954397e-09,8.75000000e-09,1.36836204e-15,8.75000000e-09,-8.50048231e-16,8.75000000e-09,2.17003184e-18,8.75000000e-09,4.20578482e-16,8.75000000e-09,6.29572140e-16,8.75000000e-09,-5.33374022e-19,8.75000000e-09,2.20878543e-09,8.75000000e-09,6.41084782e-01,8.75000000e-09,4.08386437e-02,8.75000000e-09,4.57635083e-01,8.75000000e-09,4.57635080e-01,8.75000000e-09,4.52737503e+08,8.75000000e-09,1.53460980e+08,8.75000000e-09,2.44240736e+07,8.75000000e-09,2.40001285e+01,0.840,0.500,sky130
9.00000000e-09,2.15807024e-07,9.00000000e-09,8.99954261e-09,9.00000000e-09,1.37214743e-15,9.00000000e-09,-8.55154779e-16,9.00000000e-09,2.18632651e-18,9.00000000e-09,4.22848448e-16,9.00000000e-09,6.32973489e-16,9.00000000e-09,-5.39943766e-19,9.00000000e-09,2.26853016e-09,9.00000000e-09,6.41079824e-01,9.00000000e-09,4.08581507e-02,9.00000000e-09,4.58797195e-01,9.00000000e-09,4.58797192e-01,9.00000000e-09,4.40814065e+08,9.00000000e-09,1.57276849e+08,9.00000000e-09,2.50313879e+07,9.00000000e-09,2.39797769e+01,0.840,0.500,sky130
9.25000000e-09,2.21617689e-07,9.25000000e-09,9.24954123e-09,9.25000000e-09,1.37583986e-15,9.25000000e-09,-8.60133474e-16,9.25000000e-09,2.20221024e-18,9.25000000e-09,4.25060519e-16,9.25000000e-09,6.36288106e-16,9.25000000e-09,-5.46340287e-19,9.25000000e-09,2.32818268e-09,9.25000000e-09,6.41074998e-01,9.25000000e-09,4.08776361e-02,9.25000000e-09,4.59928419e-01,9.25000000e-09,4.59928416e-01,9.25000000e-09,4.29519561e+08,9.25000000e-09,1.61078114e+08,9.25000000e-09,2.56363781e+07,9.25000000e-09,2.39598574e+01,0.840,0.500,sky130
9.50000000e-09,2.27422344e-07,9.50000000e-09,9.49954063e-09,9.50000000e-09,1.37944389e-15,9.50000000e-09,-8.64990690e-16,9.50000000e-09,2.21770363e-18,9.50000000e-09,4.27217614e-16,9.50000000e-09,6.39520362e-16,9.50000000e-09,-5.52572508e-19,9.50000000e-09,2.38774550e-09,9.50000000e-09,6.41070297e-01,9.50000000e-09,4.08971000e-02,9.50000000e-09,4.61030390e-01,9.50000000e-09,4.61030386e-01,9.50000000e-09,4.18805103e+08,9.50000000e-09,1.64865237e+08,9.50000000e-09,2.62391174e+07,9.50000000e-09,2.39403518e+01,0.840,0.500,sky130
9.75000000e-09,2.33221098e-07,9.75000000e-09,9.74953941e-09,9.75000000e-09,1.38296375e-15,9.75000000e-09,-8.69732290e-16,9.75000000e-09,2.23282560e-18,9.75000000e-09,4.29322414e-16,9.75000000e-09,6.42674273e-16,9.75000000e-09,-5.58648622e-19,9.75000000e-09,2.44722049e-09,9.75000000e-09,6.41065715e-01,9.75000000e-09,4.09165426e-02,9.75000000e-09,4.62104603e-01,9.75000000e-09,4.62104599e-01,9.75000000e-09,4.08626850e+08,9.75000000e-09,1.68638619e+08,9.75000000e-09,2.68396699e+07,9.75000000e-09,2.39212426e+01,0.840,0.500,sky130
1.00000000e-08,2.39014047e-07,1.00000000e-08,9.99953588e-09,1.00000000e-08,1.38640334e-15,1.00000000e-08,-8.74363709e-16,1.00000000e-08,2.24759373e-18,1.00000000e-08,4.31377403e-16,1.00000000e-08,6.45753562e-16,1.00000000e-08,-5.64576212e-19,1.00000000e-08,2.50660935e-09,1.00000000e-08,6.41061244e-01,1.00000000e-08,4.09359637e-02,1.00000000e-08,4.63152441e-01,1.00000000e-08,4.63152438e-01,1.00000000e-08,3.98945293e+08,1.00000000e-08,1.72398638e+08,1.00000000e-08,2.74380954e+07,1.00000000e-08,2.39025140e+01,0.840,0.500,sky130
