isweep,gm,i_id,id,i_cgg,cgg,i_cgs,cgs,i_cgd,cgd,i_cds,cds,i_css,css,i_cdd,cdd,i_gds,gds,i_vth,vth,i_vdsat,vdsat,i_vgs,vgs,i_vds,vds,i_rds,rds,i_wt,wt,i_ft,ft,i_kgm,kgm,W,L,pdk
1.00000000e-09,3.01297441e-08,1.00000000e-09,9.99557095e-10,1.00000000e-09,1.13942780e-15,1.00000000e-09,-5.40697435e-16,1.00000000e-09,1.47522292e-18,1.00000000e-09,2.78670574e-16,1.00000000e-09,4.17087102e-16,1.00000000e-09,-4.99519305e-19,1.00000000e-09,2.94712763e-10,1.00000000e-09,6.87594003e-01,1.00000000e-09,3.32093178e-02,1.00000000e-09,4.42463344e-01,1.00000000e-09,4.42463343e-01,1.00000000e-09,3.39313436e+09,1.00000000e-09,2.64428726e+07,1.00000000e-09,4.20851388e+06,1.00000000e-09,3.01430946e+01,0.840,0.500,sky130
1.25000000e-09,3.75196616e-08,1.25000000e-09,1.24996979e-09,1.25000000e-09,1.16295638e-15,1.25000000e-09,-5.72893051e-16,1.25000000e-09,1.57690111e-18,1.25000000e-09,2.93509393e-16,1.25000000e-09,4.39314794e-16,1.25000000e-09,-5.40943125e-19,1.25000000e-09,3.65597384e-10,1.25000000e-09,6.87562604e-01,1.25000000e-09,3.32268809e-02,1.25000000e-09,4.49823576e-01,1.25000000e-09,4.49823576e-01,1.25000000e-09,2.73524933e+09,1.25000000e-09,3.22623119e+07,1.25000000e-09,5.13470642e+06,1.25000000e-09,3.00164548e+01,0.840,0.500,sky130
1.50000000e-09,4.48778820e-08,1.50000000e-09,1.50073343e-09,1.50000000e-09,1.18296122e-15,1.50000000e-09,-6.00133227e-16,1.50000000e-09,1.66295817e-18,1.50000000e-09,3.06009949e-16,1.50000000e-09,4.58040491e-16,1.50000000e-09,-5.75797743e-19,1.50000000e-09,4.36041535e-10,1.50000000e-09,6.87536821e-01,1.50000000e-09,3.32444303e-02,1.50000000e-09,4.55867218e-01,1.50000000e-09,4.55867217e-01,1.50000000e-09,2.29335951e+09,1.50000000e-09,3.79369004e+07,1.50000000e-09,6.03784522e+06,1.50000000e-09,2.99039663e+01,0.840,0.500,sky130
1.75000000e-09,5.21619821e-08,1.75000000e-09,1.75023781e-09,1.75000000e-09,1.20031288e-15,1.75000000e-09,-6.23670872e-16,1.75000000e-09,1.73733844e-18,1.75000000e-09,3.16773849e-16,1.75000000e-09,4.74165112e-16,1.75000000e-09,-6.05780630e-19,1.75000000e-09,5.05678925e-10,1.75000000e-09,6.87515055e-01,1.75000000e-09,3.32618572e-02,1.75000000e-09,4.60969387e-01,1.75000000e-09,4.60969386e-01,1.75000000e-09,1.97753940e+09,1.75000000e-09,4.34569878e+07,1.75000000e-09,6.91639442e+06,1.75000000e-09,2.98027969e+01,0.840,0.500,sky130
2.00000000e-09,5.94178871e-08,2.00000000e-09,1.99992655e-09,2.00000000e-09,1.21574034e-15,2.00000000e-09,-6.44533967e-16,2.00000000e-09,1.80328167e-18,2.00000000e-09,3.26287065e-16,2.00000000e-09,4.88416484e-16,2.00000000e-09,-6.32257245e-19,2.00000000e-09,5.74974543e-10,2.00000000e-09,6.87496119e-01,2.00000000e-09,3.32792651e-02,2.00000000e-09,4.65408022e-01,2.00000000e-09,4.65408021e-01,2.00000000e-09,1.73920743e+09,2.00000000e-09,4.88738302e+07,2.00000000e-09,7.77851166e+06,2.00000000e-09,2.97100347e+01,0.840,0.500,sky130
2.25000000e-09,6.66479851e-08,2.25000000e-09,2.24978663e-09,2.25000000e-09,1.22964946e-15,2.25000000e-09,-6.63295335e-16,2.25000000e-09,1.86259285e-18,2.25000000e-09,3.34820751e-16,2.25000000e-09,5.01200705e-16,2.25000000e-09,-6.55989681e-19,2.25000000e-09,6.43968394e-10,2.25000000e-09,6.87479353e-01,2.25000000e-09,3.32966550e-02,2.25000000e-09,4.69338180e-01,2.25000000e-09,4.69338179e-01,2.25000000e-09,1.55287124e+09,2.25000000e-09,5.42008007e+07,2.25000000e-09,8.62632536e+06,2.25000000e-09,2.96241361e+01,0.840,0.500,sky130
2.50000000e-09,7.38513047e-08,2.50000000e-09,2.49970501e-09,2.50000000e-09,1.24232220e-15,2.50000000e-09,-6.80351430e-16,2.50000000e-09,1.91652143e-18,2.50000000e-09,3.42562041e-16,2.50000000e-09,5.12798038e-16,2.50000000e-09,-6.77503527e-19,2.50000000e-09,7.12663540e-10,2.50000000e-09,6.87464308e-01,2.50000000e-09,3.33140205e-02,2.50000000e-09,4.72864708e-01,2.50000000e-09,4.72864708e-01,2.50000000e-09,1.40318670e+09,2.50000000e-09,5.94461763e+07,2.50000000e-09,9.46115280e+06,2.50000000e-09,2.95440079e+01,0.840,0.500,sky130
2.75000000e-09,8.10289374e-08,2.75000000e-09,2.74965163e-09,2.75000000e-09,1.25396970e-15,2.75000000e-09,-6.95997669e-16,2.75000000e-09,1.96599876e-18,2.75000000e-09,3.49649873e-16,2.75000000e-09,5.23416578e-16,2.75000000e-09,-6.97188701e-19,2.75000000e-09,7.81079510e-10,2.75000000e-09,6.87450661e-01,2.75000000e-09,3.33313606e-02,2.75000000e-09,4.76063691e-01,2.75000000e-09,4.76063690e-01,2.75000000e-09,1.28027939e+09,2.75000000e-09,6.46179391e+07,2.75000000e-09,1.02842644e+07,2.75000000e-09,2.94688013e+01,0.840,0.500,sky130
3.00000000e-09,8.81822385e-08,3.00000000e-09,2.99961504e-09,3.00000000e-09,1.26475263e-15,3.00000000e-09,-7.10458115e-16,3.00000000e-09,2.01173138e-18,3.00000000e-09,3.56189332e-16,3.00000000e-09,5.33213713e-16,3.00000000e-09,-7.15339932e-19,3.00000000e-09,8.49236102e-10,3.00000000e-09,6.87438170e-01,3.00000000e-09,3.33486755e-02,3.00000000e-09,4.78991628e-01,3.00000000e-09,4.78991627e-01,3.00000000e-09,1.17752884e+09,3.00000000e-09,6.97229138e+07,3.00000000e-09,1.10967464e+07,3.00000000e-09,2.93978518e+01,0.840,0.500,sky130
3.25000000e-09,9.53125435e-08,3.25000000e-09,3.24959076e-09,3.25000000e-09,1.27479606e-15,3.25000000e-09,-7.23906618e-16,3.25000000e-09,2.05426764e-18,3.25000000e-09,3.62261753e-16,3.25000000e-09,5.42311265e-16,3.25000000e-09,-7.32185237e-19,3.25000000e-09,9.17151333e-10,3.25000000e-09,6.87426652e-01,3.25000000e-09,3.33659657e-02,3.25000000e-09,4.81691562e-01,3.25000000e-09,4.81691561e-01,3.25000000e-09,1.09033260e+09,3.25000000e-09,7.47668955e+07,3.25000000e-09,1.18995210e+07,3.25000000e-09,2.93306297e+01,0.840,0.500,sky130
3.50000000e-09,1.02420970e-07,3.50000000e-09,3.49957281e-09,3.50000000e-09,1.28419910e-15,3.50000000e-09,-7.36480596e-16,3.50000000e-09,2.09404104e-18,3.50000000e-09,3.67931293e-16,3.50000000e-09,5.50805327e-16,3.50000000e-09,-7.47904399e-19,3.50000000e-09,9.84839970e-10,3.50000000e-09,6.87415964e-01,3.50000000e-09,3.33832315e-02,3.50000000e-09,4.84196981e-01,3.50000000e-09,4.84196979e-01,3.50000000e-09,1.01539339e+09,3.50000000e-09,7.97547435e+07,3.50000000e-09,1.26933617e+07,3.50000000e-09,2.92667063e+01,0.840,0.500,sky130
3.75000000e-09,1.09508562e-07,3.75000000e-09,3.74955772e-09,3.75000000e-09,1.29304183e-15,3.75000000e-09,-7.48290822e-16,3.75000000e-09,2.13140114e-18,3.75000000e-09,3.73249566e-16,3.75000000e-09,5.58773209e-16,3.75000000e-09,-7.62642003e-19,3.75000000e-09,1.05231522e-09,3.75000000e-09,6.87405992e-01,3.75000000e-09,3.34004731e-02,3.75000000e-09,4.86534486e-01,3.75000000e-09,4.86534485e-01,3.75000000e-09,9.50285598e+08,3.75000000e-09,8.46906563e+07,3.75000000e-09,1.34789366e+07,3.75000000e-09,2.92057277e+01,0.840,0.500,sky130
4.00000000e-09,1.16576392e-07,4.00000000e-09,3.99954724e-09,4.00000000e-09,1.30139006e-15,4.00000000e-09,-7.59428101e-16,4.00000000e-09,2.16663449e-18,4.00000000e-09,3.78258804e-16,4.00000000e-09,5.66278166e-16,4.00000000e-09,-7.76516315e-19,4.00000000e-09,1.11958990e-09,4.00000000e-09,6.87396644e-01,4.00000000e-09,3.34176913e-02,4.00000000e-09,4.88725591e-01,4.00000000e-09,4.88725590e-01,4.00000000e-09,8.93184193e+08,4.00000000e-09,8.95783636e+07,4.00000000e-09,1.42568394e+07,4.00000000e-09,2.91473973e+01,0.840,0.500,sky130
4.25000000e-09,1.23625318e-07,4.25000000e-09,4.24953907e-09,4.25000000e-09,1.30929828e-15,4.25000000e-09,-7.69967506e-16,4.25000000e-09,2.19997808e-18,4.25000000e-09,3.82993868e-16,4.25000000e-09,5.73372415e-16,4.25000000e-09,-7.89624932e-19,4.25000000e-09,1.18667424e-09,4.25000000e-09,6.87387847e-01,4.25000000e-09,3.34348864e-02,4.25000000e-09,4.90787877e-01,4.25000000e-09,4.90787876e-01,4.25000000e-09,8.42691251e+08,4.25000000e-09,9.44210498e+07,4.25000000e-09,1.50275768e+07,4.25000000e-09,2.90914652e+01,0.840,0.500,sky130
4.50000000e-09,1.30656124e-07,4.50000000e-09,4.49953139e-09,4.50000000e-09,1.31681227e-15,4.50000000e-09,-7.79971997e-16,4.50000000e-09,2.23163067e-18,4.50000000e-09,3.87483951e-16,4.50000000e-09,5.80099683e-16,4.50000000e-09,-8.02049562e-19,4.50000000e-09,1.25357740e-09,4.50000000e-09,6.87379536e-01,4.50000000e-09,3.34520587e-02,4.50000000e-09,4.92735926e-01,4.50000000e-09,4.92735924e-01,4.50000000e-09,7.97716996e+08,4.50000000e-09,9.92215268e+07,4.50000000e-09,1.57915965e+07,4.50000000e-09,2.90377181e+01,0.840,0.500,sky130
4.75000000e-09,1.37669634e-07,4.75000000e-09,4.74952640e-09,4.75000000e-09,1.32397099e-15,4.75000000e-09,-7.89495055e-16,4.75000000e-09,2.26176113e-18,4.75000000e-09,3.91753813e-16,4.75000000e-09,5.86497057e-16,4.75000000e-09,-8.13859488e-19,4.75000000e-09,1.32030860e-09,4.75000000e-09,6.87371661e-01,4.75000000e-09,3.34692086e-02,4.75000000e-09,4.94581992e-01,4.75000000e-09,4.94581990e-01,4.75000000e-09,7.57398686e+08,4.75000000e-09,1.03982364e+08,4.75000000e-09,1.65493073e+07,4.75000000e-09,2.89859708e+01,0.840,0.500,sky130
5.00000000e-09,1.44666474e-07,5.00000000e-09,4.99952155e-09,5.00000000e-09,1.33080766e-15,5.00000000e-09,-7.98582223e-16,5.00000000e-09,2.29051329e-18,5.00000000e-09,3.95824515e-16,5.00000000e-09,5.92596084e-16,5.00000000e-09,-8.25113629e-19,5.00000000e-09,1.38687491e-09,5.00000000e-09,6.87364176e-01,5.00000000e-09,3.34863364e-02,5.00000000e-09,4.96336419e-01,5.00000000e-09,4.96336418e-01,5.00000000e-09,7.21045560e+08,5.00000000e-09,1.08705772e+08,5.00000000e-09,1.73010610e+07,5.00000000e-09,2.89360638e+01,0.840,0.500,sky130
5.25000000e-09,1.51647288e-07,5.25000000e-09,5.24951681e-09,5.25000000e-09,1.33735102e-15,5.25000000e-09,-8.07272842e-16,5.25000000e-09,2.31801139e-18,5.25000000e-09,3.99714224e-16,5.25000000e-09,5.98423978e-16,5.25000000e-09,-8.35862803e-19,5.25000000e-09,1.45328337e-09,5.25000000e-09,6.87357045e-01,5.25000000e-09,3.35034423e-02,5.25000000e-09,4.98008063e-01,5.25000000e-09,4.98008061e-01,5.25000000e-09,6.88097052e+08,5.25000000e-09,1.13393781e+08,5.25000000e-09,1.80471807e+07,5.25000000e-09,2.88878564e+01,0.840,0.500,sky130
5.50000000e-09,1.58612702e-07,5.50000000e-09,5.49951340e-09,5.50000000e-09,1.34362608e-15,5.50000000e-09,-8.15601105e-16,5.50000000e-09,2.34436345e-18,5.50000000e-09,4.03438713e-16,5.50000000e-09,6.04004365e-16,5.50000000e-09,-8.46151116e-19,5.50000000e-09,1.51954067e-09,5.50000000e-09,6.87350234e-01,5.50000000e-09,3.35205268e-02,5.50000000e-09,4.99604553e-01,5.50000000e-09,4.99604551e-01,5.50000000e-09,6.58093607e+08,5.50000000e-09,1.18048246e+08,5.50000000e-09,1.87879619e+07,5.50000000e-09,2.88412247e+01,0.840,0.500,sky130
5.75000000e-09,1.65563207e-07,5.75000000e-09,5.74950917e-09,5.75000000e-09,1.34965464e-15,5.75000000e-09,-8.23596790e-16,5.75000000e-09,2.36966355e-18,5.75000000e-09,4.07011705e-16,5.75000000e-09,6.09357801e-16,5.75000000e-09,-8.56016940e-19,5.75000000e-09,1.58565210e-09,5.75000000e-09,6.87343716e-01,5.75000000e-09,3.35375899e-02,5.75000000e-09,5.01132488e-01,5.75000000e-09,5.01132486e-01,5.75000000e-09,6.30655363e+08,5.75000000e-09,1.22670794e+08,5.75000000e-09,1.95236633e+07,5.75000000e-09,2.87960594e+01,0.840,0.500,sky130
6.00000000e-09,1.72499420e-07,6.00000000e-09,5.99950786e-09,6.00000000e-09,1.35545605e-15,6.00000000e-09,-8.31286262e-16,6.00000000e-09,2.39399500e-18,6.00000000e-09,4.10445335e-16,6.00000000e-09,6.14502462e-16,6.00000000e-09,-8.65494194e-19,6.00000000e-09,1.65162401e-09,6.00000000e-09,6.87337465e-01,6.00000000e-09,3.35546322e-02,6.00000000e-09,5.02597663e-01,6.00000000e-09,5.02597661e-01,6.00000000e-09,6.05464678e+08,6.00000000e-09,1.27263012e+08,6.00000000e-09,2.02545375e+07,6.00000000e-09,2.87522617e+01,0.840,0.500,sky130
6.25000000e-09,1.79421679e-07,6.25000000e-09,6.24950446e-09,6.25000000e-09,1.36104722e-15,6.25000000e-09,-8.38692573e-16,6.25000000e-09,2.41743062e-18,6.25000000e-09,4.13750206e-16,6.25000000e-09,6.19454233e-16,6.25000000e-09,-8.74612517e-19,6.25000000e-09,1.71746003e-09,6.25000000e-09,6.87331461e-01,6.25000000e-09,3.35716534e-02,6.25000000e-09,5.04005117e-01,6.25000000e-09,5.04005115e-01,6.25000000e-09,5.82255181e+08,6.25000000e-09,1.31826197e+08,6.25000000e-09,2.09807909e+07,6.25000000e-09,2.87097449e+01,0.840,0.500,sky130
6.50000000e-09,1.86330505e-07,6.50000000e-09,6.49950166e-09,6.50000000e-09,1.36644335e-15,6.50000000e-09,-8.45836430e-16,6.50000000e-09,2.44003587e-18,6.50000000e-09,4.16935830e-16,6.50000000e-09,6.24227361e-16,6.50000000e-09,-8.83398491e-19,6.50000000e-09,1.78316543e-09,6.50000000e-09,6.87325684e-01,6.50000000e-09,3.35886542e-02,6.50000000e-09,5.05359341e-01,6.50000000e-09,5.05359338e-01,6.50000000e-09,5.60800463e+08,6.50000000e-09,1.36361675e+08,6.50000000e-09,2.17026347e+07,6.50000000e-09,2.86684295e+01,0.840,0.500,sky130
6.75000000e-09,1.93226307e-07,6.75000000e-09,6.74949903e-09,6.75000000e-09,1.37165799e-15,6.75000000e-09,-8.52736234e-16,6.75000000e-09,2.46186890e-18,6.75000000e-09,4.20010654e-16,6.75000000e-09,6.28834501e-16,6.75000000e-09,-8.91875719e-19,6.75000000e-09,1.84874435e-09,6.75000000e-09,6.87320117e-01,6.75000000e-09,3.36056345e-02,6.75000000e-09,5.06664303e-01,6.75000000e-09,5.06664301e-01,6.75000000e-09,5.40907669e+08,6.75000000e-09,1.40870616e+08,6.75000000e-09,2.24202549e+07,6.75000000e-09,2.86282442e+01,0.840,0.500,sky130
7.00000000e-09,2.00109510e-07,7.00000000e-09,6.99949780e-09,7.00000000e-09,1.37670331e-15,7.00000000e-09,-8.59408528e-16,7.00000000e-09,2.48298201e-18,7.00000000e-09,4.22982266e-16,7.00000000e-09,6.33287018e-16,7.00000000e-09,-9.00065398e-19,7.00000000e-09,1.91420106e-09,7.00000000e-09,6.87314744e-01,7.00000000e-09,3.36225947e-02,7.00000000e-09,5.07923551e-01,7.00000000e-09,5.07923549e-01,7.00000000e-09,5.22411162e+08,7.00000000e-09,1.45354128e+08,7.00000000e-09,2.31338280e+07,7.00000000e-09,2.85891240e+01,0.840,0.500,sky130
7.25000000e-09,2.06980428e-07,7.25000000e-09,7.24949580e-09,7.25000000e-09,1.38159022e-15,7.25000000e-09,-8.65868117e-16,7.25000000e-09,2.50342199e-18,7.25000000e-09,4.25857452e-16,7.25000000e-09,6.37595077e-16,7.25000000e-09,-9.07986483e-19,7.25000000e-09,1.97953867e-09,7.25000000e-09,6.87309554e-01,7.25000000e-09,3.36395348e-02,7.25000000e-09,5.09140245e-01,7.25000000e-09,5.09140242e-01,7.25000000e-09,5.05168207e+08,7.25000000e-09,1.49813182e+08,7.25000000e-09,2.38435085e+07,7.25000000e-09,2.85510101e+01,0.840,0.500,sky130
7.50000000e-09,2.13839455e-07,7.50000000e-09,7.49949471e-09,7.50000000e-09,1.38632865e-15,7.50000000e-09,-8.72128477e-16,7.50000000e-09,2.52323146e-18,7.50000000e-09,4.28642382e-16,7.50000000e-09,6.41767922e-16,7.50000000e-09,-9.15656208e-19,7.50000000e-09,2.04476106e-09,7.50000000e-09,6.87304533e-01,7.50000000e-09,3.36564551e-02,7.50000000e-09,5.10317240e-01,7.50000000e-09,5.10317238e-01,7.50000000e-09,4.89054697e+08,7.50000000e-09,1.54248745e+08,7.50000000e-09,2.45494503e+07,7.50000000e-09,2.85138484e+01,0.840,0.500,sky130
7.75000000e-09,2.20686882e-07,7.75000000e-09,7.74949297e-09,7.75000000e-09,1.39092757e-15,7.75000000e-09,-8.78201748e-16,7.75000000e-09,2.54244879e-18,7.75000000e-09,4.31342611e-16,7.75000000e-09,6.45813874e-16,7.75000000e-09,-9.23090089e-19,7.75000000e-09,2.10987107e-09,7.75000000e-09,6.87299670e-01,7.75000000e-09,3.36733556e-02,7.75000000e-09,5.11457102e-01,7.75000000e-09,5.11457100e-01,7.75000000e-09,4.73962611e+08,7.75000000e-09,1.58661664e+08,7.75000000e-09,2.52517881e+07,7.75000000e-09,2.84775898e+01,0.840,0.500,sky130
8.00000000e-09,2.27523032e-07,8.00000000e-09,7.99949099e-09,8.00000000e-09,1.39539515e-15,8.00000000e-09,-8.84099019e-16,8.00000000e-09,2.56110905e-18,8.00000000e-09,4.33963211e-16,8.00000000e-09,6.49740531e-16,8.00000000e-09,-9.30302283e-19,8.00000000e-09,2.17487182e-09,8.00000000e-09,6.87294956e-01,8.00000000e-09,3.36902366e-02,8.00000000e-09,5.12562160e-01,8.00000000e-09,5.12562157e-01,8.00000000e-09,4.59797211e+08,8.00000000e-09,1.63052761e+08,8.00000000e-09,2.59506529e+07,8.00000000e-09,2.84421886e+01,0.840,0.500,sky130
8.25000000e-09,2.34348245e-07,8.25000000e-09,8.24949032e-09,8.25000000e-09,1.39973890e-15,8.25000000e-09,-8.89830435e-16,8.25000000e-09,2.57924431e-18,8.25000000e-09,4.36508816e-16,8.25000000e-09,6.53554835e-16,8.25000000e-09,-9.37305731e-19,8.25000000e-09,2.23976660e-09,8.25000000e-09,6.87290381e-01,8.25000000e-09,3.37070983e-02,8.25000000e-09,5.13634535e-01,8.25000000e-09,5.13634532e-01,8.25000000e-09,4.46475092e+08,8.25000000e-09,1.67422828e+08,8.25000000e-09,2.66461707e+07,8.25000000e-09,2.84076029e+01,0.840,0.500,sky130
8.50000000e-09,2.41162756e-07,8.50000000e-09,8.49948919e-09,8.50000000e-09,1.40396562e-15,8.50000000e-09,-8.95405204e-16,8.50000000e-09,2.59688371e-18,8.50000000e-09,4.38983632e-16,8.50000000e-09,6.57263087e-16,8.50000000e-09,-9.44112173e-19,8.50000000e-09,2.30455763e-09,8.50000000e-09,6.87285937e-01,8.50000000e-09,3.37239407e-02,8.50000000e-09,5.14676144e-01,8.50000000e-09,5.14676141e-01,8.50000000e-09,4.33922756e+08,8.50000000e-09,1.71772551e+08,8.50000000e-09,2.73384505e+07,8.50000000e-09,2.83737940e+01,0.840,0.500,sky130
8.75000000e-09,2.47966808e-07,8.75000000e-09,8.74948667e-09,8.75000000e-09,1.40808158e-15,8.75000000e-09,-9.00831791e-16,8.75000000e-09,2.61405402e-18,8.75000000e-09,4.41391523e-16,8.75000000e-09,6.60871074e-16,8.75000000e-09,-9.50732394e-19,8.75000000e-09,2.36924723e-09,8.75000000e-09,6.87281618e-01,8.75000000e-09,3.37407639e-02,8.75000000e-09,5.15688744e-01,8.75000000e-09,5.15688741e-01,8.75000000e-09,4.22074990e+08,8.75000000e-09,1.76102586e+08,8.75000000e-09,2.80275970e+07,8.75000000e-09,2.83407264e+01,0.840,0.500,sky130
9.00000000e-09,2.54760735e-07,9.00000000e-09,8.99948560e-09,9.00000000e-09,1.41209261e-15,9.00000000e-09,-9.06118063e-16,9.00000000e-09,2.63078011e-18,9.00000000e-09,4.43736076e-16,9.00000000e-09,6.64384170e-16,9.00000000e-09,-9.57176403e-19,9.00000000e-09,2.43383854e-09,9.00000000e-09,6.87277415e-01,9.00000000e-09,3.37575681e-02,9.00000000e-09,5.16673959e-01,9.00000000e-09,5.16673956e-01,9.00000000e-09,4.10873599e+08,9.00000000e-09,1.80413617e+08,9.00000000e-09,2.87137189e+07,9.00000000e-09,2.83083663e+01,0.840,0.500,sky130
9.25000000e-09,2.61544757e-07,9.25000000e-09,9.24948508e-09,9.25000000e-09,1.41600402e-15,9.25000000e-09,-9.11271193e-16,9.25000000e-09,2.64708468e-18,9.25000000e-09,4.46020560e-16,9.25000000e-09,6.67807273e-16,9.25000000e-09,-9.63453327e-19,9.25000000e-09,2.49833362e-09,9.25000000e-09,6.87273322e-01,9.25000000e-09,3.37743536e-02,9.25000000e-09,5.17633264e-01,9.25000000e-09,5.17633261e-01,9.25000000e-09,4.00266799e+08,9.25000000e-09,1.84706225e+08,9.25000000e-09,2.93969088e+07,9.25000000e-09,2.82766829e+01,0.840,0.500,sky130
9.50000000e-09,2.68319046e-07,9.50000000e-09,9.49948289e-09,9.50000000e-09,1.41982069e-15,9.50000000e-09,-9.16297784e-16,9.50000000e-09,2.66298861e-18,9.50000000e-09,4.48247985e-16,9.50000000e-09,6.71144892e-16,9.50000000e-09,-9.69571560e-19,9.50000000e-09,2.56273407e-09,9.50000000e-09,6.87269334e-01,9.50000000e-09,3.37911202e-02,9.50000000e-09,5.18568015e-01,9.50000000e-09,5.18568012e-01,9.50000000e-09,3.90208259e+08,9.50000000e-09,1.88980938e+08,9.50000000e-09,3.00772504e+07,9.50000000e-09,2.82456476e+01,0.840,0.500,sky130
9.75000000e-09,2.75083946e-07,9.75000000e-09,9.74948341e-09,9.75000000e-09,1.42354728e-15,9.75000000e-09,-9.21204079e-16,9.75000000e-09,2.67851165e-18,9.75000000e-09,4.50421192e-16,9.75000000e-09,6.74401281e-16,9.75000000e-09,-9.75539027e-19,9.75000000e-09,2.62704309e-09,9.75000000e-09,6.87265446e-01,9.75000000e-09,3.38078683e-02,9.75000000e-09,5.19479484e-01,9.75000000e-09,5.19479481e-01,9.75000000e-09,3.80656108e+08,9.75000000e-09,1.93238363e+08,9.75000000e-09,3.07548407e+07,9.75000000e-09,2.82152330e+01,0.840,0.500,sky130
1.00000000e-08,2.81846144e-07,1.00000000e-08,9.99972642e-09,1.00000000e-08,1.42719145e-15,1.00000000e-08,-9.26000327e-16,1.00000000e-08,2.69368624e-18,1.00000000e-08,4.52544788e-16,1.00000000e-08,6.77583345e-16,1.00000000e-08,-9.81368492e-19,1.00000000e-08,2.69132420e-09,1.00000000e-08,6.87261648e-01,1.00000000e-08,3.38246142e-02,1.00000000e-08,5.20369677e-01,1.00000000e-08,5.20369673e-01,1.00000000e-08,3.71564303e+08,1.00000000e-08,1.97483066e+08,1.00000000e-08,3.14304061e+07,1.00000000e-08,2.81853855e+01,0.840,0.500,sky130
