 isweep, gm, i_id, id, i_cgg, cgg, i_cgs, cgs, i_cgd, cgd, i_cds, cds, i_css, css, i_cdd, cdd, i_gds, gds, i_vth, vth, i_vdsat, vdsat, i_vgs, vgs, i_vds, vds, i_rds, rds, i_wt, wt, i_ft, ft, i_gm_id, gm_id, W, L, pdk
 1.00000000e-09, 2.78336832e-08, 1.00000000e-09, 9.99640548e-10, 1.00000000e-09, 1.34268538e-15, 1.00000000e-09 -6.00251211e-16, 1.00000000e-09, 1.71133992e-18, 1.00000000e-09, 3.10195590e-16, 1.00000000e-09, 4.64062767e-16, 1.00000000e-09 -3.68107345e-19, 1.00000000e-09, 3.25307013e-10, 1.00000000e-09, 6.37418019e-01, 1.00000000e-09, 3.67989120e-02, 1.00000000e-09, 3.70607399e-01, 1.00000000e-09, 3.70607398e-01, 1.00000000e-09, 3.07401919e+09, 1.00000000e-09, 2.07298624e+07, 1.00000000e-09, 3.29926007e+06, 1.00000000e-09, 2.78436917e+01 , 1,.500, SKY130
 1.50000000e-09, 4.16778692e-08, 1.50000000e-09, 1.50578698e-09, 1.50000000e-09, 1.39267662e-15, 1.50000000e-09 -6.69640559e-16, 1.50000000e-09, 1.97526398e-18, 1.50000000e-09, 3.42018839e-16, 1.50000000e-09, 5.11721577e-16, 1.50000000e-09 -4.80735203e-19, 1.50000000e-09, 4.80688996e-10, 1.50000000e-09, 6.37344944e-01, 1.50000000e-09, 3.68263906e-02, 1.50000000e-09, 3.85194026e-01, 1.50000000e-09, 3.85194025e-01, 1.50000000e-09, 2.08034718e+09, 1.50000000e-09, 2.99264513e+07, 1.50000000e-09, 4.76294266e+06, 1.50000000e-09, 2.76784629e+01 , 1,.500, SKY130
 2.00000000e-09, 5.54715857e-08, 2.00000000e-09, 2.01400386e-09, 2.00000000e-09, 1.43080058e-15, 2.00000000e-09 -7.22016651e-16, 2.00000000e-09, 2.17390975e-18, 2.00000000e-09, 3.65854525e-16, 2.00000000e-09, 5.47421007e-16, 2.00000000e-09 -5.64054961e-19, 2.00000000e-09, 6.34357070e-10, 2.00000000e-09, 6.37292780e-01, 2.00000000e-09, 3.68538785e-02, 2.00000000e-09, 3.95606440e-01, 2.00000000e-09, 3.95606440e-01, 2.00000000e-09, 1.57639923e+09, 2.00000000e-09, 3.87696138e+07, 2.00000000e-09, 6.17037567e+06, 2.00000000e-09, 2.75429391e+01 , 1,.500, SKY130
 2.50000000e-09, 6.87407617e-08, 2.50000000e-09, 2.50602630e-09, 2.50000000e-09, 1.46086773e-15, 2.50000000e-09 -7.63047910e-16, 2.50000000e-09, 2.32927892e-18, 2.50000000e-09, 3.84427900e-16, 2.50000000e-09, 5.75240466e-16, 2.50000000e-09 -6.28486348e-19, 2.50000000e-09, 7.81463794e-10, 2.50000000e-09, 6.37253393e-01, 2.50000000e-09, 3.68804088e-02, 2.50000000e-09, 4.03468596e-01, 2.50000000e-09, 4.03468595e-01, 2.50000000e-09, 1.27964982e+09, 2.50000000e-09, 4.70547472e+07, 2.50000000e-09, 7.48899562e+06, 2.50000000e-09, 2.74301836e+01 , 1,.500, SKY130
 3.00000000e-09, 8.20344335e-08, 3.00000000e-09, 3.00166830e-09, 3.00000000e-09, 1.48658730e-15, 3.00000000e-09 -7.97976247e-16, 3.00000000e-09, 2.46140133e-18, 3.00000000e-09, 4.00175180e-16, 3.00000000e-09, 5.98827960e-16, 3.00000000e-09 -6.82823711e-19, 3.00000000e-09, 9.28327199e-10, 3.00000000e-09, 6.37220743e-01, 3.00000000e-09, 3.69070625e-02, 3.00000000e-09, 4.09985873e-01, 3.00000000e-09, 4.09985872e-01, 3.00000000e-09, 1.07720640e+09, 3.00000000e-09, 5.51830581e+07, 3.00000000e-09, 8.78265648e+06, 3.00000000e-09, 2.73296132e+01 , 1,.500, SKY130
 3.50000000e-09, 9.53548317e-08, 3.50000000e-09, 3.50075742e-09, 3.50000000e-09, 1.50913177e-15, 3.50000000e-09 -8.28475885e-16, 3.50000000e-09, 2.57668469e-18, 3.50000000e-09, 4.13880891e-16, 3.50000000e-09, 6.19358146e-16, 3.50000000e-09 -7.29923067e-19, 3.50000000e-09, 1.07508594e-09, 3.50000000e-09, 6.37192817e-01, 3.50000000e-09, 3.69338350e-02, 3.50000000e-09, 4.15560240e-01, 3.50000000e-09, 4.15560239e-01, 3.50000000e-09, 9.30158197e+08, 3.50000000e-09, 6.31852259e+07, 3.50000000e-09, 1.00562410e+07, 3.50000000e-09, 2.72383431e+01 , 1,.500, SKY130
 4.00000000e-09, 1.08629480e-07, 4.00000000e-09, 4.00036121e-09, 4.00000000e-09, 1.52914012e-15, 4.00000000e-09 -8.55460261e-16, 4.00000000e-09, 2.67862242e-18, 4.00000000e-09, 4.25973752e-16, 4.00000000e-09, 6.37472927e-16, 4.00000000e-09 -7.71343233e-19, 4.00000000e-09, 1.22102054e-09, 4.00000000e-09, 6.37168517e-01, 4.00000000e-09, 3.69605727e-02, 4.00000000e-09, 4.20410795e-01, 4.00000000e-09, 4.20410793e-01, 4.00000000e-09, 8.18987042e+08, 4.00000000e-09, 7.10395851e+07, 4.00000000e-09, 1.13063011e+07, 4.00000000e-09, 2.71549178e+01 , 1,.500, SKY130
 4.50000000e-09, 1.21853265e-07, 4.50000000e-09, 4.50009273e-09, 4.50000000e-09, 1.54713815e-15, 4.50000000e-09 -8.79670196e-16, 4.50000000e-09, 2.77003760e-18, 4.50000000e-09, 4.36797851e-16, 4.50000000e-09, 6.53687548e-16, 4.50000000e-09 -8.08316543e-19, 4.50000000e-09, 1.36613311e-09, 4.50000000e-09, 6.37147011e-01, 4.50000000e-09, 3.69872581e-02, 4.50000000e-09, 4.24703599e-01, 4.50000000e-09, 4.24703598e-01, 4.50000000e-09, 7.31993093e+08, 4.50000000e-09, 7.87604291e+07, 4.50000000e-09, 1.25351116e+07, 4.50000000e-09, 2.70779453e+01 , 1,.500, SKY130
 5.00000000e-09, 1.35029865e-07, 5.00000000e-09, 4.99992803e-09, 5.00000000e-09, 1.56350897e-15, 5.00000000e-09 -9.01642279e-16, 5.00000000e-09, 2.85297181e-18, 5.00000000e-09, 4.46601356e-16, 5.00000000e-09, 6.68373634e-16, 5.00000000e-09 -8.41725933e-19, 5.00000000e-09, 1.51050692e-09, 5.00000000e-09, 6.37127715e-01, 5.00000000e-09, 3.70138925e-02, 5.00000000e-09, 4.28555300e-01, 5.00000000e-09, 4.28555299e-01, 5.00000000e-09, 6.62029408e+08, 5.00000000e-09, 8.63633455e+07, 5.00000000e-09, 1.37451533e+07, 5.00000000e-09, 2.70063617e+01 , 1,.500, SKY130
 5.50000000e-09, 1.48161775e-07, 5.50000000e-09, 5.49982387e-09, 5.50000000e-09, 1.57853291e-15, 5.50000000e-09 -9.21767641e-16, 5.50000000e-09, 2.92891163e-18, 5.50000000e-09, 4.55564658e-16, 5.50000000e-09, 6.81801325e-16, 5.50000000e-09 -8.72210395e-19, 5.50000000e-09, 1.65420169e-09, 5.50000000e-09, 6.37110212e-01, 5.50000000e-09, 3.70404757e-02, 5.50000000e-09, 4.32049138e-01, 5.50000000e-09, 4.32049136e-01, 5.50000000e-09, 6.04521205e+08, 5.50000000e-09, 9.38604279e+07, 5.50000000e-09, 1.49383511e+07, 5.50000000e-09, 2.69393671e+01 , 1,.500, SKY130
 6.00000000e-09, 1.61251458e-07, 6.00000000e-09, 5.99975549e-09, 6.00000000e-09, 1.59242255e-15, 6.00000000e-09 -9.40341793e-16, 6.00000000e-09, 2.99897927e-18, 6.00000000e-09, 4.63823696e-16, 6.00000000e-09, 6.94174197e-16, 6.00000000e-09 -9.00249629e-19, 6.00000000e-09, 1.79726951e-09, 6.00000000e-09, 6.37094192e-01, 6.00000000e-09, 3.70670082e-02, 6.00000000e-09, 4.35246806e-01, 6.00000000e-09, 4.35246804e-01, 6.00000000e-09, 5.56399579e+08, 6.00000000e-09, 1.01261728e+08, 6.00000000e-09, 1.61163045e+07, 6.00000000e-09, 2.68763383e+01 , 1,.500, SKY130
 6.50000000e-09, 1.74301213e-07, 6.50000000e-09, 6.49970726e-09, 6.50000000e-09, 1.60534297e-15, 6.50000000e-09 -9.57593575e-16, 6.50000000e-09, 3.06404311e-18, 6.50000000e-09, 4.71483502e-16, 6.50000000e-09, 7.05649546e-16, 6.50000000e-09 -9.26213073e-19, 6.50000000e-09, 1.93975535e-09, 6.50000000e-09, 6.37079421e-01, 6.50000000e-09, 3.70934905e-02, 6.50000000e-09, 4.38195284e-01, 6.50000000e-09, 4.38195283e-01, 6.50000000e-09, 5.15528929e+08, 6.50000000e-09, 1.08575685e+08, 6.50000000e-09, 1.72803569e+07, 6.50000000e-09, 2.68167790e+01 , 1,.500, SKY130
 7.00000000e-09, 1.87313219e-07, 7.00000000e-09, 6.99967178e-09, 7.00000000e-09, 1.61742516e-15, 7.00000000e-09 -9.73704034e-16, 7.00000000e-09, 3.12478977e-18, 7.00000000e-09, 4.78627000e-16, 7.00000000e-09, 7.16351561e-16, 7.00000000e-09 -9.50391583e-19, 7.00000000e-09, 2.08169902e-09, 7.00000000e-09, 6.37065715e-01, 7.00000000e-09, 3.71199236e-02, 7.00000000e-09, 4.40931186e-01, 7.00000000e-09, 4.40931184e-01, 7.00000000e-09, 4.80376842e+08, 7.00000000e-09, 1.15809512e+08, 7.00000000e-09, 1.84316563e+07, 7.00000000e-09, 2.67602861e+01 , 1,.500, SKY130
 7.50000000e-09, 2.00289521e-07, 7.50000000e-09, 7.49964675e-09, 7.50000000e-09, 1.62877482e-15, 7.50000000e-09 -9.88818941e-16, 7.50000000e-09, 3.18177181e-18, 7.50000000e-09, 4.85320836e-16, 7.50000000e-09, 7.26380056e-16, 7.50000000e-09 -9.73018343e-19, 7.50000000e-09, 2.22313587e-09, 7.50000000e-09, 6.37052928e-01, 7.50000000e-09, 3.71463085e-02, 7.50000000e-09, 4.43483595e-01, 7.50000000e-09, 4.43483593e-01, 7.50000000e-09, 4.49815062e+08, 7.50000000e-09, 1.22969436e+08, 7.50000000e-09, 1.95711936e+07, 7.50000000e-09, 2.67065274e+01 , 1,.500, SKY130
 8.00000000e-09, 2.13231865e-07, 8.00000000e-09, 7.99962704e-09, 8.00000000e-09, 1.63947842e-15, 8.00000000e-09 -1.00305729e-15, 8.00000000e-09, 3.23544009e-18, 8.00000000e-09, 4.91619325e-16, 8.00000000e-09, 7.35816375e-16, 8.00000000e-09 -9.94282987e-19, 8.00000000e-09, 2.36409573e-09, 8.00000000e-09, 6.37040943e-01, 8.00000000e-09, 3.71726457e-02, 8.00000000e-09, 4.45875973e-01, 8.00000000e-09, 4.45875970e-01, 8.00000000e-09, 4.22994715e+08, 8.00000000e-09, 1.30060794e+08, 8.00000000e-09, 2.06998182e+07, 8.00000000e-09, 2.66552257e+01 , 1,.500, SKY130
 8.50000000e-09, 2.26141918e-07, 8.50000000e-09, 8.49961183e-09, 8.50000000e-09, 1.64960778e-15, 8.50000000e-09 -1.01651773e-15, 8.50000000e-09, 3.28616818e-18, 8.50000000e-09, 4.97567416e-16, 8.50000000e-09, 7.44727839e-16, 8.50000000e-09 -1.01434214e-18, 8.50000000e-09, 2.50460581e-09, 8.50000000e-09, 6.37029663e-01, 8.50000000e-09, 3.71989363e-02, 8.50000000e-09, 4.48127548e-01, 8.50000000e-09, 4.48127545e-01, 8.50000000e-09, 3.99264426e+08, 8.50000000e-09, 1.37088295e+08, 8.50000000e-09, 2.18182797e+07, 8.50000000e-09, 2.66061465e+01 , 1,.500, SKY130
 9.00000000e-09, 2.39021162e-07, 9.00000000e-09, 8.99959928e-09, 9.00000000e-09, 1.65922314e-15, 9.00000000e-09 -1.02928283e-15, 9.00000000e-09, 3.33426880e-18, 9.00000000e-09, 5.03202694e-16, 9.00000000e-09, 7.53170742e-16, 9.00000000e-09 -1.03332655e-18, 9.00000000e-09, 2.64468986e-09, 9.00000000e-09, 6.37019009e-01, 9.00000000e-09, 3.72251809e-02, 9.00000000e-09, 4.50254261e-01, 9.00000000e-09, 4.50254259e-01, 9.00000000e-09, 3.78116169e+08, 9.00000000e-09, 1.44056068e+08, 9.00000000e-09, 2.29272354e+07, 9.00000000e-09, 2.65590894e+01 , 1,.500, SKY130
 9.50000000e-09, 2.51870994e-07, 9.50000000e-09, 9.49958954e-09, 9.50000000e-09, 1.66837561e-15, 9.50000000e-09 -1.04142255e-15, 9.50000000e-09, 3.38000668e-18, 9.50000000e-09, 5.08556948e-16, 9.50000000e-09, 7.61192693e-16, 9.50000000e-09 -1.05134660e-18, 9.50000000e-09, 2.78436957e-09, 9.50000000e-09, 6.37008913e-01, 9.50000000e-09, 3.72513802e-02, 9.50000000e-09, 4.52269487e-01, 9.50000000e-09, 4.52269484e-01, 9.50000000e-09, 3.59147726e+08, 9.50000000e-09, 1.50967799e+08, 9.50000000e-09, 2.40272715e+07, 9.50000000e-09, 2.65138817e+01 , 1,.500, SKY130
 1.00000000e-08, 2.64691893e-07, 1.00000000e-08, 9.99955175e-09, 1.00000000e-08, 1.67710836e-15, 1.00000000e-08 -1.05299592e-15, 1.00000000e-08, 3.42360526e-18, 1.00000000e-08, 5.13656988e-16, 1.00000000e-08, 7.68833846e-16, 1.00000000e-08 -1.06849531e-18, 1.00000000e-08, 2.92365575e-09, 1.00000000e-08, 6.36999320e-01, 1.00000000e-08, 3.72775332e-02, 1.00000000e-08, 4.54184433e-01, 1.00000000e-08, 4.54184430e-01, 1.00000000e-08, 3.42037533e+08, 1.00000000e-08, 1.57826352e+08, 1.00000000e-08, 2.51188440e+07, 1.00000000e-08, 2.64703758e+01 , 1,.500, SKY130
 1.50000000e-08, 3.93022913e-07, 1.50000000e-08, 1.50569818e-08, 1.50000000e-08, 1.74843983e-15, 1.50000000e-08 -1.14720225e-15, 1.50000000e-08, 3.77829975e-18, 1.50000000e-08, 5.55016320e-16, 1.50000000e-08, 8.30803356e-16, 1.50000000e-08 -1.20701342e-18, 1.50000000e-08, 4.31422740e-09, 1.50000000e-08, 6.36922171e-01, 1.50000000e-08, 3.75396881e-02, 1.50000000e-08, 4.69584206e-01, 1.50000000e-08, 4.69584202e-01, 1.50000000e-08, 2.31791213e+08, 1.50000000e-08, 2.24784923e+08, 1.50000000e-08, 3.57756317e+07, 1.50000000e-08, 2.61023702e+01 , 1,.500, SKY130
 2.00000000e-08, 5.19823158e-07, 2.00000000e-08, 2.01321360e-08, 2.00000000e-08, 1.80064675e-15, 2.00000000e-08 -1.21581637e-15, 2.00000000e-08, 4.03642189e-18, 2.00000000e-08, 5.84975483e-16, 2.00000000e-08, 8.75694753e-16, 2.00000000e-08 -1.30675475e-18, 2.00000000e-08, 5.68301934e-09, 2.00000000e-08, 6.36866728e-01, 2.00000000e-08, 3.77986547e-02, 2.00000000e-08, 4.80651235e-01, 2.00000000e-08, 4.80651229e-01, 2.00000000e-08, 1.75962801e+08, 2.00000000e-08, 2.88686916e+08, 2.00000000e-08, 4.59459496e+07, 2.00000000e-08, 2.58205666e+01 , 1,.500, SKY130
 2.50000000e-08, 6.41455442e-07, 2.50000000e-08, 2.50582473e-08, 2.50000000e-08, 1.84071605e-15, 2.50000000e-08 -1.26830819e-15, 2.50000000e-08, 4.23376565e-18, 2.50000000e-08, 6.07806691e-16, 2.50000000e-08, 9.09907154e-16, 2.50000000e-08 -1.38243273e-18, 2.50000000e-08, 6.99198000e-09, 2.50000000e-08, 6.36824538e-01, 2.50000000e-08, 3.80463636e-02, 2.50000000e-08, 4.89072927e-01, 2.50000000e-08, 4.89072920e-01, 2.50000000e-08, 1.43021004e+08, 2.50000000e-08, 3.48481473e+08, 2.50000000e-08, 5.54625490e+07, 2.50000000e-08, 2.55985758e+01 , 1,.500, SKY130
 3.00000000e-08, 7.62786733e-07, 3.00000000e-08, 3.00189548e-08, 3.00000000e-08, 1.87417888e-15, 3.00000000e-08 -1.31204152e-15, 3.00000000e-08, 4.39809222e-18, 3.00000000e-08, 6.26771938e-16, 3.00000000e-08, 9.38327538e-16, 3.00000000e-08 -1.44507528e-18, 3.00000000e-08, 8.29410139e-09, 3.00000000e-08, 6.36789441e-01, 3.00000000e-08, 3.82923866e-02, 3.00000000e-08, 4.96078748e-01, 3.00000000e-08, 4.96078739e-01, 3.00000000e-08, 1.20567612e+08, 3.00000000e-08, 4.06997828e+08, 3.00000000e-08, 6.47757161e+07, 3.00000000e-08, 2.54101696e+01 , 1,.500, SKY130
 3.50000000e-08, 8.83898362e-07, 3.50000000e-08, 3.50105411e-08, 3.50000000e-08, 1.90291348e-15, 3.50000000e-08 -1.34952495e-15, 3.50000000e-08, 4.53886583e-18, 3.50000000e-08, 6.42986994e-16, 3.50000000e-08, 9.62627417e-16, 3.50000000e-08 -1.49847194e-18, 3.50000000e-08, 9.59047129e-09, 3.50000000e-08, 6.36759344e-01, 3.50000000e-08, 3.85366461e-02, 3.50000000e-08, 5.02086494e-01, 3.50000000e-08, 5.02086484e-01, 3.50000000e-08, 1.04270163e+08, 3.50000000e-08, 4.64497399e+08, 3.50000000e-08, 7.39270571e+07, 3.50000000e-08, 2.52466353e+01 , 1,.500, SKY130
 4.00000000e-08, 1.00428686e-06, 4.00000000e-08, 4.00068016e-08, 4.00000000e-08, 1.92798068e-15, 4.00000000e-08 -1.38217409e-15, 4.00000000e-08, 4.66142834e-18, 4.00000000e-08, 6.57081302e-16, 4.00000000e-08, 9.83749743e-16, 4.00000000e-08 -1.54476103e-18, 4.00000000e-08, 1.08758723e-08, 4.00000000e-08, 6.36733082e-01, 4.00000000e-08, 3.87779768e-02, 4.00000000e-08, 5.07328625e-01, 4.00000000e-08, 5.07328613e-01, 4.00000000e-08, 9.19466474e+07, 4.00000000e-08, 5.20900893e+08, 4.00000000e-08, 8.29039519e+07, 4.00000000e-08, 2.51029030e+01 , 1,.500, SKY130
 4.50000000e-08, 1.12397617e-06, 4.50000000e-08, 4.50043273e-08, 4.50000000e-08, 1.95019223e-15, 4.50000000e-08 -1.41106654e-15, 4.50000000e-08, 4.76984288e-18, 4.50000000e-08, 6.69531282e-16, 4.50000000e-08, 1.00240828e-15, 4.50000000e-08 -1.58555173e-18, 4.50000000e-08, 1.21507240e-08, 4.50000000e-08, 6.36709784e-01, 4.50000000e-08, 3.90163441e-02, 4.50000000e-08, 5.11979354e-01, 4.50000000e-08, 5.11979341e-01, 4.50000000e-08, 8.22996230e+07, 4.50000000e-08, 5.76341223e+08, 4.50000000e-08, 9.17275545e+07, 4.50000000e-08, 2.49748467e+01 , 1,.500, SKY130
 5.00000000e-08, 1.24304197e-06, 5.00000000e-08, 5.00028268e-08, 5.00000000e-08, 1.97012511e-15, 5.00000000e-08 -1.43696631e-15, 5.00000000e-08, 4.86698942e-18, 5.00000000e-08, 6.80673827e-16, 5.00000000e-08, 1.01910776e-15, 5.00000000e-08 -1.62197904e-18, 5.00000000e-08, 1.34159781e-08, 5.00000000e-08, 6.36688835e-01, 5.00000000e-08, 3.92518546e-02, 5.00000000e-08, 5.16161028e-01, 5.00000000e-08, 5.16161013e-01, 5.00000000e-08, 7.45379870e+07, 5.00000000e-08, 6.30945703e+08, 5.00000000e-08, 1.00418127e+08, 5.00000000e-08, 2.48594340e+01 , 1,.500, SKY130
 5.50000000e-08, 1.36153972e-06, 5.50000000e-08, 5.50018868e-08, 5.50000000e-08, 1.98819621e-15, 5.50000000e-08 -1.46042445e-15, 5.50000000e-08, 4.95494477e-18, 5.50000000e-08, 6.90751458e-16, 5.50000000e-08, 1.03421156e-15, 5.50000000e-08 -1.65485860e-18, 5.50000000e-08, 1.46723581e-08, 5.50000000e-08, 6.36669797e-01, 5.50000000e-08, 3.94845995e-02, 5.50000000e-08, 5.19961226e-01, 5.50000000e-08, 5.19961211e-01, 5.50000000e-08, 6.81553702e+07, 5.50000000e-08, 6.84811543e+08, 5.50000000e-08, 1.08991142e+08, 5.50000000e-08, 2.47544184e+01 , 1,.500, SKY130
 6.00000000e-08, 1.47951626e-06, 6.00000000e-08, 6.00012674e-08, 6.00000000e-08, 2.00471763e-15, 6.00000000e-08 -1.48185280e-15, 6.00000000e-08, 5.03526081e-18, 6.00000000e-08, 6.99945120e-16, 6.00000000e-08, 1.04799076e-15, 6.00000000e-08 -1.68479795e-18, 6.00000000e-08, 1.59204866e-08, 6.00000000e-08, 6.36652345e-01, 6.00000000e-08, 3.97146702e-02, 6.00000000e-08, 5.23445014e-01, 6.00000000e-08, 5.23444997e-01, 6.00000000e-08, 6.28121503e+07, 6.00000000e-08, 7.38017284e+08, 6.00000000e-08, 1.17459099e+08, 6.00000000e-08, 2.46580834e+01 , 1,.500, SKY130
 6.50000000e-08, 1.59701141e-06, 6.50000000e-08, 6.50008402e-08, 6.50000000e-08, 2.01992909e-15, 6.50000000e-08 -1.50156729e-15, 6.50000000e-08, 5.10912784e-18, 6.50000000e-08, 7.08393406e-16, 6.50000000e-08, 1.06065304e-15, 6.50000000e-08 -1.71226175e-18, 6.50000000e-08, 1.71609044e-08, 6.50000000e-08, 6.36636228e-01, 6.50000000e-08, 3.99421560e-02, 6.50000000e-08, 5.26662060e-01, 6.50000000e-08, 5.26662041e-01, 6.50000000e-08, 5.82719870e+07, 6.50000000e-08, 7.90627463e+08, 6.50000000e-08, 1.25832269e+08, 6.50000000e-08, 2.45690888e+01 , 1,.500, SKY130
 7.00000000e-08, 1.71405895e-06, 7.00000000e-08, 7.00005371e-08, 7.00000000e-08, 2.03401878e-15, 7.00000000e-08 -1.51981557e-15, 7.00000000e-08, 5.17747877e-18, 7.00000000e-08, 7.16204803e-16, 7.00000000e-08, 1.07236095e-15, 7.00000000e-08 -1.73761322e-18, 7.00000000e-08, 1.83940821e-08, 7.00000000e-08, 6.36621254e-01, 7.00000000e-08, 4.01671430e-02, 7.00000000e-08, 5.29651143e-01, 7.00000000e-08, 5.29651123e-01, 7.00000000e-08, 5.43653113e+07, 7.00000000e-08, 8.42695735e+08, 7.00000000e-08, 1.34119192e+08, 7.00000000e-08, 2.44863685e+01 , 1,.500, SKY130
 7.50000000e-08, 1.83068739e-06, 7.50000000e-08, 7.50003167e-08, 7.50000000e-08, 2.04713705e-15, 7.50000000e-08 -1.53679533e-15, 7.50000000e-08, 5.24105820e-18, 7.50000000e-08, 7.23465804e-16, 7.50000000e-08, 1.08324407e-15, 7.50000000e-08 -1.76114159e-18, 7.50000000e-08, 1.96204295e-08, 7.50000000e-08, 6.36607267e-01, 7.50000000e-08, 4.03897127e-02, 7.50000000e-08, 5.32443118e-01, 7.50000000e-08, 5.32443096e-01, 7.50000000e-08, 5.09672838e+07, 7.50000000e-08, 8.94267135e+08, 7.50000000e-08, 1.42327035e+08, 7.50000000e-08, 2.44090621e+01 , 1,.500, SKY130
 8.00000000e-08, 1.94692087e-06, 8.00000000e-08, 8.00001500e-08, 8.00000000e-08, 2.05940600e-15, 8.00000000e-08 -1.55266690e-15, 8.00000000e-08, 5.30046992e-18, 8.00000000e-08, 7.30246473e-16, 8.00000000e-08, 1.09340739e-15, 8.00000000e-08 -1.78308086e-18, 8.00000000e-08, 2.08403054e-08, 8.00000000e-08, 6.36594143e-01, 8.00000000e-08, 4.06099420e-02, 8.00000000e-08, 5.35062938e-01, 8.00000000e-08, 5.35062914e-01, 8.00000000e-08, 4.79839417e+07, 8.00000000e-08, 9.45379822e+08, 8.00000000e-08, 1.50461872e+08, 8.00000000e-08, 2.43364653e+01 , 1,.500, SKY130
 8.50000000e-08, 2.06278022e-06, 8.50000000e-08, 8.50000258e-08, 8.50000000e-08, 2.07092610e-15, 8.50000000e-08 -1.56756212e-15, 8.50000000e-08, 5.35621042e-18, 8.50000000e-08, 7.36604369e-16, 8.50000000e-08, 1.10293716e-15, 8.50000000e-08 -1.80362308e-18, 8.50000000e-08, 2.20540286e-08, 8.50000000e-08, 6.36581779e-01, 8.50000000e-08, 4.08279045e-02, 8.50000000e-08, 5.37531080e-01, 8.50000000e-08, 5.37531056e-01, 8.50000000e-08, 4.53431895e+07, 8.50000000e-08, 9.96066552e+08, 8.50000000e-08, 1.58528915e+08, 8.50000000e-08, 2.42679952e+01 , 1,.500, SKY130
 9.00000000e-08, 2.17828305e-06, 9.00000000e-08, 8.99999272e-08, 9.00000000e-08, 2.08178104e-15, 9.00000000e-08 -1.58159070e-15, 9.00000000e-08, 5.40869273e-18, 9.00000000e-08, 7.42587333e-16, 9.00000000e-08, 1.11190507e-15, 9.00000000e-08 -1.82292771e-18, 9.00000000e-08, 2.32618804e-08, 9.00000000e-08, 6.36570089e-01, 9.00000000e-08, 4.10436689e-02, 9.00000000e-08, 5.39864551e-01, 9.00000000e-08, 5.39864524e-01, 9.00000000e-08, 4.29887861e+07, 9.00000000e-08, 1.04635550e+09, 9.00000000e-08, 1.66532651e+08, 9.00000000e-08, 2.42031645e+01 , 1,.500, SKY130
