isweep,gm,i_id,id,i_cgg,cgg,i_cgs,cgs,i_cgd,cgd,i_cds,cds,i_css,css,i_cdd,cdd,i_gds,gds,i_vth,vth,i_vdsat,vdsat,i_vgs,vgs,i_vds,vds,i_rds,rds,i_wt,wt,i_ft,ft,i_kgm,kgm,W,L,pdk
1.00000000e-09,2.15291715e-08,1.00000000e-09,9.99475234e-10,1.00000000e-09,1.08842631e-15,1.00000000e-09,-4.78545508e-16,1.00000000e-09,4.10748478e-19,1.00000000e-09,2.55553240e-16,1.00000000e-09,3.82400749e-16,1.00000000e-09,5.27780994e-19,1.00000000e-09,2.54019377e-10,1.00000000e-09,6.24503554e-01,1.00000000e-09,4.63991063e-02,1.00000000e-09,3.35334526e-01,1.00000000e-09,3.35334526e-01,1.00000000e-09,3.93670755e+09,1.00000000e-09,1.97800909e+07,1.00000000e-09,3.14809925e+06,1.00000000e-09,2.15404752e+01,0.840,0.500,sky130
1.25000000e-09,2.68414543e-08,1.25000000e-09,1.24989209e-09,1.25000000e-09,1.10797555e-15,1.25000000e-09,-5.07587655e-16,1.25000000e-09,5.05886985e-19,1.25000000e-09,2.69179193e-16,1.25000000e-09,4.02803315e-16,1.25000000e-09,4.70622532e-19,1.25000000e-09,3.12094984e-10,1.25000000e-09,6.24466055e-01,1.25000000e-09,4.64268761e-02,1.25000000e-09,3.45609387e-01,1.25000000e-09,3.45609386e-01,1.25000000e-09,3.20415274e+09,1.25000000e-09,2.42256739e+07,1.25000000e-09,3.85563575e+06,1.25000000e-09,2.14750174e+01,0.840,0.500,sky130
1.50000000e-09,3.21399492e-08,1.50000000e-09,1.50066813e-09,1.50000000e-09,1.12469392e-15,1.50000000e-09,-5.32198519e-16,1.50000000e-09,5.84694045e-19,1.50000000e-09,2.80667940e-16,1.50000000e-09,4.20007614e-16,1.50000000e-09,4.24842289e-19,1.50000000e-09,3.69513081e-10,1.50000000e-09,6.24435295e-01,1.50000000e-09,4.64546112e-02,1.50000000e-09,3.54038004e-01,1.50000000e-09,3.54038004e-01,1.50000000e-09,2.70626414e+09,1.50000000e-09,2.85766187e+07,1.50000000e-09,4.54811013e+06,1.50000000e-09,2.14170932e+01,0.840,0.500,sky130
1.75000000e-09,3.73925355e-08,1.75000000e-09,1.75016197e-09,1.75000000e-09,1.13925914e-15,1.75000000e-09,-5.53489483e-16,1.75000000e-09,6.51740747e-19,1.75000000e-09,2.90566647e-16,1.75000000e-09,4.34832031e-16,1.75000000e-09,3.86908030e-19,1.75000000e-09,4.26040433e-10,1.75000000e-09,6.24409353e-01,1.75000000e-09,4.64821382e-02,1.75000000e-09,3.61146366e-01,1.75000000e-09,3.61146365e-01,1.75000000e-09,2.34719506e+09,1.75000000e-09,3.28218000e+07,1.75000000e-09,5.22375170e+06,1.75000000e-09,2.13651856e+01,0.840,0.500,sky130
2.00000000e-09,4.26321358e-08,2.00000000e-09,1.99984235e-09,2.00000000e-09,1.15225672e-15,2.00000000e-09,-5.72381845e-16,2.00000000e-09,7.10472970e-19,2.00000000e-09,2.99320566e-16,2.00000000e-09,4.47942834e-16,2.00000000e-09,3.54383192e-19,2.00000000e-09,4.82108866e-10,2.00000000e-09,6.24386803e-01,2.00000000e-09,4.65096250e-02,2.00000000e-09,3.67325047e-01,2.00000000e-09,3.67325047e-01,2.00000000e-09,2.07422031e+09,2.00000000e-09,3.69988174e+07,2.00000000e-09,5.88854468e+06,2.00000000e-09,2.13177483e+01,0.840,0.500,sky130
2.25000000e-09,4.78600077e-08,2.25000000e-09,2.24969927e-09,2.25000000e-09,1.16401120e-15,2.25000000e-09,-5.89387268e-16,2.25000000e-09,7.62796454e-19,2.25000000e-09,3.07177405e-16,2.25000000e-09,4.59710687e-16,2.25000000e-09,3.25923451e-19,2.25000000e-09,5.37784400e-10,2.25000000e-09,6.24366853e-01,2.25000000e-09,4.65370744e-02,2.25000000e-09,3.72791611e-01,2.25000000e-09,3.72791610e-01,2.25000000e-09,1.85948123e+09,2.25000000e-09,4.11164494e+07,2.25000000e-09,6.54388616e+06,2.25000000e-09,2.12739580e+01,0.840,0.500,sky130
2.50000000e-09,5.30748952e-08,2.50000000e-09,2.49961451e-09,2.50000000e-09,1.17474884e-15,2.50000000e-09,-6.04859675e-16,2.50000000e-09,8.10000552e-19,2.50000000e-09,3.14307953e-16,2.50000000e-09,4.70391182e-16,2.50000000e-09,3.00639640e-19,2.50000000e-09,5.93092866e-10,2.50000000e-09,6.24348965e-01,2.50000000e-09,4.65644765e-02,2.50000000e-09,3.77692999e-01,2.50000000e-09,3.77692998e-01,2.50000000e-09,1.68607659e+09,2.50000000e-09,4.51797810e+07,2.50000000e-09,7.19058547e+06,2.50000000e-09,2.12332321e+01,0.840,0.500,sky130
2.75000000e-09,5.82772290e-08,2.75000000e-09,2.74955907e-09,2.75000000e-09,1.18464020e-15,2.75000000e-09,-6.19063482e-16,2.75000000e-09,8.53026300e-19,2.75000000e-09,3.20839263e-16,2.75000000e-09,4.80174478e-16,2.75000000e-09,2.77899305e-19,2.75000000e-09,6.48069100e-10,2.75000000e-09,6.24332751e-01,2.75000000e-09,4.65918306e-02,2.75000000e-09,3.82135921e-01,2.75000000e-09,3.82135920e-01,2.75000000e-09,1.54304533e+09,2.75000000e-09,4.91940331e+07,2.75000000e-09,7.82947353e+06,2.75000000e-09,2.11951180e+01,0.840,0.500,sky130
3.00000000e-09,6.34676536e-08,3.00000000e-09,2.99952118e-09,3.00000000e-09,1.19381564e-15,3.00000000e-09,-6.32199353e-16,3.00000000e-09,8.92575256e-19,3.00000000e-09,3.26867441e-16,3.00000000e-09,4.89204429e-16,3.00000000e-09,2.57240543e-19,3.00000000e-09,7.02743794e-10,3.00000000e-09,6.24317920e-01,3.00000000e-09,4.66191373e-02,3.00000000e-09,3.86199580e-01,3.00000000e-09,3.86199579e-01,3.00000000e-09,1.42299371e+09,3.00000000e-09,5.31636975e+07,3.00000000e-09,8.46126526e+06,3.00000000e-09,2.11592617e+01,0.840,0.500,sky130
3.25000000e-09,6.86468000e-08,3.25000000e-09,3.24949402e-09,3.25000000e-09,1.20237693e-15,3.25000000e-09,-6.44423022e-16,3.25000000e-09,9.29183884e-19,3.25000000e-09,3.32466868e-16,3.25000000e-09,4.97592373e-16,3.25000000e-09,2.38316407e-19,3.25000000e-09,7.57142831e-10,3.25000000e-09,6.24304254e-01,3.25000000e-09,4.66463978e-02,3.25000000e-09,3.89944271e-01,3.25000000e-09,3.89944270e-01,3.25000000e-09,1.32075476e+09,3.25000000e-09,5.70925790e+07,3.25000000e-09,9.08656617e+06,3.25000000e-09,2.11253812e+01,0.840,0.500,sky130
3.50000000e-09,7.38152944e-08,3.50000000e-09,3.49947507e-09,3.50000000e-09,1.21040516e-15,3.50000000e-09,-6.55857945e-16,3.50000000e-09,9.63272032e-19,3.50000000e-09,3.37696354e-16,3.50000000e-09,5.05426353e-16,3.50000000e-09,2.20859698e-19,3.50000000e-09,8.11288553e-10,3.50000000e-09,6.24291580e-01,3.50000000e-09,4.66736130e-02,3.50000000e-09,3.93416973e-01,3.50000000e-09,3.93416972e-01,3.50000000e-09,1.23260706e+09,3.50000000e-09,6.09839554e+07,3.50000000e-09,9.70589795e+06,3.50000000e-09,2.10932477e+01,0.840,0.500,sky130
3.75000000e-09,7.89736440e-08,3.75000000e-09,3.74945975e-09,3.75000000e-09,1.21796590e-15,3.75000000e-09,-6.66603512e-16,3.75000000e-09,9.95174033e-19,3.75000000e-09,3.42603144e-16,3.75000000e-09,5.12777096e-16,3.75000000e-09,2.04660632e-19,3.75000000e-09,8.65199387e-10,3.75000000e-09,6.24279763e-01,3.75000000e-09,4.67007839e-02,3.75000000e-09,3.96654939e-01,3.75000000e-09,3.96654938e-01,3.75000000e-09,1.15580295e+09,3.75000000e-09,6.48406034e+07,3.75000000e-09,1.03197025e+07,3.75000000e-09,2.10626728e+01,0.840,0.500,sky130
4.00000000e-09,8.41223951e-08,4.00000000e-09,3.99944849e-09,4.00000000e-09,1.22511317e-15,4.00000000e-09,-6.76741249e-16,4.00000000e-09,1.02516139e-18,4.00000000e-09,3.47225907e-16,4.00000000e-09,5.19702493e-16,4.00000000e-09,1.89551118e-19,4.00000000e-09,9.18892095e-10,4.00000000e-09,6.24268693e-01,4.00000000e-09,4.67279114e-02,4.00000000e-09,3.99688286e-01,4.00000000e-09,3.99688285e-01,4.00000000e-09,1.08826706e+09,4.00000000e-09,6.86649996e+07,4.00000000e-09,1.09283741e+07,4.00000000e-09,2.10334988e+01,0.840,0.500,sky130
4.25000000e-09,8.92619807e-08,4.25000000e-09,4.24943882e-09,4.25000000e-09,1.23189183e-15,4.25000000e-09,-6.86338645e-16,4.25000000e-09,1.05345695e-18,4.25000000e-09,3.51596593e-16,4.25000000e-09,5.26250382e-16,4.25000000e-09,1.75394789e-19,4.25000000e-09,9.72380607e-10,4.25000000e-09,6.24258279e-01,4.25000000e-09,4.67549964e-02,4.25000000e-09,4.02541635e-01,4.25000000e-09,4.02541634e-01,4.25000000e-09,1.02840389e+09,4.25000000e-09,7.24592686e+07,4.25000000e-09,1.15322508e+07,4.25000000e-09,2.10055926e+01,0.840,0.500,sky130
4.50000000e-09,9.43928442e-08,4.50000000e-09,4.49943098e-09,4.50000000e-09,1.23833972e-15,4.50000000e-09,-6.95452410e-16,4.50000000e-09,1.08024650e-18,4.50000000e-09,3.55742003e-16,4.50000000e-09,5.32460892e-16,4.50000000e-09,1.62079232e-19,4.50000000e-09,1.02567764e-09,4.50000000e-09,6.24248448e-01,4.50000000e-09,4.67820397e-02,4.50000000e-09,4.05235428e-01,4.50000000e-09,4.05235427e-01,4.50000000e-09,9.74965197e+08,4.50000000e-09,7.62253223e+07,4.50000000e-09,1.21316368e+07,4.50000000e-09,2.09788404e+01,0.840,0.500,sky130
4.75000000e-09,9.95153649e-08,4.75000000e-09,4.74942400e-09,4.75000000e-09,1.24448898e-15,4.75000000e-09,-7.04130567e-16,4.75000000e-09,1.10568625e-18,4.75000000e-09,3.59684796e-16,4.75000000e-09,5.38367946e-16,4.75000000e-09,1.49510865e-19,4.75000000e-09,1.07879416e-09,4.75000000e-09,6.24239137e-01,4.75000000e-09,4.68090420e-02,4.75000000e-09,4.07786787e-01,4.75000000e-09,4.07786786e-01,4.75000000e-09,9.26960896e+08,4.75000000e-09,7.99648421e+07,4.75000000e-09,1.27267999e+07,4.75000000e-09,2.09531440e+01,0.840,0.500,sky130
5.00000000e-09,1.04629908e-07,5.00000000e-09,4.99941792e-09,5.00000000e-09,1.25036720e-15,5.00000000e-09,-7.12414219e-16,5.00000000e-09,1.12990905e-18,5.00000000e-09,3.63444333e-16,5.00000000e-09,5.44000540e-16,5.00000000e-09,1.37610861e-19,5.00000000e-09,1.13174011e-09,5.00000000e-09,6.24230293e-01,5.00000000e-09,4.68360041e-02,5.00000000e-09,4.10210219e-01,5.00000000e-09,4.10210217e-01,5.00000000e-09,8.83595089e+08,5.00000000e-09,8.36793453e+07,5.00000000e-09,1.33179814e+07,5.00000000e-09,2.09284181e+01,0.840,0.500,sky130
5.25000000e-09,1.09736806e-07,5.25000000e-09,5.24941254e-09,5.25000000e-09,1.25599820e-15,5.25000000e-09,-7.20338800e-16,5.25000000e-09,1.15302877e-18,5.25000000e-09,3.67037286e-16,5.25000000e-09,5.49383632e-16,5.25000000e-09,1.26312250e-19,5.25000000e-09,1.18452433e-09,5.25000000e-09,6.24221870e-01,5.25000000e-09,4.68629264e-02,5.25000000e-09,4.12518110e-01,5.25000000e-09,4.12518109e-01,5.25000000e-09,8.44220733e+08,5.25000000e-09,8.73701934e+07,5.25000000e-09,1.39053982e+07,5.25000000e-09,2.09045879e+01,0.840,0.500,sky130
5.50000000e-09,1.14836387e-07,5.50000000e-09,5.49940879e-09,5.50000000e-09,1.26140279e-15,5.50000000e-09,-7.27935123e-16,5.50000000e-09,1.17514388e-18,5.50000000e-09,3.70478127e-16,5.50000000e-09,5.54538897e-16,5.50000000e-09,1.15557597e-19,5.50000000e-09,1.23715503e-09,5.50000000e-09,6.24213830e-01,5.50000000e-09,4.68898097e-02,5.50000000e-09,4.14721137e-01,5.50000000e-09,4.14721135e-01,5.50000000e-09,8.08306137e+08,5.50000000e-09,9.10386337e+07,5.50000000e-09,1.44892486e+07,5.50000000e-09,2.08815877e+01,0.840,0.500,sky130
5.75000000e-09,1.19928891e-07,5.75000000e-09,5.74940441e-09,5.75000000e-09,1.26659910e-15,5.75000000e-09,-7.35230037e-16,5.75000000e-09,1.19633979e-18,5.75000000e-09,3.73779456e-16,5.75000000e-09,5.59485202e-16,5.75000000e-09,1.05297448e-19,5.75000000e-09,1.28963895e-09,5.75000000e-09,6.24206139e-01,5.75000000e-09,4.69166544e-02,5.75000000e-09,4.16828528e-01,5.75000000e-09,4.16828526e-01,5.75000000e-09,7.75410825e+08,5.75000000e-09,9.46857535e+07,5.75000000e-09,1.50697057e+07,5.75000000e-09,2.08593590e+01,0.840,0.500,sky130
6.00000000e-09,1.25014624e-07,6.00000000e-09,5.99940139e-09,6.00000000e-09,1.27160322e-15,6.00000000e-09,-7.42247281e-16,6.00000000e-09,1.21669163e-18,6.00000000e-09,3.76952395e-16,6.00000000e-09,5.64239203e-16,6.00000000e-09,9.54886424e-20,6.00000000e-09,1.34198309e-09,6.00000000e-09,6.24198768e-01,6.00000000e-09,4.69434611e-02,6.00000000e-09,4.18848373e-01,6.00000000e-09,4.18848371e-01,6.00000000e-09,7.45165874e+08,6.00000000e-09,9.83126040e+07,6.00000000e-09,1.56469369e+07,6.00000000e-09,2.08378497e+01,0.840,0.500,sky130
6.25000000e-09,1.30093800e-07,6.25000000e-09,6.24939795e-09,6.25000000e-09,1.27642934e-15,6.25000000e-09,-7.49007749e-16,6.25000000e-09,1.23626529e-18,6.25000000e-09,3.80006727e-16,6.25000000e-09,5.68815549e-16,6.25000000e-09,8.60935662e-20,6.25000000e-09,1.39419307e-09,6.25000000e-09,6.24191690e-01,6.25000000e-09,4.69702301e-02,6.25000000e-09,4.20787747e-01,6.25000000e-09,4.20787745e-01,6.25000000e-09,7.17260773e+08,6.25000000e-09,1.01920095e+08,6.25000000e-09,1.62210870e+07,6.25000000e-09,2.08170132e+01,0.840,0.500,sky130
6.50000000e-09,1.35166667e-07,6.50000000e-09,6.49939505e-09,6.50000000e-09,1.28109012e-15,6.50000000e-09,-7.55530091e-16,6.50000000e-09,1.25511931e-18,6.50000000e-09,3.82951171e-16,6.50000000e-09,5.73227297e-16,6.50000000e-09,7.70790286e-20,6.50000000e-09,1.44627460e-09,6.50000000e-09,6.24184883e-01,6.50000000e-09,4.69969620e-02,6.50000000e-09,4.22652914e-01,6.50000000e-09,4.22652912e-01,6.50000000e-09,6.91431628e+08,6.50000000e-09,1.05509101e+08,6.50000000e-09,1.67922950e+07,6.50000000e-09,2.07968075e+01,0.840,0.500,sky130
6.75000000e-09,1.40233461e-07,6.75000000e-09,6.74939347e-09,6.75000000e-09,1.28559693e-15,6.75000000e-09,-7.61830957e-16,6.75000000e-09,1.27330577e-18,6.75000000e-09,3.85793504e-16,6.75000000e-09,5.77486094e-16,6.75000000e-09,6.84156825e-20,6.75000000e-09,1.49823289e-09,6.75000000e-09,6.24178326e-01,6.75000000e-09,4.70236573e-02,6.75000000e-09,4.24449433e-01,6.75000000e-09,4.24449431e-01,6.75000000e-09,6.67452977e+08,6.75000000e-09,1.09080426e+08,6.75000000e-09,1.73606890e+07,6.75000000e-09,2.07771945e+01,0.840,0.500,sky130
7.00000000e-09,1.45294318e-07,7.00000000e-09,6.99939004e-09,7.00000000e-09,1.28995987e-15,7.00000000e-09,-7.67925188e-16,7.00000000e-09,1.29087097e-18,7.00000000e-09,3.88540652e-16,7.00000000e-09,5.81602314e-16,7.00000000e-09,6.00775770e-20,7.00000000e-09,1.55007194e-09,7.00000000e-09,6.24172003e-01,7.00000000e-09,4.70503159e-02,7.00000000e-09,4.26182230e-01,7.00000000e-09,4.26182228e-01,7.00000000e-09,6.45131347e+08,7.00000000e-09,1.12634758e+08,7.00000000e-09,1.79263785e+07,7.00000000e-09,2.07581400e+01,0.840,0.500,sky130
7.25000000e-09,1.50349497e-07,7.25000000e-09,7.24938801e-09,7.25000000e-09,1.29418820e-15,7.25000000e-09,-7.73826300e-16,7.25000000e-09,1.30785688e-18,7.25000000e-09,3.91198916e-16,7.25000000e-09,5.85585391e-16,7.25000000e-09,5.20413404e-20,7.25000000e-09,1.60179676e-09,7.25000000e-09,6.24165895e-01,7.25000000e-09,4.70769387e-02,7.25000000e-09,4.27855758e-01,7.25000000e-09,4.27855756e-01,7.25000000e-09,6.24298929e+08,7.25000000e-09,1.16172823e+08,7.25000000e-09,1.84894791e+07,7.25000000e-09,2.07396124e+01,0.840,0.500,sky130
7.50000000e-09,1.55399147e-07,7.50000000e-09,7.49938583e-09,7.50000000e-09,1.29829020e-15,7.50000000e-09,-7.79546402e-16,7.50000000e-09,1.32430101e-18,7.50000000e-09,3.93773935e-16,7.50000000e-09,5.89443772e-16,7.50000000e-09,4.42861718e-20,7.50000000e-09,1.65341101e-09,7.50000000e-09,6.24159989e-01,7.50000000e-09,4.71035257e-02,7.50000000e-09,4.29473989e-01,7.50000000e-09,4.29473987e-01,7.50000000e-09,6.04810293e+08,7.50000000e-09,1.19695232e+08,7.50000000e-09,1.90500879e+07,7.50000000e-09,2.07215831e+01,0.840,0.500,sky130
7.75000000e-09,1.60443447e-07,7.75000000e-09,7.74938397e-09,7.75000000e-09,1.30227343e-15,7.75000000e-09,-7.85096520e-16,7.75000000e-09,1.34023744e-18,7.75000000e-09,3.96270841e-16,7.75000000e-09,5.93185143e-16,7.75000000e-09,3.67932928e-20,7.75000000e-09,1.70491854e-09,7.75000000e-09,6.24154272e-01,7.75000000e-09,4.71300775e-02,7.75000000e-09,4.31040518e-01,7.75000000e-09,4.31040515e-01,7.75000000e-09,5.86538287e+08,7.75000000e-09,1.23202581e+08,7.75000000e-09,1.96082997e+07,7.75000000e-09,2.07040259e+01,0.840,0.500,sky130
8.00000000e-09,1.65482549e-07,8.00000000e-09,7.99938204e-09,8.00000000e-09,1.30614476e-15,8.00000000e-09,-7.90486669e-16,8.00000000e-09,1.35569701e-18,8.00000000e-09,3.98694291e-16,8.00000000e-09,5.96816478e-16,8.00000000e-09,2.95457697e-20,8.00000000e-09,1.75632273e-09,8.00000000e-09,6.24148732e-01,8.00000000e-09,4.71565942e-02,8.00000000e-09,4.32558593e-01,8.00000000e-09,4.32558590e-01,8.00000000e-09,5.69371438e+08,8.00000000e-09,1.26695413e+08,8.00000000e-09,2.01642012e+07,8.00000000e-09,2.06869166e+01,0.840,0.500,sky130
8.25000000e-09,1.70516605e-07,8.25000000e-09,8.24937990e-09,8.25000000e-09,1.30991048e-15,8.25000000e-09,-7.95725996e-16,8.25000000e-09,1.37070782e-18,8.25000000e-09,4.01048535e-16,8.25000000e-09,6.00344143e-16,8.25000000e-09,2.25282512e-20,8.25000000e-09,1.80762682e-09,8.25000000e-09,6.24143358e-01,8.25000000e-09,4.71830762e-02,8.25000000e-09,4.34031167e-01,8.25000000e-09,4.34031165e-01,8.25000000e-09,5.53211531e+08,8.25000000e-09,1.30174243e+08,8.25000000e-09,2.07178742e+07,8.25000000e-09,2.06702330e+01,0.840,0.500,sky130
8.50000000e-09,1.75545765e-07,8.50000000e-09,8.49937795e-09,8.50000000e-09,1.31357636e-15,8.50000000e-09,-8.00822884e-16,8.50000000e-09,1.38529557e-18,8.50000000e-09,4.03337464e-16,8.50000000e-09,6.03773964e-16,8.50000000e-09,1.57267687e-20,8.50000000e-09,1.85883392e-09,8.50000000e-09,6.24138140e-01,8.50000000e-09,4.72095237e-02,8.50000000e-09,4.35460933e-01,8.50000000e-09,4.35460930e-01,8.50000000e-09,5.37971676e+08,8.50000000e-09,1.33639559e+08,8.50000000e-09,2.12693964e+07,8.50000000e-09,2.06539545e+01,0.840,0.500,sky130
8.75000000e-09,1.80570163e-07,8.75000000e-09,8.74937592e-09,8.75000000e-09,1.31714769e-15,8.75000000e-09,-8.05785010e-16,8.75000000e-09,1.39948374e-18,8.75000000e-09,4.05564640e-16,8.75000000e-09,6.07111279e-16,8.75000000e-09,9.12860515e-21,8.75000000e-09,1.90994686e-09,8.75000000e-09,6.24133069e-01,8.75000000e-09,4.72359371e-02,8.75000000e-09,4.36850344e-01,8.75000000e-09,4.36850341e-01,8.75000000e-09,5.23574778e+08,8.75000000e-09,1.37091812e+08,8.75000000e-09,2.18188395e+07,8.75000000e-09,2.06380621e+01,0.840,0.500,sky130
9.00000000e-09,1.85589942e-07,9.00000000e-09,8.99937446e-09,9.00000000e-09,1.32062936e-15,9.00000000e-09,-8.10619458e-16,9.00000000e-09,1.41329393e-18,9.00000000e-09,4.07733347e-16,9.00000000e-09,6.10361004e-16,9.00000000e-09,2.72211169e-21,9.00000000e-09,1.96096844e-09,9.00000000e-09,6.24128137e-01,9.00000000e-09,4.72623166e-02,9.00000000e-09,4.38201656e-01,9.00000000e-09,4.38201653e-01,9.00000000e-09,5.09952113e+08,9.00000000e-09,1.40531437e+08,9.00000000e-09,2.23662729e+07,9.00000000e-09,2.06225380e+01,0.840,0.500,sky130
9.25000000e-09,1.90605222e-07,9.25000000e-09,9.24937344e-09,9.25000000e-09,1.32402586e-15,9.25000000e-09,-8.15332742e-16,9.25000000e-09,1.42674598e-18,9.25000000e-09,4.09846602e-16,9.25000000e-09,6.13527659e-16,9.25000000e-09,-3.50336908e-21,9.25000000e-09,2.01190119e-09,9.25000000e-09,6.24123337e-01,9.25000000e-09,4.72886625e-02,9.25000000e-09,4.39516934e-01,9.25000000e-09,4.39516931e-01,9.25000000e-09,4.97042302e+08,9.25000000e-09,1.43958837e+08,9.25000000e-09,2.29117605e+07,9.25000000e-09,2.06073658e+01,0.840,0.500,sky130
9.50000000e-09,1.95616108e-07,9.50000000e-09,9.49937206e-09,9.50000000e-09,1.32734135e-15,9.50000000e-09,-8.19930873e-16,9.50000000e-09,1.43985815e-18,9.50000000e-09,4.11907188e-16,9.50000000e-09,6.16615413e-16,9.50000000e-09,-9.55761384e-21,9.50000000e-09,2.06274733e-09,9.50000000e-09,6.24118662e-01,9.50000000e-09,4.73149749e-02,9.50000000e-09,4.40798075e-01,9.50000000e-09,4.40798072e-01,9.50000000e-09,4.84790349e+08,9.50000000e-09,1.47374380e+08,9.50000000e-09,2.34553610e+07,9.50000000e-09,2.05925304e+01,0.840,0.500,sky130
9.75000000e-09,2.00622721e-07,9.75000000e-09,9.74937081e-09,9.75000000e-09,1.33057969e-15,9.75000000e-09,-8.24419441e-16,9.75000000e-09,1.45264740e-18,9.75000000e-09,4.13917691e-16,9.75000000e-09,6.19628138e-16,9.75000000e-09,-1.54496576e-20,9.75000000e-09,2.11350924e-09,9.75000000e-09,6.24114104e-01,9.75000000e-09,4.73412543e-02,9.75000000e-09,4.42046837e-01,9.75000000e-09,4.42046834e-01,9.75000000e-09,4.73146737e+08,9.75000000e-09,1.50778433e+08,9.75000000e-09,2.39971329e+07,9.75000000e-09,2.05780173e+01,0.840,0.500,sky130
1.00000000e-08,2.05625106e-07,1.00000000e-08,9.99936654e-09,1.00000000e-08,1.33374444e-15,1.00000000e-08,-8.28803567e-16,1.00000000e-08,1.46512923e-18,1.00000000e-08,4.15880480e-16,1.00000000e-08,6.22569384e-16,1.00000000e-08,-2.11877564e-20,1.00000000e-08,2.16418841e-09,1.00000000e-08,6.24109659e-01,1.00000000e-08,4.73675003e-02,1.00000000e-08,4.43264827e-01,1.00000000e-08,4.43264824e-01,1.00000000e-08,4.62066978e+08,1.00000000e-08,1.54171294e+08,1.00000000e-08,2.45371235e+07,1.00000000e-08,2.05638133e+01,0.840,0.500,sky130
