isweep,gm,i_id,id,i_cgg,cgg,i_cgs,cgs,i_cgd,cgd,i_cds,cds,i_css,css,i_cdd,cdd,i_gds,gds,i_vth,vth,i_vdsat,vdsat,i_vgs,vgs,i_vds,vds,i_rds,rds,i_wt,wt,i_ft,ft,i_kgm,kgm,W,L,pdk
1.00000000e-09,2.53530192e-08,1.00000000e-09,9.99659094e-10,1.00000000e-09,1.14463676e-15,1.00000000e-09,-5.14595288e-16,1.00000000e-09,1.23235657e-18,1.00000000e-09,2.66646857e-16,1.00000000e-09,3.98877204e-16,1.00000000e-09,-9.84599256e-21,1.00000000e-09,3.20133512e-10,1.00000000e-09,6.14697296e-01,1.00000000e-09,4.04820010e-02,1.00000000e-09,3.40346758e-01,1.00000000e-09,3.40346758e-01,1.00000000e-09,3.12369671e+09,1.00000000e-09,2.21494015e+07,1.00000000e-09,3.52518673e+06,1.00000000e-09,2.53616651e+01,0.840,0.500,sky130
1.25000000e-09,3.16094591e-08,1.25000000e-09,1.25007649e-09,1.25000000e-09,1.16711121e-15,1.25000000e-09,-5.46363297e-16,1.25000000e-09,1.35878294e-18,1.25000000e-09,2.81232243e-16,1.25000000e-09,4.20717310e-16,1.25000000e-09,-6.94836808e-20,1.25000000e-09,3.94916170e-10,1.25000000e-09,6.14653622e-01,1.25000000e-09,4.04993979e-02,1.25000000e-09,3.49064549e-01,1.25000000e-09,3.49064549e-01,1.25000000e-09,2.53218297e+09,1.25000000e-09,2.70835023e+07,1.25000000e-09,4.31047327e+06,1.25000000e-09,2.52860200e+01,0.840,0.500,sky130
1.50000000e-09,3.78497057e-08,1.50000000e-09,1.50085526e-09,1.50000000e-09,1.18631084e-15,1.50000000e-09,-5.73308864e-16,1.50000000e-09,1.46527523e-18,1.50000000e-09,2.93545700e-16,1.50000000e-09,4.39156732e-16,1.50000000e-09,-1.18785694e-19,1.50000000e-09,4.69014830e-10,1.50000000e-09,6.14617798e-01,1.50000000e-09,4.05167794e-02,1.50000000e-09,3.56215582e-01,1.50000000e-09,3.56215582e-01,1.50000000e-09,2.13212874e+09,1.50000000e-09,3.19053865e+07,1.50000000e-09,5.07789997e+06,1.50000000e-09,2.52187581e+01,0.840,0.500,sky130
1.75000000e-09,4.40356668e-08,1.75000000e-09,1.75034940e-09,1.75000000e-09,1.20302464e-15,1.75000000e-09,-5.96636460e-16,1.75000000e-09,1.55700570e-18,1.75000000e-09,3.04165840e-16,1.75000000e-09,4.55061278e-16,1.75000000e-09,-1.60646208e-19,1.75000000e-09,5.42089640e-10,1.75000000e-09,6.14587586e-01,1.75000000e-09,4.05340364e-02,1.75000000e-09,3.62246211e-01,1.75000000e-09,3.62246211e-01,1.75000000e-09,1.84471336e+09,1.75000000e-09,3.66041271e+07,1.75000000e-09,5.82572777e+06,1.75000000e-09,2.51582152e+01,0.840,0.500,sky130
2.00000000e-09,5.02060889e-08,2.00000000e-09,2.00003099e-09,2.00000000e-09,1.21793085e-15,2.00000000e-09,-6.17348811e-16,2.00000000e-09,1.63813978e-18,2.00000000e-09,3.13565972e-16,2.00000000e-09,4.69139389e-16,2.00000000e-09,-1.97245982e-19,2.00000000e-09,6.14674362e-10,2.00000000e-09,6.14561326e-01,2.00000000e-09,4.05512742e-02,2.00000000e-09,3.67488017e-01,2.00000000e-09,3.67488017e-01,2.00000000e-09,1.62687768e+09,2.00000000e-09,4.12224461e+07,2.00000000e-09,6.56075606e+06,2.00000000e-09,2.51026555e+01,0.840,0.500,sky130
2.25000000e-09,5.63623218e-08,2.25000000e-09,2.24988826e-09,2.25000000e-09,1.23140519e-15,2.25000000e-09,-6.36002290e-16,2.25000000e-09,1.71098582e-18,2.25000000e-09,3.22009148e-16,2.25000000e-09,4.81784789e-16,2.25000000e-09,-2.29793662e-19,2.25000000e-09,6.86836557e-10,2.25000000e-09,6.14538092e-01,2.25000000e-09,4.05684945e-02,2.25000000e-09,3.72125611e-01,2.25000000e-09,3.72125610e-01,2.25000000e-09,1.45595046e+09,2.25000000e-09,4.57707360e+07,2.25000000e-09,7.28463889e+06,2.25000000e-09,2.50511649e+01,0.840,0.500,sky130
2.50000000e-09,6.25028472e-08,2.50000000e-09,2.49980418e-09,2.50000000e-09,1.24370938e-15,2.50000000e-09,-6.52982176e-16,2.50000000e-09,1.77713055e-18,2.50000000e-09,3.29676966e-16,2.50000000e-09,4.93269302e-16,2.50000000e-09,-2.59107832e-19,2.50000000e-09,7.58597020e-10,2.50000000e-09,6.14517261e-01,2.50000000e-09,4.05856909e-02,2.50000000e-09,3.76283724e-01,2.50000000e-09,3.76283723e-01,2.50000000e-09,1.31822295e+09,2.50000000e-09,5.02551869e+07,2.50000000e-09,7.99836141e+06,2.50000000e-09,2.50030973e+01,0.840,0.500,sky130
2.75000000e-09,6.86281027e-08,2.75000000e-09,2.74974917e-09,2.75000000e-09,1.25504043e-15,2.75000000e-09,-6.68576419e-16,2.75000000e-09,1.83775075e-18,2.75000000e-09,3.36704609e-16,2.75000000e-09,5.03795288e-16,2.75000000e-09,-2.85785529e-19,2.75000000e-09,8.29990677e-10,2.75000000e-09,6.14498379e-01,2.75000000e-09,4.06028630e-02,2.75000000e-09,3.80052903e-01,2.75000000e-09,3.80052902e-01,2.75000000e-09,1.20483281e+09,2.75000000e-09,5.46819856e+07,2.75000000e-09,8.70290830e+06,2.75000000e-09,2.49579501e+01,0.840,0.500,sky130
3.00000000e-09,7.47388088e-08,3.00000000e-09,2.99971181e-09,3.00000000e-09,1.26554879e-15,3.00000000e-09,-6.83003720e-16,3.00000000e-09,1.89373505e-18,3.00000000e-09,3.43194435e-16,3.00000000e-09,5.13515976e-16,3.00000000e-09,-3.10271767e-19,3.00000000e-09,9.01049455e-10,3.00000000e-09,6.14481108e-01,3.00000000e-09,4.06200111e-02,3.00000000e-09,3.83500364e-01,3.00000000e-09,3.83500363e-01,3.00000000e-09,1.10981700e+09,3.00000000e-09,5.90564421e+07,3.00000000e-09,9.39912468e+06,3.00000000e-09,2.49153297e+01,0.840,0.500,sky130
3.25000000e-09,8.08356846e-08,3.25000000e-09,3.24968585e-09,3.25000000e-09,1.27535181e-15,3.25000000e-09,-6.96433910e-16,3.25000000e-09,1.94577023e-18,3.25000000e-09,3.49225717e-16,3.25000000e-09,5.22550047e-16,3.25000000e-09,-3.32906689e-19,3.25000000e-09,9.71800672e-10,3.25000000e-09,6.14465192e-01,3.25000000e-09,4.06371358e-02,3.25000000e-09,3.86677278e-01,3.25000000e-09,3.86677277e-01,3.25000000e-09,1.02901760e+09,3.25000000e-09,6.33830476e+07,3.25000000e-09,1.00877253e+07,3.25000000e-09,2.48749228e+01,0.840,0.500,sky130
3.50000000e-09,8.69193701e-08,3.50000000e-09,3.49966610e-09,3.50000000e-09,1.28454283e-15,3.50000000e-09,-7.09001515e-16,3.50000000e-09,1.99439807e-18,3.50000000e-09,3.54861105e-16,3.50000000e-09,5.30991293e-16,3.50000000e-09,-3.53956073e-19,3.50000000e-09,1.04226729e-09,3.50000000e-09,6.14450432e-01,3.50000000e-09,4.06542376e-02,3.50000000e-09,3.89623474e-01,3.50000000e-09,3.89623473e-01,3.50000000e-09,9.59446788e+08,3.50000000e-09,6.76656068e+07,3.50000000e-09,1.07693158e+07,3.50000000e-09,2.48364752e+01,0.840,0.500,sky130
3.75000000e-09,9.29905253e-08,3.75000000e-09,3.74965169e-09,3.75000000e-09,1.29319749e-15,3.75000000e-09,-7.20815179e-16,3.75000000e-09,2.04005459e-18,3.75000000e-09,3.60151082e-16,3.75000000e-09,5.38915298e-16,3.75000000e-09,-3.73631933e-19,3.75000000e-09,1.11246986e-09,3.75000000e-09,6.14436670e-01,3.75000000e-09,4.06713172e-02,3.75000000e-09,3.92370604e-01,3.75000000e-09,3.92370603e-01,3.75000000e-09,8.98900756e+08,3.75000000e-09,7.19074435e+07,3.75000000e-09,1.14444251e+07,3.75000000e-09,2.47997769e+01,0.840,0.500,sky130
4.00000000e-09,9.90497298e-08,4.00000000e-09,3.99964138e-09,4.00000000e-09,1.30137788e-15,4.00000000e-09,-7.31963806e-16,4.00000000e-09,2.08309548e-18,4.00000000e-09,3.65136883e-16,4.00000000e-09,5.46383798e-16,4.00000000e-09,-3.92105915e-19,4.00000000e-09,1.18242598e-09,4.00000000e-09,6.14423777e-01,4.00000000e-09,4.06883751e-02,4.00000000e-09,3.94944200e-01,4.00000000e-09,3.94944199e-01,4.00000000e-09,8.45718903e+08,4.00000000e-09,7.61114285e+07,4.00000000e-09,1.21135101e+07,4.00000000e-09,2.47646527e+01,0.840,0.500,sky130
4.25000000e-09,1.05097461e-07,4.25000000e-09,4.24963221e-09,4.25000000e-09,1.30913562e-15,4.25000000e-09,-7.42521068e-16,4.25000000e-09,2.12381470e-18,4.25000000e-09,3.69852617e-16,4.25000000e-09,5.53447862e-16,4.25000000e-09,-4.09518901e-19,4.25000000e-09,1.25215041e-09,4.25000000e-09,6.14411649e-01,4.25000000e-09,4.07054117e-02,4.25000000e-09,3.97365146e-01,4.25000000e-09,3.97365144e-01,4.25000000e-09,7.98626100e+08,4.25000000e-09,8.02800412e+07,4.25000000e-09,1.27769654e+07,4.25000000e-09,2.47309546e+01,0.840,0.500,sky130
4.50000000e-09,1.11134216e-07,4.50000000e-09,4.49962405e-09,4.50000000e-09,1.31651419e-15,4.50000000e-09,-7.52548895e-16,4.50000000e-09,2.16245875e-18,4.50000000e-09,3.74326907e-16,4.50000000e-09,5.60150349e-16,4.50000000e-09,-4.25988261e-19,4.50000000e-09,1.32165685e-09,4.50000000e-09,6.14400198e-01,4.50000000e-09,4.07224274e-02,4.50000000e-09,3.99650780e-01,4.50000000e-09,3.99650779e-01,4.50000000e-09,7.56626048e+08,4.50000000e-09,8.44155099e+07,4.50000000e-09,1.34351457e+07,4.50000000e-09,2.46985560e+01,0.840,0.500,sky130
4.75000000e-09,1.17160473e-07,4.75000000e-09,4.74961787e-09,4.75000000e-09,1.32355058e-15,4.75000000e-09,-7.62099829e-16,4.75000000e-09,2.19923630e-18,4.75000000e-09,3.78584000e-16,4.75000000e-09,5.66527564e-16,4.75000000e-09,-4.41612763e-19,4.75000000e-09,1.39095771e-09,4.75000000e-09,6.14389353e-01,4.75000000e-09,4.07394227e-02,4.75000000e-09,4.01815647e-01,4.75000000e-09,4.01815645e-01,4.75000000e-09,7.18929120e+08,4.75000000e-09,8.85198308e+07,4.75000000e-09,1.40883686e+07,4.75000000e-09,2.46673473e+01,0.840,0.500,sky130
5.00000000e-09,1.23176636e-07,5.00000000e-09,4.99961310e-09,5.00000000e-09,1.33027647e-15,5.00000000e-09,-7.71218758e-16,5.00000000e-09,2.23432529e-18,5.00000000e-09,3.82644583e-16,5.00000000e-09,5.72610482e-16,5.00000000e-09,-4.56476189e-19,5.00000000e-09,1.46006364e-09,5.00000000e-09,6.14379051e-01,5.00000000e-09,4.07563981e-02,5.00000000e-09,4.03872044e-01,5.00000000e-09,4.03872042e-01,5.00000000e-09,6.84901650e+08,5.00000000e-09,9.25947639e+07,5.00000000e-09,1.47369144e+07,5.00000000e-09,2.46372336e+01,0.840,0.500,sky130
5.25000000e-09,1.29183057e-07,5.25000000e-09,5.24960848e-09,5.25000000e-09,1.33671921e-15,5.25000000e-09,-7.79944376e-16,5.25000000e-09,2.26787882e-18,5.25000000e-09,3.86526464e-16,5.25000000e-09,5.78425769e-16,5.25000000e-09,-4.70650275e-19,5.25000000e-09,1.52898404e-09,5.25000000e-09,6.14369240e-01,5.25000000e-09,4.07733538e-02,5.25000000e-09,4.05830471e-01,5.25000000e-09,4.05830469e-01,5.25000000e-09,6.54029065e+08,5.25000000e-09,9.66418799e+07,5.25000000e-09,1.53810329e+07,5.25000000e-09,2.46081318e+01,0.840,0.500,sky130
5.50000000e-09,1.35180091e-07,5.50000000e-09,5.49960392e-09,5.50000000e-09,1.34290264e-15,5.50000000e-09,-7.88310336e-16,5.50000000e-09,2.30002983e-18,5.50000000e-09,3.90245113e-16,5.50000000e-09,5.83996589e-16,5.50000000e-09,-4.84197017e-19,5.50000000e-09,1.59772762e-09,5.50000000e-09,6.14359874e-01,5.50000000e-09,4.07902901e-02,5.50000000e-09,4.07699976e-01,5.50000000e-09,4.07699974e-01,5.50000000e-09,6.25888909e+08,5.50000000e-09,1.00662615e+08,5.50000000e-09,1.60209528e+07,5.50000000e-09,2.45799686e+01,0.840,0.500,sky130
5.75000000e-09,1.41168090e-07,5.75000000e-09,5.74960038e-09,5.75000000e-09,1.34884767e-15,5.75000000e-09,-7.96346104e-16,5.75000000e-09,2.33089454e-18,5.75000000e-09,3.93814056e-16,5.75000000e-09,5.89343197e-16,5.75000000e-09,-4.97170375e-19,5.75000000e-09,1.66630262e-09,5.75000000e-09,6.14350914e-01,5.75000000e-09,4.08072073e-02,5.75000000e-09,4.09488412e-01,5.75000000e-09,4.09488410e-01,5.75000000e-09,6.00131084e+08,5.75000000e-09,1.04658290e+08,5.75000000e-09,1.66568842e+07,5.75000000e-09,2.45526786e+01,0.840,0.500,sky130
6.00000000e-09,1.47147358e-07,6.00000000e-09,5.99959775e-09,6.00000000e-09,1.35457269e-15,6.00000000e-09,-8.04077573e-16,6.00000000e-09,2.36057495e-18,6.00000000e-09,3.97245167e-16,6.00000000e-09,5.94483375e-16,6.00000000e-09,-5.09617514e-19,6.00000000e-09,1.73471625e-09,6.00000000e-09,6.14342326e-01,6.00000000e-09,4.08241058e-02,6.00000000e-09,4.11202624e-01,6.00000000e-09,4.11202622e-01,6.00000000e-09,5.76463153e+08,6.00000000e-09,1.08630093e+08,6.00000000e-09,1.72890163e+07,6.00000000e-09,2.45262040e+01,0.840,0.500,sky130
6.25000000e-09,1.53118126e-07,6.25000000e-09,6.24959369e-09,6.25000000e-09,1.36009398e-15,6.25000000e-09,-8.11527584e-16,6.25000000e-09,2.38916090e-18,6.25000000e-09,4.00548911e-16,6.25000000e-09,5.99432793e-16,6.25000000e-09,-5.21579845e-19,6.25000000e-09,1.80297449e-09,6.25000000e-09,6.14334081e-01,6.25000000e-09,4.08409856e-02,6.25000000e-09,4.12848609e-01,6.25000000e-09,4.12848607e-01,6.25000000e-09,5.54639017e+08,6.25000000e-09,1.12579077e+08,6.25000000e-09,1.79175166e+07,6.25000000e-09,2.45004929e+01,0.840,0.500,sky130
6.50000000e-09,1.59080748e-07,6.50000000e-09,6.49959190e-09,6.50000000e-09,1.36542614e-15,6.50000000e-09,-8.18716619e-16,6.50000000e-09,2.41673288e-18,6.50000000e-09,4.03734661e-16,6.50000000e-09,6.04205485e-16,6.50000000e-09,-5.33094290e-19,6.50000000e-09,1.87108445e-09,6.50000000e-09,6.14326150e-01,6.50000000e-09,4.08578473e-02,6.50000000e-09,4.14431698e-01,6.50000000e-09,4.14431696e-01,6.50000000e-09,5.34449421e+08,6.50000000e-09,1.16506301e+08,6.50000000e-09,1.85425536e+07,6.50000000e-09,2.44754980e+01,0.840,0.500,sky130
6.75000000e-09,1.65035384e-07,6.75000000e-09,6.74958843e-09,6.75000000e-09,1.37058207e-15,6.75000000e-09,-8.25662763e-16,6.75000000e-09,2.44336187e-18,6.75000000e-09,4.06810686e-16,6.75000000e-09,6.08813837e-16,6.75000000e-09,-5.44193347e-19,6.75000000e-09,1.93905066e-09,6.75000000e-09,6.14318510e-01,6.75000000e-09,4.08746907e-02,6.75000000e-09,4.15956575e-01,6.75000000e-09,4.15956573e-01,6.75000000e-09,5.15716284e+08,6.75000000e-09,1.20412624e+08,6.75000000e-09,1.91642644e+07,6.75000000e-09,2.44511774e+01,0.840,0.500,sky130
7.00000000e-09,1.70982360e-07,7.00000000e-09,6.99958713e-09,7.00000000e-09,1.37557353e-15,7.00000000e-09,-8.32382451e-16,7.00000000e-09,2.46911229e-18,7.00000000e-09,4.09784491e-16,7.00000000e-09,6.13269087e-16,7.00000000e-09,-5.54906381e-19,7.00000000e-09,2.00687935e-09,7.00000000e-09,6.14311142e-01,7.00000000e-09,4.08915164e-02,7.00000000e-09,4.17427461e-01,7.00000000e-09,4.17427458e-01,7.00000000e-09,4.98286058e+08,7.00000000e-09,1.24298961e+08,7.00000000e-09,1.97827941e+07,7.00000000e-09,2.44274922e+01,0.840,0.500,sky130
7.25000000e-09,1.76921833e-07,7.25000000e-09,7.24958517e-09,7.25000000e-09,1.38041098e-15,7.25000000e-09,-8.38890309e-16,7.25000000e-09,2.49404146e-18,7.25000000e-09,4.12662754e-16,7.25000000e-09,6.17581236e-16,7.25000000e-09,-5.65259459e-19,7.25000000e-09,2.07457457e-09,7.25000000e-09,6.14304025e-01,7.25000000e-09,4.09083244e-02,7.25000000e-09,4.18848095e-01,7.25000000e-09,4.18848093e-01,7.25000000e-09,4.82026538e+08,7.25000000e-09,1.28166058e+08,7.25000000e-09,2.03982616e+07,7.25000000e-09,2.44044078e+01,0.840,0.500,sky130
7.50000000e-09,1.82854048e-07,7.50000000e-09,7.49958403e-09,7.50000000e-09,1.38510398e-15,7.50000000e-09,-8.45199672e-16,7.50000000e-09,2.51820154e-18,7.50000000e-09,4.15451555e-16,7.50000000e-09,6.21759387e-16,7.50000000e-09,-5.75276232e-19,7.50000000e-09,2.14214121e-09,7.50000000e-09,6.14297142e-01,7.50000000e-09,4.09251148e-02,7.50000000e-09,4.20221863e-01,7.50000000e-09,4.20221860e-01,7.50000000e-09,4.66822633e+08,7.50000000e-09,1.32014672e+08,7.50000000e-09,2.10107877e+07,7.50000000e-09,2.43818920e+01,0.840,0.500,sky130
7.75000000e-09,1.88779133e-07,7.75000000e-09,7.74958072e-09,7.75000000e-09,1.38966113e-15,7.75000000e-09,-8.51322527e-16,7.75000000e-09,2.54163942e-18,7.75000000e-09,4.18156355e-16,7.75000000e-09,6.25811722e-16,7.75000000e-09,-5.84977905e-19,7.75000000e-09,2.20958262e-09,7.75000000e-09,6.14290480e-01,7.75000000e-09,4.09418878e-02,7.75000000e-09,4.21551794e-01,7.75000000e-09,4.21551792e-01,7.75000000e-09,4.52574161e+08,7.75000000e-09,1.35845444e+08,7.75000000e-09,2.16204739e+07,7.75000000e-09,2.43599156e+01,0.840,0.500,sky130
8.00000000e-09,1.94697379e-07,8.00000000e-09,7.99957958e-09,8.00000000e-09,1.39409038e-15,8.00000000e-09,-8.57269954e-16,8.00000000e-09,2.56439839e-18,8.00000000e-09,4.20782200e-16,8.00000000e-09,6.29745795e-16,8.00000000e-09,-5.94383983e-19,8.00000000e-09,2.27690388e-09,8.00000000e-09,6.14284023e-01,8.00000000e-09,4.09586437e-02,8.00000000e-09,4.22840670e-01,8.00000000e-09,4.22840667e-01,8.00000000e-09,4.39192892e+08,8.00000000e-09,1.39659079e+08,8.00000000e-09,2.22274328e+07,8.00000000e-09,2.43384514e+01,0.840,0.500,sky130
8.25000000e-09,2.00608886e-07,8.25000000e-09,8.24957722e-09,8.25000000e-09,1.39839889e-15,8.25000000e-09,-8.63051892e-16,8.25000000e-09,2.58651723e-18,8.25000000e-09,4.23333610e-16,8.25000000e-09,6.33568377e-16,8.25000000e-09,-6.03511931e-19,8.25000000e-09,2.34410773e-09,8.25000000e-09,6.14277759e-01,8.25000000e-09,4.09753826e-02,8.25000000e-09,4.24090975e-01,8.25000000e-09,4.24090972e-01,8.25000000e-09,4.26601554e+08,8.25000000e-09,1.43456124e+08,8.25000000e-09,2.28317513e+07,8.25000000e-09,2.43174747e+01,0.840,0.500,sky130
8.50000000e-09,2.06513873e-07,8.50000000e-09,8.49957576e-09,8.50000000e-09,1.40259329e-15,8.50000000e-09,-8.68677559e-16,8.50000000e-09,2.60803192e-18,8.50000000e-09,4.25814777e-16,8.50000000e-09,6.37285744e-16,8.50000000e-09,-6.12377884e-19,8.50000000e-09,2.41119818e-09,8.50000000e-09,6.14271677e-01,8.50000000e-09,4.09921046e-02,8.50000000e-09,4.25305001e-01,8.50000000e-09,4.25304998e-01,8.50000000e-09,4.14731567e+08,8.50000000e-09,1.47237174e+08,8.50000000e-09,2.34335241e+07,8.50000000e-09,2.42969624e+01,0.840,0.500,sky130
8.75000000e-09,2.12412502e-07,8.75000000e-09,8.74957517e-09,8.75000000e-09,1.40667964e-15,8.75000000e-09,-8.74155370e-16,8.75000000e-09,2.62897526e-18,8.75000000e-09,4.28229523e-16,8.75000000e-09,6.40903623e-16,8.75000000e-09,-6.20996528e-19,8.75000000e-09,2.47817844e-09,8.75000000e-09,6.14265767e-01,8.75000000e-09,4.10088099e-02,8.75000000e-09,4.26484831e-01,8.75000000e-09,4.26484828e-01,8.75000000e-09,4.03522194e+08,8.75000000e-09,1.51002756e+08,8.75000000e-09,2.40328351e+07,8.75000000e-09,2.42768932e+01,0.840,0.500,sky130
9.00000000e-09,2.18304879e-07,9.00000000e-09,8.99957338e-09,9.00000000e-09,1.41066348e-15,9.00000000e-09,-8.79493024e-16,9.00000000e-09,2.64937725e-18,9.00000000e-09,4.30581344e-16,9.00000000e-09,6.44427248e-16,9.00000000e-09,-6.29381272e-19,9.00000000e-09,2.54505100e-09,9.00000000e-09,6.14260018e-01,9.00000000e-09,4.10254985e-02,9.00000000e-09,4.27632364e-01,9.00000000e-09,4.27632360e-01,9.00000000e-09,3.92919434e+08,9.00000000e-09,1.54753336e+08,9.00000000e-09,2.46297583e+07,9.00000000e-09,2.42572475e+01,0.840,0.500,sky130
9.25000000e-09,2.24191214e-07,9.25000000e-09,9.24957306e-09,9.25000000e-09,1.41455002e-15,9.25000000e-09,-8.84697719e-16,9.25000000e-09,2.66926591e-18,9.25000000e-09,4.32873507e-16,9.25000000e-09,6.47861510e-16,9.25000000e-09,-6.37544602e-19,9.25000000e-09,2.61181945e-09,9.25000000e-09,6.14254422e-01,9.25000000e-09,4.10421707e-02,9.25000000e-09,4.28749362e-01,9.25000000e-09,4.28749359e-01,9.25000000e-09,3.82874857e+08,9.25000000e-09,1.58489421e+08,9.25000000e-09,2.52243748e+07,9.25000000e-09,2.42380067e+01,0.840,0.500,sky130
9.50000000e-09,2.30071571e-07,9.50000000e-09,9.49957099e-09,9.50000000e-09,1.41834397e-15,9.50000000e-09,-8.89775988e-16,9.50000000e-09,2.68866667e-18,9.50000000e-09,4.35108973e-16,9.50000000e-09,6.51210848e-16,9.50000000e-09,-6.45497841e-19,9.50000000e-09,2.67848565e-09,9.50000000e-09,6.14248971e-01,9.50000000e-09,4.10588265e-02,9.50000000e-09,4.29837425e-01,9.50000000e-09,4.29837422e-01,9.50000000e-09,3.73345289e+08,9.50000000e-09,1.62211407e+08,9.50000000e-09,2.58167473e+07,9.50000000e-09,2.42191538e+01,0.840,0.500,sky130
9.75000000e-09,2.35946150e-07,9.75000000e-09,9.74956986e-09,9.75000000e-09,1.42204979e-15,9.75000000e-09,-8.94734001e-16,9.75000000e-09,2.70760353e-18,9.75000000e-09,4.37290539e-16,9.75000000e-09,6.54479447e-16,9.75000000e-09,-6.53251634e-19,9.75000000e-09,2.74505289e-09,9.75000000e-09,6.14243658e-01,9.75000000e-09,4.10754661e-02,9.75000000e-09,4.30898052e-01,9.75000000e-09,4.30898048e-01,9.75000000e-09,3.64291706e+08,9.75000000e-09,1.65919753e+08,9.75000000e-09,2.64069488e+07,9.75000000e-09,2.42006727e+01,0.840,0.500,sky130
1.00000000e-08,2.41814999e-07,1.00000000e-08,9.99956634e-09,1.00000000e-08,1.42567154e-15,1.00000000e-08,-8.99577367e-16,1.00000000e-08,2.72609827e-18,1.00000000e-08,4.39420745e-16,1.00000000e-08,6.57671113e-16,1.00000000e-08,-6.60815655e-19,1.00000000e-08,2.81152271e-09,1.00000000e-08,6.14238475e-01,1.00000000e-08,4.10920894e-02,1.00000000e-08,4.31932603e-01,1.00000000e-08,4.31932600e-01,1.00000000e-08,3.55679148e+08,1.00000000e-08,1.69614805e+08,1.00000000e-08,2.69950346e+07,1.00000000e-08,2.41825486e+01,0.840,0.500,sky130
