 isweep, gm, i_id, id, i_cgg, cgg, i_cgs, cgs, i_cgd, cgd, i_cds, cds, i_css, css, i_cdd, cdd, i_gds, gds, i_vth, vth, i_vdsat, vdsat, i_vgs, vgs, i_vds, vds, i_rds, rds, i_wt, wt, i_ft, ft, i_gm_id, gm_id, L, pdk
 1.00000000e-09, 1.71305896e-08, 1.00000000e-09, 9.99497404e-10, 1.00000000e-09, 6.46766889e-16, 1.00000000e-09 -1.35625492e-16, 1.00000000e-09, 2.50746223e-19, 1.00000000e-09, 6.63340258e-17, 1.00000000e-09, 9.93468463e-17, 1.00000000e-09 -7.66187271e-20, 1.00000000e-09, 4.69572291e-10, 1.00000000e-09, 8.88524265e-01, 1.00000000e-09, 4.07865627e-02, 1.00000000e-09, 5.03073614e-01, 1.00000000e-09, 5.03073614e-01, 1.00000000e-09, 2.12959755e+09, 1.00000000e-09, 2.64864975e+07, 1.00000000e-09, 4.21545700e+06, 1.00000000e-09, 1.71392037e+01 , .300, SKY130
 1.50000000e-09, 2.51381177e-08, 1.50000000e-09, 1.50470495e-09, 1.50000000e-09, 6.60760421e-16, 1.50000000e-09 -1.61276999e-16, 1.50000000e-09, 3.06652011e-19, 1.50000000e-09, 7.84464335e-17, 1.50000000e-09, 1.17497721e-16, 1.50000000e-09 -1.00525081e-19, 1.50000000e-09, 6.94997885e-10, 1.50000000e-09, 8.88455414e-01, 1.50000000e-09, 4.08467418e-02, 1.50000000e-09, 5.26616179e-01, 1.50000000e-09, 5.26616179e-01, 1.50000000e-09, 1.43885330e+09, 1.50000000e-09, 3.80442244e+07, 1.50000000e-09, 6.05492636e+06, 1.50000000e-09, 1.67063434e+01 , .300, SKY130
 2.00000000e-09, 3.31404507e-08, 2.00000000e-09, 2.01194559e-09, 2.00000000e-09, 6.73202838e-16, 2.00000000e-09 -1.82496563e-16, 2.00000000e-09, 3.53038186e-19, 2.00000000e-09, 8.84082697e-17, 2.00000000e-09, 1.32426533e-16, 2.00000000e-09 -1.20258458e-19, 2.00000000e-09, 9.18422374e-10, 2.00000000e-09, 8.88405565e-01, 2.00000000e-09, 4.09065115e-02, 2.00000000e-09, 5.43661304e-01, 2.00000000e-09, 5.43661303e-01, 2.00000000e-09, 1.08882365e+09, 2.00000000e-09, 4.92280318e+07, 2.00000000e-09, 7.83488459e+06, 2.00000000e-09, 1.64718424e+01 , .300, SKY130
 2.50000000e-09, 4.09100782e-08, 2.50000000e-09, 2.50522463e-09, 2.50000000e-09, 6.84110526e-16, 2.50000000e-09 -2.00317667e-16, 2.50000000e-09, 3.92089512e-19, 2.50000000e-09, 9.67387784e-17, 2.50000000e-09, 1.44911013e-16, 2.50000000e-09 -1.36814397e-19, 2.50000000e-09, 1.13363875e-09, 2.50000000e-09, 8.88367513e-01, 2.50000000e-09, 4.09641448e-02, 2.50000000e-09, 5.56672484e-01, 2.50000000e-09, 5.56672483e-01, 2.50000000e-09, 8.82115222e+08, 2.50000000e-09, 5.98003929e+07, 2.50000000e-09, 9.51752813e+06, 2.50000000e-09, 1.63299042e+01 , .300, SKY130
 3.00000000e-09, 4.87230525e-08, 3.00000000e-09, 3.00145768e-09, 3.00000000e-09, 6.94143590e-16, 3.00000000e-09 -2.16241168e-16, 3.00000000e-09, 4.27051647e-19, 3.00000000e-09, 1.04156899e-16, 3.00000000e-09, 1.56028402e-16, 3.00000000e-09 -1.51598253e-19, 3.00000000e-09, 1.34850344e-09, 3.00000000e-09, 8.88335923e-01, 3.00000000e-09, 4.10217130e-02, 3.00000000e-09, 5.67474022e-01, 3.00000000e-09, 5.67474021e-01, 3.00000000e-09, 7.41562809e+08, 3.00000000e-09, 7.01916048e+07, 3.00000000e-09, 1.11713409e+07, 3.00000000e-09, 1.62331300e+01 , .300, SKY130
 3.50000000e-09, 5.65828242e-08, 3.50000000e-09, 3.50058803e-09, 3.50000000e-09, 7.03460006e-16, 3.50000000e-09 -2.30711866e-16, 3.50000000e-09, 4.58877485e-19, 3.50000000e-09, 1.10878865e-16, 3.50000000e-09, 1.66102664e-16, 3.50000000e-09 -1.65027143e-19, 3.50000000e-09, 1.56322498e-09, 3.50000000e-09, 8.88308896e-01, 3.50000000e-09, 4.10792550e-02, 3.50000000e-09, 5.76715785e-01, 3.50000000e-09, 5.76715784e-01, 3.50000000e-09, 6.39703185e+08, 3.50000000e-09, 8.04350265e+07, 3.50000000e-09, 1.28016321e+07, 3.50000000e-09, 1.61638055e+01 , .300, SKY130
 4.00000000e-09, 6.44536248e-08, 4.00000000e-09, 4.00019331e-09, 4.00000000e-09, 7.12136606e-16, 4.00000000e-09 -2.43964480e-16, 4.00000000e-09, 4.88066809e-19, 4.00000000e-09, 1.17019745e-16, 4.00000000e-09, 1.75306193e-16, 4.00000000e-09 -1.77321001e-19, 4.00000000e-09, 1.77693100e-09, 4.00000000e-09, 8.88285367e-01, 4.00000000e-09, 4.11365254e-02, 4.00000000e-09, 5.84760912e-01, 4.00000000e-09, 5.84760911e-01, 4.00000000e-09, 5.62768054e+08, 4.00000000e-09, 9.05073891e+07, 4.00000000e-09, 1.44046984e+07, 4.00000000e-09, 1.61126275e+01 , .300, SKY130
 4.50000000e-09, 7.23314085e-08, 4.50000000e-09, 4.49993019e-09, 4.50000000e-09, 7.20264604e-16, 4.50000000e-09 -2.56212769e-16, 4.50000000e-09, 5.15078454e-19, 4.50000000e-09, 1.22682899e-16, 4.50000000e-09, 1.83793854e-16, 4.50000000e-09 -1.88679361e-19, 4.50000000e-09, 1.98960800e-09, 4.50000000e-09, 8.88264547e-01, 4.50000000e-09, 4.11935131e-02, 4.50000000e-09, 5.91879901e-01, 4.50000000e-09, 5.91879899e-01, 4.50000000e-09, 5.02611569e+08, 4.50000000e-09, 1.00423383e+08, 4.50000000e-09, 1.59828779e+07, 4.50000000e-09, 1.60738957e+01 , .300, SKY130
 5.00000000e-09, 8.02164765e-08, 5.00000000e-09, 4.99976603e-09, 5.00000000e-09, 7.27919360e-16, 5.00000000e-09 -2.67620103e-16, 5.00000000e-09, 5.40263897e-19, 5.00000000e-09, 1.27947001e-16, 5.00000000e-09, 1.91683527e-16, 5.00000000e-09 -1.99254530e-19, 5.00000000e-09, 2.20134528e-09, 5.00000000e-09, 8.88245878e-01, 5.00000000e-09, 4.12502363e-02, 5.00000000e-09, 5.98263563e-01, 5.00000000e-09, 5.98263561e-01, 5.00000000e-09, 4.54267674e+08, 5.00000000e-09, 1.10199674e+08, 5.00000000e-09, 1.75388229e+07, 5.00000000e-09, 1.60440461e+01 , .300, SKY130
 5.50000000e-09, 8.81087023e-08, 5.50000000e-09, 5.49966095e-09, 5.50000000e-09, 7.35160508e-16, 5.50000000e-09 -2.78310145e-16, 5.50000000e-09, 5.63889511e-19, 5.50000000e-09, 1.32871473e-16, 5.50000000e-09, 1.99064250e-16, 5.50000000e-09 -2.09161724e-19, 5.50000000e-09, 2.41220769e-09, 5.50000000e-09, 8.88228958e-01, 5.50000000e-09, 4.13067083e-02, 5.50000000e-09, 6.04049009e-01, 5.50000000e-09, 6.04049008e-01, 5.50000000e-09, 4.14558002e+08, 5.50000000e-09, 1.19849613e+08, 5.50000000e-09, 1.90746583e+07, 5.50000000e-09, 1.60207517e+01 , .300, SKY130
 6.00000000e-09, 9.60079936e-08, 6.00000000e-09, 5.99958935e-09, 6.00000000e-09, 7.42036431e-16, 6.00000000e-09 -2.88379526e-16, 6.00000000e-09, 5.86163702e-19, 6.00000000e-09, 1.37502650e-16, 6.00000000e-09, 2.06005452e-16, 6.00000000e-09 -2.18490936e-19, 6.00000000e-09, 2.62225087e-09, 6.00000000e-09, 8.88213490e-01, 6.00000000e-09, 4.13629411e-02, 6.00000000e-09, 6.09338299e-01, 6.00000000e-09, 6.09338297e-01, 6.00000000e-09, 3.81351766e+08, 6.00000000e-09, 1.29384474e+08, 6.00000000e-09, 2.05921786e+07, 6.00000000e-09, 1.60024275e+01 , .300, SKY130
 6.50000000e-09, 1.03914349e-07, 6.50000000e-09, 6.49953906e-09, 6.50000000e-09, 7.48587044e-16, 6.50000000e-09 -2.97905499e-16, 6.50000000e-09, 6.07253289e-19, 6.50000000e-09, 1.41877502e-16, 6.50000000e-09, 2.12562529e-16, 6.50000000e-09 -2.27314095e-19, 6.50000000e-09, 2.83152481e-09, 6.50000000e-09, 8.88199244e-01, 6.50000000e-09, 4.14189456e-02, 6.50000000e-09, 6.14209485e-01, 6.50000000e-09, 6.14209483e-01, 6.50000000e-09, 3.53166604e+08, 6.50000000e-09, 1.38813983e+08, 6.50000000e-09, 2.20929315e+07, 6.50000000e-09, 1.59879567e+01 , .300, SKY130
 7.00000000e-09, 1.11827752e-07, 7.00000000e-09, 6.99950205e-09, 7.00000000e-09, 7.54845645e-16, 7.00000000e-09 -3.06950862e-16, 7.00000000e-09, 6.27294024e-19, 7.00000000e-09, 1.46026028e-16, 7.00000000e-09, 2.18780434e-16, 7.00000000e-09 -2.35689668e-19, 7.00000000e-09, 3.04007256e-09, 7.00000000e-09, 8.88186042e-01, 7.00000000e-09, 4.14747315e-02, 7.00000000e-09, 6.18723550e-01, 7.00000000e-09, 6.18723548e-01, 7.00000000e-09, 3.28939517e+08, 7.00000000e-09, 1.48146516e+08, 7.00000000e-09, 2.35782503e+07, 7.00000000e-09, 1.59765297e+01 , .300, SKY130
 7.50000000e-09, 1.19748178e-07, 7.50000000e-09, 7.49947308e-09, 7.50000000e-09, 7.60840350e-16, 7.50000000e-09 -3.15567465e-16, 7.50000000e-09, 6.46398116e-19, 7.50000000e-09, 1.49972958e-16, 7.50000000e-09, 2.24696224e-16, 7.50000000e-09 -2.43665925e-19, 7.50000000e-09, 3.24793167e-09, 7.50000000e-09, 8.88173743e-01, 7.50000000e-09, 4.15303073e-02, 7.50000000e-09, 6.22929047e-01, 7.50000000e-09, 6.22929044e-01, 7.50000000e-09, 3.07888251e+08, 7.50000000e-09, 1.57389364e+08, 7.50000000e-09, 2.50492952e+07, 7.50000000e-09, 1.59675456e+01 , .300, SKY130
 8.00000000e-09, 1.27675645e-07, 8.00000000e-09, 7.99945199e-09, 8.00000000e-09, 7.66595178e-16, 8.00000000e-09 -3.23798746e-16, 8.00000000e-09, 6.64659658e-19, 8.00000000e-09, 1.53738976e-16, 8.00000000e-09, 2.30340894e-16, 8.00000000e-09 -2.51283303e-19, 8.00000000e-09, 3.45513640e-09, 8.00000000e-09, 8.88162231e-01, 8.00000000e-09, 4.15856813e-02, 8.00000000e-09, 6.26865284e-01, 8.00000000e-09, 6.26865281e-01, 8.00000000e-09, 2.89424175e+08, 8.00000000e-09, 1.66548980e+08, 8.00000000e-09, 2.65070934e+07, 8.00000000e-09, 1.59605489e+01 , .300, SKY130
 8.50000000e-09, 1.35610059e-07, 8.50000000e-09, 8.49943331e-09, 8.50000000e-09, 7.72130740e-16, 8.50000000e-09 -3.31681370e-16, 8.50000000e-09, 6.82158149e-19, 8.50000000e-09, 1.57341519e-16, 8.50000000e-09, 2.35740574e-16, 8.50000000e-09 -2.58575942e-19, 8.50000000e-09, 3.66171452e-09, 8.50000000e-09, 8.88151413e-01, 8.50000000e-09, 4.16408597e-02, 8.50000000e-09, 6.30564468e-01, 8.50000000e-09, 6.30564465e-01, 8.50000000e-09, 2.73096112e+08, 8.50000000e-09, 1.75630955e+08, 8.50000000e-09, 2.79525347e+07, 8.50000000e-09, 1.59551883e+01 , .300, SKY130
 9.00000000e-09, 1.43551443e-07, 9.00000000e-09, 8.99941999e-09, 9.00000000e-09, 7.77465008e-16, 9.00000000e-09 -3.39246807e-16, 9.00000000e-09, 6.98961884e-19, 9.00000000e-09, 1.60795530e-16, 9.00000000e-09, 2.40917657e-16, 9.00000000e-09 -2.65573138e-19, 9.00000000e-09, 3.86769378e-09, 9.00000000e-09, 8.88141209e-01, 9.00000000e-09, 4.16958493e-02, 9.00000000e-09, 6.34053404e-01, 9.00000000e-09, 6.34053401e-01, 9.00000000e-09, 2.58552010e+08, 9.00000000e-09, 1.84640392e+08, 9.00000000e-09, 2.93864310e+07, 9.00000000e-09, 1.59511884e+01 , .300, SKY130
 9.50000000e-09, 1.51499703e-07, 9.50000000e-09, 9.49940850e-09, 9.50000000e-09, 7.82613626e-16, 9.50000000e-09 -3.46522104e-16, 9.50000000e-09, 7.15129611e-19, 9.50000000e-09, 1.64113841e-16, 9.50000000e-09, 2.45891368e-16, 9.50000000e-09 -2.72300080e-19, 9.50000000e-09, 4.07309631e-09, 9.50000000e-09, 8.88131555e-01, 9.50000000e-09, 4.17506555e-02, 9.50000000e-09, 6.37354555e-01, 9.50000000e-09, 6.37354552e-01, 9.50000000e-09, 2.45513468e+08, 9.50000000e-09, 1.93581735e+08, 9.50000000e-09, 3.08094899e+07, 9.50000000e-09, 1.59483302e+01 , .300, SKY130
 1.00000000e-08, 1.59455048e-07, 1.00000000e-08, 9.99941506e-09, 1.00000000e-08, 7.87590558e-16, 1.00000000e-08 -3.53531055e-16, 1.00000000e-08, 7.30713060e-19, 1.00000000e-08, 1.67307717e-16, 1.00000000e-08, 2.50678594e-16, 1.00000000e-08 -2.78778923e-19, 1.00000000e-08, 4.27794988e-09, 1.00000000e-08, 8.88122394e-01, 1.00000000e-08, 4.18052851e-02, 1.00000000e-08, 6.40487082e-01, 1.00000000e-08, 6.40487079e-01, 1.00000000e-08, 2.33756829e+08, 1.00000000e-08, 2.02459319e+08, 1.00000000e-08, 3.22224014e+07, 1.00000000e-08, 1.59464376e+01 , .300, SKY130
 1.50000000e-08, 2.40415887e-07, 1.50000000e-08, 1.50647599e-08, 1.50000000e-08, 8.30545138e-16, 1.50000000e-08 -4.13201309e-16, 1.50000000e-08, 8.63660506e-19, 1.50000000e-08, 1.94387371e-16, 1.50000000e-08, 2.91268531e-16, 1.50000000e-08 -3.33855565e-19, 1.50000000e-08, 6.32546361e-09, 1.50000000e-08, 8.88049188e-01, 1.50000000e-08, 4.23495568e-02, 1.50000000e-08, 6.65518738e-01, 1.50000000e-08, 6.65518734e-01, 1.50000000e-08, 1.58091179e+08, 1.50000000e-08, 2.89467575e+08, 1.50000000e-08, 4.60701954e+07, 1.50000000e-08, 1.59588263e+01 , .300, SKY130
 2.00000000e-08, 3.22422493e-07, 2.00000000e-08, 2.01564660e-08, 2.00000000e-08, 8.64399146e-16, 2.00000000e-08 -4.59404553e-16, 2.00000000e-08, 9.66905647e-19, 2.00000000e-08, 2.15228421e-16, 2.00000000e-08, 3.22508356e-16, 2.00000000e-08 -3.76388162e-19, 2.00000000e-08, 8.34046486e-09, 2.00000000e-08, 8.87997242e-01, 2.00000000e-08, 4.28819128e-02, 2.00000000e-08, 6.83281082e-01, 2.00000000e-08, 6.83281076e-01, 2.00000000e-08, 1.19897394e+08, 2.00000000e-08, 3.73001864e+08, 2.00000000e-08, 5.93650905e+07, 2.00000000e-08, 1.59959833e+01 , .300, SKY130
 2.50000000e-08, 4.02113533e-07, 2.50000000e-08, 2.50717702e-08, 2.50000000e-08, 8.91468964e-16, 2.50000000e-08 -4.95947265e-16, 2.50000000e-08, 1.04872337e-18, 2.50000000e-08, 2.31639657e-16, 2.50000000e-08, 3.47108634e-16, 2.50000000e-08 -4.09946224e-19, 2.50000000e-08, 1.02512703e-08, 2.50000000e-08, 8.87958393e-01, 2.50000000e-08, 4.33836655e-02, 2.50000000e-08, 6.96564688e-01, 2.50000000e-08, 6.96564681e-01, 2.50000000e-08, 9.75488865e+07, 2.50000000e-08, 4.51068461e+08, 2.50000000e-08, 7.17897752e+07, 2.50000000e-08, 1.60384979e+01 , .300, SKY130
 3.00000000e-08, 4.82841327e-07, 3.00000000e-08, 3.00225777e-08, 3.00000000e-08, 9.14836997e-16, 3.00000000e-08 -5.27254241e-16, 3.00000000e-08, 1.11891755e-18, 3.00000000e-08, 2.45651675e-16, 3.00000000e-08, 3.68112871e-16, 3.00000000e-08 -4.38632829e-19, 3.00000000e-08, 1.21459020e-08, 3.00000000e-08, 8.87926388e-01, 3.00000000e-08, 4.38782178e-02, 3.00000000e-08, 7.07508470e-01, 3.00000000e-08, 7.07508462e-01, 3.00000000e-08, 8.23322961e+07, 3.00000000e-08, 5.27789462e+08, 3.00000000e-08, 8.40003018e+07, 3.00000000e-08, 1.60826073e+01 , .300, SKY130
 3.50000000e-08, 5.64619699e-07, 3.50000000e-08, 3.50124303e-08, 3.50000000e-08, 9.35441282e-16, 3.50000000e-08 -5.54699105e-16, 3.50000000e-08, 1.18052000e-18, 3.50000000e-08, 2.57900340e-16, 3.50000000e-08, 3.86474079e-16, 3.50000000e-08 -4.63728660e-19, 3.50000000e-08, 1.40280463e-08, 3.50000000e-08, 8.87899147e-01, 3.50000000e-08, 4.43666300e-02, 3.50000000e-08, 7.16823130e-01, 3.50000000e-08, 7.16823120e-01, 3.50000000e-08, 7.12857642e+07, 3.50000000e-08, 6.03586468e+08, 3.50000000e-08, 9.60637700e+07, 3.50000000e-08, 1.61262641e+01 , .300, SKY130
 4.00000000e-08, 6.46862168e-07, 4.00000000e-08, 4.00081845e-08, 4.00000000e-08, 9.53771117e-16, 4.00000000e-08 -5.79002241e-16, 4.00000000e-08, 1.23511851e-18, 4.00000000e-08, 2.68720625e-16, 4.00000000e-08, 4.02694289e-16, 4.00000000e-08 -4.85908565e-19, 4.00000000e-08, 1.58871726e-08, 4.00000000e-08, 8.87875572e-01, 4.00000000e-08, 4.48462941e-02, 4.00000000e-08, 7.24884426e-01, 4.00000000e-08, 7.24884414e-01, 4.00000000e-08, 6.29438619e+07, 4.00000000e-08, 6.78215304e+08, 4.00000000e-08, 1.07941318e+08, 4.00000000e-08, 1.61682460e+01 , .300, SKY130
 4.50000000e-08, 7.29449502e-07, 4.50000000e-08, 4.50052120e-08, 4.50000000e-08, 9.70266659e-16, 4.50000000e-08 -6.00791114e-16, 4.50000000e-08, 1.28410366e-18, 4.50000000e-08, 2.78401138e-16, 4.50000000e-08, 4.17206072e-16, 4.50000000e-08 -5.05757586e-19, 4.50000000e-08, 1.77233980e-08, 4.50000000e-08, 8.87854816e-01, 4.50000000e-08, 4.53173912e-02, 4.50000000e-08, 7.31981525e-01, 4.50000000e-08, 7.31981512e-01, 4.50000000e-08, 5.64225888e+07, 4.50000000e-08, 7.51803120e+08, 4.50000000e-08, 1.19653183e+08, 4.50000000e-08, 1.62081117e+01 , .300, SKY130
 5.00000000e-08, 8.12340399e-07, 5.00000000e-08, 5.00033792e-08, 5.00000000e-08, 9.85259987e-16, 5.00000000e-08 -6.20533314e-16, 5.00000000e-08, 1.32851394e-18, 5.00000000e-08, 2.87156088e-16, 5.00000000e-08, 4.30330494e-16, 5.00000000e-08 -5.23711149e-19, 5.00000000e-08, 1.95382334e-08, 5.00000000e-08, 8.87836284e-01, 5.00000000e-08, 4.57804541e-02, 5.00000000e-08, 7.38318367e-01, 5.00000000e-08, 7.38318352e-01, 5.00000000e-08, 5.11817000e+07, 5.00000000e-08, 8.24493443e+08, 5.00000000e-08, 1.31222207e+08, 5.00000000e-08, 1.62457100e+01 , .300, SKY130
 5.50000000e-08, 8.95491992e-07, 5.50000000e-08, 5.50022278e-08, 5.50000000e-08, 9.98998447e-16, 5.50000000e-08 -6.38574469e-16, 5.50000000e-08, 1.36911803e-18, 5.50000000e-08, 2.95143431e-16, 5.50000000e-08, 4.42304309e-16, 5.50000000e-08 -5.40090952e-19, 5.50000000e-08, 2.13328445e-08, 5.50000000e-08, 8.87819551e-01, 5.50000000e-08, 4.62359166e-02, 5.50000000e-08, 7.44040192e-01, 5.50000000e-08, 7.44040176e-01, 5.50000000e-08, 4.68760742e+07, 5.50000000e-08, 8.96389774e+08, 5.50000000e-08, 1.42664863e+08, 5.50000000e-08, 1.62810131e+01 , .300, SKY130
 6.00000000e-08, 9.78867478e-07, 6.00000000e-08, 6.00014649e-08, 6.00000000e-08, 1.01167256e-15, 6.00000000e-08 -6.55179026e-16, 6.00000000e-08, 1.40650478e-18, 6.00000000e-08, 3.02483744e-16, 6.00000000e-08, 4.53308247e-16, 6.00000000e-08 -5.55142974e-19, 6.00000000e-08, 2.31082861e-08, 6.00000000e-08, 8.87804302e-01, 6.00000000e-08, 4.66841740e-02, 6.00000000e-08, 7.49254494e-01, 6.00000000e-08, 7.49254477e-01, 6.00000000e-08, 4.32745205e+07, 6.00000000e-08, 9.67573422e+08, 6.00000000e-08, 1.53994093e+08, 6.00000000e-08, 1.63140597e+01 , .300, SKY130
 6.50000000e-08, 1.06243533e-06, 6.50000000e-08, 6.50009379e-08, 6.50000000e-08, 1.02343240e-15, 6.50000000e-08 -6.70554113e-16, 6.50000000e-08, 1.44113593e-18, 6.50000000e-08, 3.09271273e-16, 6.50000000e-08, 4.63483572e-16, 6.50000000e-08 -5.69059749e-19, 6.50000000e-08, 2.48655272e-08, 6.50000000e-08, 8.87790298e-01, 6.50000000e-08, 4.71255904e-02, 6.50000000e-08, 7.54043059e-01, 6.50000000e-08, 7.54043040e-01, 6.50000000e-08, 4.02163200e+07, 6.50000000e-08, 1.03810993e+09, 6.50000000e-08, 1.65220326e+08, 6.50000000e-08, 1.63449231e+01 , .300, SKY130
 7.00000000e-08, 1.14616780e-06, 7.00000000e-08, 7.00005641e-08, 7.00000000e-08, 1.03439831e-15, 7.00000000e-08 -6.84865021e-16, 7.00000000e-08, 1.47338031e-18, 7.00000000e-08, 3.15581085e-16, 7.00000000e-08, 4.72942805e-16, 7.00000000e-08 -5.81994819e-19, 7.00000000e-08, 2.66054508e-08, 7.00000000e-08, 8.87777353e-01, 7.00000000e-08, 4.75604990e-02, 7.00000000e-08, 7.58469517e-01, 7.00000000e-08, 7.58469497e-01, 7.00000000e-08, 3.75862829e+07, 7.00000000e-08, 1.10805266e+09, 7.00000000e-08, 1.76352058e+08, 7.00000000e-08, 1.63736938e+01 , .300, SKY130
 7.50000000e-08, 1.23003992e-06, 7.50000000e-08, 7.50002883e-08, 7.50000000e-08, 1.04466830e-15, 7.50000000e-08 -6.98245770e-16, 7.50000000e-08, 1.50353721e-18, 7.50000000e-08, 3.21473946e-16, 7.50000000e-08, 4.81777026e-16, 7.50000000e-08 -5.94072598e-19, 7.50000000e-08, 2.83288573e-08, 7.50000000e-08, 8.87765319e-01, 7.50000000e-08, 4.79892042e-02, 7.50000000e-08, 7.62584316e-01, 7.50000000e-08, 7.62584294e-01, 7.50000000e-08, 3.52996943e+07, 7.50000000e-08, 1.17744544e+09, 7.50000000e-08, 1.87396262e+08, 7.50000000e-08, 1.64004693e+01 , .300, SKY130
 8.00000000e-08, 1.31402927e-06, 8.00000000e-08, 8.00000830e-08, 8.00000000e-08, 1.05432328e-15, 8.00000000e-08 -7.10806597e-16, 8.00000000e-08, 1.53185303e-18, 8.00000000e-08, 3.26999757e-16, 8.00000000e-08, 4.90061036e-16, 8.00000000e-08 -6.05395353e-19, 8.00000000e-08, 3.00364796e-08, 8.00000000e-08, 8.87754078e-01, 8.00000000e-08, 4.84119863e-02, 8.00000000e-08, 7.66428126e-01, 8.00000000e-08, 7.66428103e-01, 8.00000000e-08, 3.32928496e+07, 8.00000000e-08, 1.24632482e+09, 8.00000000e-08, 1.98358756e+08, 8.00000000e-08, 1.64253488e+01 , .300, SKY130
 8.50000000e-08, 1.39811534e-06, 8.50000000e-08, 8.49999258e-08, 8.50000000e-08, 1.06343081e-15, 8.50000000e-08 -7.22639261e-16, 8.50000000e-08, 1.55853298e-18, 8.50000000e-08, 3.32199996e-16, 8.50000000e-08, 4.97857006e-16, 8.50000000e-08 -6.16048154e-19, 8.50000000e-08, 3.17289868e-08, 8.50000000e-08, 8.87743532e-01, 8.50000000e-08, 4.88291022e-02, 8.50000000e-08, 7.70034198e-01, 8.50000000e-08, 7.70034173e-01, 8.50000000e-08, 3.15169219e+07, 8.50000000e-08, 1.31472150e+09, 8.50000000e-08, 2.09244425e+08, 8.50000000e-08, 1.64484302e+01 , .300, SKY130
 9.00000000e-08, 1.48227945e-06, 9.00000000e-08, 8.99998026e-08, 9.00000000e-08, 1.07204793e-15, 9.00000000e-08 -7.33820978e-16, 9.00000000e-08, 1.58374989e-18, 9.00000000e-08, 3.37109520e-16, 9.00000000e-08, 5.05217187e-16, 9.00000000e-08 -6.26102544e-19, 9.00000000e-08, 3.34069940e-08, 9.00000000e-08, 8.87733601e-01, 9.00000000e-08, 4.92407896e-02, 9.00000000e-08, 7.73430061e-01, 9.00000000e-08, 7.73430034e-01, 9.00000000e-08, 2.99338515e+07, 9.00000000e-08, 1.38266155e+09, 9.00000000e-08, 2.20057420e+08, 9.00000000e-08, 1.64698078e+01 , .300, SKY130
