 isweep, gm, i_id, id, i_cgg, cgg, i_cgs, cgs, i_cgd, cgd, i_cds, cds, i_css, css, i_cdd, cdd, i_gds, gds, i_vth, vth, i_vdsat, vdsat, i_vgs, vgs, i_vds, vds, i_rds, rds, i_wt, wt, i_ft, ft, i_gm_id, gm_id, L, pdk
 1.00000000e-09, 2.85016140e-08, 1.00000000e-09, 9.99583304e-10, 1.00000000e-09, 3.80528447e-16, 1.00000000e-09 -7.03052164e-17, 1.00000000e-09, 4.17661855e-19, 1.00000000e-09, 4.27258185e-17, 1.00000000e-09, 6.39601391e-17, 1.00000000e-09 -2.08945946e-19, 1.00000000e-09, 1.63163493e-09, 1.00000000e-09, 7.89160616e-01, 1.00000000e-09, 3.91319411e-02, 1.00000000e-09, 4.20836965e-01, 1.00000000e-09, 4.20836965e-01, 1.00000000e-09, 6.12882195e+08, 1.00000000e-09, 7.49000876e+07, 1.00000000e-09, 1.19207192e+07, 1.00000000e-09, 2.85134955e+01 , .150, SKY130
 1.50000000e-09, 4.27871320e-08, 1.50000000e-09, 1.50582430e-09, 1.50000000e-09, 3.85736752e-16, 1.50000000e-09 -7.83880721e-17, 1.50000000e-09, 4.51845823e-19, 1.50000000e-09, 4.72439710e-17, 1.50000000e-09, 7.07288717e-17, 1.50000000e-09 -2.26057060e-19, 1.50000000e-09, 2.39931234e-09, 1.50000000e-09, 7.89158511e-01, 1.50000000e-09, 3.91352375e-02, 1.50000000e-09, 4.34460097e-01, 1.50000000e-09, 4.34460096e-01, 1.50000000e-09, 4.16786087e+08, 1.50000000e-09, 1.10923140e+08, 1.50000000e-09, 1.76539661e+07, 1.50000000e-09, 2.84144252e+01 , .150, SKY130
 2.00000000e-09, 5.70693310e-08, 2.00000000e-09, 2.01422609e-09, 2.00000000e-09, 3.89874253e-16, 2.00000000e-09 -8.46347617e-17, 2.00000000e-09, 4.76892105e-19, 2.00000000e-09, 5.07031868e-17, 2.00000000e-09, 7.59114140e-17, 2.00000000e-09 -2.38346546e-19, 2.00000000e-09, 3.15494568e-09, 2.00000000e-09, 7.89157010e-01, 2.00000000e-09, 3.91384956e-02, 2.00000000e-09, 4.44171355e-01, 2.00000000e-09, 4.44171354e-01, 2.00000000e-09, 3.16962668e+08, 2.00000000e-09, 1.46378815e+08, 2.00000000e-09, 2.32969119e+07, 2.00000000e-09, 2.83331307e+01 , .150, SKY130
 2.50000000e-09, 7.08363594e-08, 2.50000000e-09, 2.50613134e-09, 2.50000000e-09, 3.93235304e-16, 2.50000000e-09 -8.96195004e-17, 2.50000000e-09, 4.96079076e-19, 2.50000000e-09, 5.34449120e-17, 2.50000000e-09, 8.00191479e-17, 2.50000000e-09 -2.47621114e-19, 2.50000000e-09, 3.87538718e-09, 2.50000000e-09, 7.89155879e-01, 2.50000000e-09, 3.91416116e-02, 2.50000000e-09, 4.51489992e-01, 2.50000000e-09, 4.51489991e-01, 2.50000000e-09, 2.58038733e+08, 2.50000000e-09, 1.80137334e+08, 2.50000000e-09, 2.86697472e+07, 2.50000000e-09, 2.82652223e+01 , .150, SKY130
 3.00000000e-09, 8.46597014e-08, 3.00000000e-09, 3.00166376e-09, 3.00000000e-09, 3.96180514e-16, 3.00000000e-09 -9.39318067e-17, 3.00000000e-09, 5.12133943e-19, 3.00000000e-09, 5.58042684e-17, 3.00000000e-09, 8.35540874e-17, 3.00000000e-09 -2.55288473e-19, 3.00000000e-09, 4.59278029e-09, 3.00000000e-09, 7.89154943e-01, 3.00000000e-09, 3.91447220e-02, 3.00000000e-09, 4.57549998e-01, 3.00000000e-09, 4.57549997e-01, 3.00000000e-09, 2.17733037e+08, 3.00000000e-09, 2.13689716e+08, 3.00000000e-09, 3.40097745e+07, 3.00000000e-09, 2.82042588e+01 , .150, SKY130
 3.50000000e-09, 9.85404823e-08, 3.50000000e-09, 3.50073531e-09, 3.50000000e-09, 3.98815995e-16, 3.50000000e-09 -9.77520091e-17, 3.50000000e-09, 5.25951833e-19, 3.50000000e-09, 5.78851838e-17, 3.50000000e-09, 8.66719081e-17, 3.50000000e-09 -2.61819149e-19, 3.50000000e-09, 5.30829964e-09, 3.50000000e-09, 7.89154143e-01, 3.50000000e-09, 3.91478309e-02, 3.50000000e-09, 4.62728685e-01, 3.50000000e-09, 4.62728684e-01, 3.50000000e-09, 1.88384241e+08, 3.50000000e-09, 2.47082573e+08, 3.50000000e-09, 3.93244128e+07, 3.50000000e-09, 2.81485099e+01 , .150, SKY130
 4.00000000e-09, 1.12397943e-07, 4.00000000e-09, 4.00033323e-09, 4.00000000e-09, 4.01197068e-16, 4.00000000e-09 -1.01175355e-16, 4.00000000e-09, 5.38021650e-19, 4.00000000e-09, 5.97429031e-17, 4.00000000e-09, 8.94553606e-17, 4.00000000e-09 -2.67471441e-19, 4.00000000e-09, 6.01859823e-09, 4.00000000e-09, 7.89153447e-01, 4.00000000e-09, 3.91509227e-02, 4.00000000e-09, 4.67230506e-01, 4.00000000e-09, 4.67230505e-01, 4.00000000e-09, 1.66151646e+08, 4.00000000e-09, 2.80156440e+08, 4.00000000e-09, 4.45882823e+07, 4.00000000e-09, 2.80971450e+01 , .150, SKY130
 4.50000000e-09, 1.26223792e-07, 4.50000000e-09, 4.50005919e-09, 4.50000000e-09, 4.03372904e-16, 4.50000000e-09 -1.04282396e-16, 4.50000000e-09, 5.48727532e-19, 4.50000000e-09, 6.14234461e-17, 4.50000000e-09, 9.19733821e-17, 4.50000000e-09 -2.72443821e-19, 4.50000000e-09, 6.72388596e-09, 4.50000000e-09, 7.89152832e-01, 4.50000000e-09, 3.91539978e-02, 4.50000000e-09, 4.71210952e-01, 4.50000000e-09, 4.71210951e-01, 4.50000000e-09, 1.48723522e+08, 4.50000000e-09, 3.12920849e+08, 4.50000000e-09, 4.98028999e+07, 4.50000000e-09, 2.80493625e+01 , .150, SKY130
 5.00000000e-09, 1.40019720e-07, 5.00000000e-09, 4.99989109e-09, 5.00000000e-09, 4.05380212e-16, 5.00000000e-09 -1.07132202e-16, 5.00000000e-09, 5.58343948e-19, 5.00000000e-09, 6.29603838e-17, 5.00000000e-09, 9.42762626e-17, 5.00000000e-09 -2.76876785e-19, 5.00000000e-09, 7.42473575e-09, 5.00000000e-09, 7.89152281e-01, 5.00000000e-09, 3.91570578e-02, 5.00000000e-09, 4.74779292e-01, 5.00000000e-09, 4.74779291e-01, 5.00000000e-09, 1.34684928e+08, 5.00000000e-09, 3.45403442e+08, 5.00000000e-09, 5.49726651e+07, 5.00000000e-09, 2.80045540e+01 , .150, SKY130
 5.50000000e-09, 1.53786465e-07, 5.50000000e-09, 5.49978545e-09, 5.50000000e-09, 4.07246194e-16, 5.50000000e-09 -1.09768075e-16, 5.50000000e-09, 5.67069100e-19, 5.50000000e-09, 6.43782498e-17, 5.50000000e-09, 9.64007545e-17, 5.50000000e-09 -2.80871175e-19, 5.50000000e-09, 8.12156689e-09, 5.50000000e-09, 7.89151781e-01, 5.50000000e-09, 3.91601044e-02, 5.50000000e-09, 4.78013466e-01, 5.50000000e-09, 4.78013465e-01, 5.50000000e-09, 1.23128950e+08, 5.50000000e-09, 3.77625297e+08, 5.50000000e-09, 6.01009327e+07, 5.50000000e-09, 2.79622662e+01 , .150, SKY130
 6.00000000e-09, 1.67524931e-07, 6.00000000e-09, 5.99971483e-09, 6.00000000e-09, 4.08991729e-16, 6.00000000e-09 -1.12222929e-16, 6.00000000e-09, 5.75051407e-19, 6.00000000e-09, 6.56956352e-17, 6.00000000e-09, 9.83747086e-17, 6.00000000e-09 -2.84502069e-19, 6.00000000e-09, 8.81473222e-09, 6.00000000e-09, 7.89151324e-01, 6.00000000e-09, 3.91631385e-02, 6.00000000e-09, 4.80971211e-01, 6.00000000e-09, 4.80971209e-01, 6.00000000e-09, 1.13446441e+08, 6.00000000e-09, 4.09604691e+08, 6.00000000e-09, 6.51906114e+07, 6.00000000e-09, 2.79221489e+01 , .150, SKY130
 6.50000000e-09, 1.81236181e-07, 6.50000000e-09, 6.49966543e-09, 6.50000000e-09, 4.10633234e-16, 6.50000000e-09 -1.14522420e-16, 6.50000000e-09, 5.82404985e-19, 6.50000000e-09, 6.69269939e-17, 6.50000000e-09, 1.00219778e-16, 6.50000000e-09 -2.87826890e-19, 6.50000000e-09, 9.50453694e-09, 6.50000000e-09, 7.89150903e-01, 6.50000000e-09, 3.91661613e-02, 6.50000000e-09, 4.83696502e-01, 6.50000000e-09, 4.83696500e-01, 6.50000000e-09, 1.05212911e+08, 6.50000000e-09, 4.41357800e+08, 6.50000000e-09, 7.02442756e+07, 6.50000000e-09, 2.78839246e+01 , .150, SKY130
 7.00000000e-09, 1.94921313e-07, 7.00000000e-09, 6.99963105e-09, 7.00000000e-09, 4.12183870e-16, 7.00000000e-09 -1.16686958e-16, 7.00000000e-09, 5.89219476e-19, 7.00000000e-09, 6.80837961e-17, 7.00000000e-09, 1.01953146e-16, 7.00000000e-09 -2.90890526e-19, 7.00000000e-09, 1.01912457e-08, 7.00000000e-09, 7.89150512e-01, 7.00000000e-09, 3.91691735e-02, 7.00000000e-09, 4.86223597e-01, 7.00000000e-09, 4.86223595e-01, 7.00000000e-09, 9.81234318e+07, 7.00000000e-09, 4.72898935e+08, 7.00000000e-09, 7.52642031e+07, 7.00000000e-09, 2.78473696e+01 , .150, SKY130
 7.50000000e-09, 2.08581245e-07, 7.50000000e-09, 7.49960415e-09, 7.50000000e-09, 4.13654340e-16, 7.50000000e-09 -1.18733043e-16, 7.50000000e-09, 5.95566512e-19, 7.50000000e-09, 6.91752922e-17, 7.50000000e-09, 1.03588671e-16, 7.50000000e-09 -2.93728692e-19, 7.50000000e-09, 1.08750812e-08, 7.50000000e-09, 7.89150148e-01, 7.50000000e-09, 3.91721761e-02, 7.50000000e-09, 4.88579672e-01, 7.50000000e-09, 4.88579670e-01, 7.50000000e-09, 9.19533365e+07, 7.50000000e-09, 5.04240436e+08, 7.50000000e-09, 8.02523578e+07, 7.50000000e-09, 2.78123005e+01 , .150, SKY130
 8.00000000e-09, 2.22216977e-07, 8.00000000e-09, 7.99958458e-09, 8.00000000e-09, 4.15053506e-16, 8.00000000e-09 -1.20674245e-16, 8.00000000e-09, 6.01504360e-19, 8.00000000e-09, 7.02090761e-17, 8.00000000e-09, 1.05137730e-16, 8.00000000e-09 -2.96370316e-19, 8.00000000e-09, 1.15562444e-08, 8.00000000e-09, 7.89149807e-01, 8.00000000e-09, 3.91751695e-02, 8.00000000e-09, 4.90786686e-01, 8.00000000e-09, 4.90786683e-01, 8.00000000e-09, 8.65333029e+07, 8.00000000e-09, 5.35393567e+08, 8.00000000e-09, 8.52105327e+07, 8.00000000e-09, 2.77785646e+01 , .150, SKY130
 8.50000000e-09, 2.35829296e-07, 8.50000000e-09, 8.49956788e-09, 8.50000000e-09, 4.16388767e-16, 8.50000000e-09 -1.22521837e-16, 8.50000000e-09, 6.07080949e-19, 8.50000000e-09, 7.11914440e-17, 8.50000000e-09, 1.06609755e-16, 8.50000000e-09 -2.98839103e-19, 8.50000000e-09, 1.22349048e-08, 8.50000000e-09, 7.89149486e-01, 8.50000000e-09, 3.91781545e-02, 8.50000000e-09, 4.92862596e-01, 8.50000000e-09, 4.92862593e-01, 8.50000000e-09, 8.17333702e+07, 8.50000000e-09, 5.66368054e+08, 8.50000000e-09, 9.01402754e+07, 8.50000000e-09, 2.77460336e+01 , .150, SKY130
 9.00000000e-09, 2.49419072e-07, 9.00000000e-09, 8.99955584e-09, 9.00000000e-09, 4.17666396e-16, 9.00000000e-09 -1.24285329e-16, 9.00000000e-09, 6.12336289e-19, 9.00000000e-09, 7.21276961e-17, 9.00000000e-09, 1.08012687e-16, 9.00000000e-09 -3.01154769e-19, 9.00000000e-09, 1.29112187e-08, 9.00000000e-09, 7.89149184e-01, 9.00000000e-09, 3.91811314e-02, 9.00000000e-09, 4.94822312e-01, 9.00000000e-09, 4.94822310e-01, 9.00000000e-09, 7.74520222e+07, 9.00000000e-09, 5.97172946e+08, 9.00000000e-09, 9.50430262e+07, 9.00000000e-09, 2.77145980e+01 , .150, SKY130
 9.50000000e-09, 2.62986995e-07, 9.50000000e-09, 9.49954623e-09, 9.50000000e-09, 4.18891738e-16, 9.50000000e-09 -1.25972789e-16, 9.50000000e-09, 6.17304042e-19, 9.50000000e-09, 7.30223234e-17, 9.50000000e-09, 1.09353253e-16, 9.50000000e-09 -3.03333846e-19, 9.50000000e-09, 1.35853199e-08, 9.50000000e-09, 7.89148897e-01, 9.50000000e-09, 3.91841009e-02, 9.50000000e-09, 4.96678318e-01, 9.50000000e-09, 4.96678315e-01, 9.50000000e-09, 7.36088664e+07, 9.50000000e-09, 6.27816143e+08, 9.50000000e-09, 9.99200424e+07, 9.50000000e-09, 2.76841639e+01 , .150, SKY130
 1.00000000e-08, 2.76532754e-07, 1.00000000e-08, 9.99950219e-09, 1.00000000e-08, 4.20069318e-16, 1.00000000e-08 -1.27591029e-16, 1.00000000e-08, 6.22012513e-19, 1.00000000e-08, 7.38791137e-17, 1.00000000e-08, 1.10637129e-16, 1.00000000e-08 -3.05390207e-19, 1.00000000e-08, 1.42572806e-08, 1.00000000e-08, 7.89148624e-01, 1.00000000e-08, 3.91870630e-02, 1.00000000e-08, 4.98441062e-01, 1.00000000e-08, 4.98441059e-01, 1.00000000e-08, 7.01396027e+07, 1.00000000e-08, 6.58302672e+08, 1.00000000e-08, 1.04772124e+08, 1.00000000e-08, 2.76546521e+01 , .150, SKY130
 1.50000000e-08, 4.12542461e-07, 1.50000000e-08, 1.50589701e-08, 1.50000000e-08, 4.30008308e-16, 1.50000000e-08 -1.41128012e-16, 1.50000000e-08, 6.59334824e-19, 1.50000000e-08, 8.10047671e-17, 1.50000000e-08, 1.21314982e-16, 1.50000000e-08 -3.21364193e-19, 1.50000000e-08, 2.09599201e-08, 1.50000000e-08, 7.89146438e-01, 1.50000000e-08, 3.92167065e-02, 1.50000000e-08, 5.12590333e-01, 1.50000000e-08, 5.12590329e-01, 1.50000000e-08, 4.77101055e+07, 1.50000000e-08, 9.59382535e+08, 1.50000000e-08, 1.52690473e+08, 1.50000000e-08, 2.73951312e+01 , .150, SKY130
 2.00000000e-08, 5.47379356e-07, 2.00000000e-08, 2.01371694e-08, 2.00000000e-08, 4.37656113e-16, 2.00000000e-08 -1.51417030e-16, 2.00000000e-08, 6.85336272e-19, 2.00000000e-08, 8.63743801e-17, 2.00000000e-08, 1.29361684e-16, 2.00000000e-08 -3.32118090e-19, 2.00000000e-08, 2.75512280e-08, 2.00000000e-08, 7.89144872e-01, 2.00000000e-08, 3.92459931e-02, 2.00000000e-08, 5.22725867e-01, 2.00000000e-08, 5.22725862e-01, 2.00000000e-08, 3.62960228e+07, 2.00000000e-08, 1.25070652e+09, 2.00000000e-08, 1.99056126e+08, 2.00000000e-08, 2.71825372e+01 , .150, SKY130
 2.50000000e-08, 6.76760923e-07, 2.50000000e-08, 2.50604523e-08, 2.50000000e-08, 4.43745106e-16, 2.50000000e-08 -1.59542341e-16, 2.50000000e-08, 7.04493591e-19, 2.50000000e-08, 9.05887760e-17, 2.50000000e-08, 1.35677385e-16, 2.50000000e-08 -3.39816474e-19, 2.50000000e-08, 3.38457135e-08, 2.50000000e-08, 7.89143685e-01, 2.50000000e-08, 3.92740557e-02, 2.50000000e-08, 5.30412685e-01, 2.50000000e-08, 5.30412678e-01, 2.50000000e-08, 2.95458390e+07, 2.50000000e-08, 1.52511186e+09, 2.50000000e-08, 2.42729091e+08, 2.50000000e-08, 2.70051360e+01 , .150, SKY130
 3.00000000e-08, 8.05914575e-07, 3.00000000e-08, 3.00193474e-08, 3.00000000e-08, 4.48989745e-16, 3.00000000e-08 -1.66499225e-16, 3.00000000e-08, 7.19963249e-19, 3.00000000e-08, 9.41799852e-17, 3.00000000e-08, 1.41059288e-16, 3.00000000e-08 -3.45875782e-19, 3.00000000e-08, 4.01102270e-08, 3.00000000e-08, 7.89142698e-01, 3.00000000e-08, 3.93020587e-02, 3.00000000e-08, 5.36799347e-01, 3.00000000e-08, 5.36799338e-01, 3.00000000e-08, 2.49312975e+07, 3.00000000e-08, 1.79495096e+09, 3.00000000e-08, 2.85675319e+08, 3.00000000e-08, 2.68465055e+01 , .150, SKY130
 3.50000000e-08, 9.34859493e-07, 3.50000000e-08, 3.50106871e-08, 3.50000000e-08, 4.53614866e-16, 3.50000000e-08 -1.72605305e-16, 3.50000000e-08, 7.32850011e-19, 3.50000000e-08, 9.73195862e-17, 3.50000000e-08, 1.45764477e-16, 3.50000000e-08 -3.50803422e-19, 3.50000000e-08, 4.63522600e-08, 3.50000000e-08, 7.89141853e-01, 3.50000000e-08, 3.93300225e-02, 3.50000000e-08, 5.42272082e-01, 3.50000000e-08, 5.42272072e-01, 3.50000000e-08, 2.15739211e+07, 3.50000000e-08, 2.06091017e+09, 3.50000000e-08, 3.28004041e+08, 3.50000000e-08, 2.67021179e+01 , .150, SKY130
 4.00000000e-08, 1.06296864e-06, 4.00000000e-08, 4.00068797e-08, 4.00000000e-08, 4.57744061e-16, 4.00000000e-08 -1.78035463e-16, 4.00000000e-08, 7.43778783e-19, 4.00000000e-08, 1.00102285e-16, 4.00000000e-08, 1.49934853e-16, 4.00000000e-08 -3.54887309e-19, 4.00000000e-08, 5.25459061e-08, 4.00000000e-08, 7.89141116e-01, 4.00000000e-08, 3.93578213e-02, 4.00000000e-08, 5.47043956e-01, 4.00000000e-08, 5.47043944e-01, 4.00000000e-08, 1.90309783e+07, 4.00000000e-08, 2.32218990e+09, 4.00000000e-08, 3.69588002e+08, 4.00000000e-08, 2.65696461e+01 , .150, SKY130
 4.50000000e-08, 1.19022661e-06, 4.50000000e-08, 4.50043460e-08, 4.50000000e-08, 4.61478959e-16, 4.50000000e-08 -1.82931010e-16, 4.50000000e-08, 7.53210103e-19, 4.50000000e-08, 1.02603729e-16, 4.50000000e-08, 1.53683768e-16, 4.50000000e-08 -3.58334004e-19, 4.50000000e-08, 5.86935683e-08, 4.50000000e-08, 7.89140462e-01, 4.50000000e-08, 3.93854582e-02, 4.50000000e-08, 5.51275381e-01, 4.50000000e-08, 5.51275368e-01, 4.50000000e-08, 1.70376419e+07, 4.50000000e-08, 2.57915683e+09, 4.50000000e-08, 4.10485558e+08, 4.50000000e-08, 2.64469260e+01 , .150, SKY130
 5.00000000e-08, 1.31669005e-06, 5.00000000e-08, 5.00028126e-08, 5.00000000e-08, 4.64893667e-16, 5.00000000e-08 -1.87394266e-16, 5.00000000e-08, 7.61465397e-19, 5.00000000e-08, 1.04878445e-16, 5.00000000e-08, 1.57092922e-16, 5.00000000e-08 -3.61285878e-19, 5.00000000e-08, 6.48002362e-08, 5.00000000e-08, 7.89139874e-01, 5.00000000e-08, 3.94129496e-02, 5.00000000e-08, 5.55078926e-01, 5.00000000e-08, 5.55078911e-01, 5.00000000e-08, 1.54320425e+07, 5.00000000e-08, 2.83223917e+09, 5.00000000e-08, 4.50764864e+08, 5.00000000e-08, 2.63323198e+01 , .150, SKY130
 5.50000000e-08, 1.44240180e-06, 5.50000000e-08, 5.50018565e-08, 5.50000000e-08, 4.68042538e-16, 5.50000000e-08 -1.91499931e-16, 5.50000000e-08, 7.68773846e-19, 5.50000000e-08, 1.06966120e-16, 5.50000000e-08, 1.60221789e-16, 5.50000000e-08 -3.63843557e-19, 5.50000000e-08, 7.08696313e-08, 5.50000000e-08, 7.89139341e-01, 5.50000000e-08, 3.94403075e-02, 5.50000000e-08, 5.58535015e-01, 5.50000000e-08, 5.58534999e-01, 5.50000000e-08, 1.41104163e+07, 5.50000000e-08, 3.08177501e+09, 5.50000000e-08, 4.90479726e+08, 5.50000000e-08, 2.62246020e+01 , .150, SKY130
 6.00000000e-08, 1.56740139e-06, 6.00000000e-08, 6.00012270e-08, 6.00000000e-08, 4.70966861e-16, 6.00000000e-08 -1.95304511e-16, 6.00000000e-08, 7.75304846e-19, 6.00000000e-08, 1.08896696e-16, 6.00000000e-08, 1.63115234e-16, 6.00000000e-08 -3.66080784e-19, 6.00000000e-08, 7.69049027e-08, 6.00000000e-08, 7.89138851e-01, 6.00000000e-08, 3.94675422e-02, 6.00000000e-08, 5.61703298e-01, 6.00000000e-08, 5.61703281e-01, 6.00000000e-08, 1.30030722e+07, 6.00000000e-08, 3.32805027e+09, 6.00000000e-08, 5.29675651e+08, 6.00000000e-08, 2.61228223e+01 , .150, SKY130
 6.50000000e-08, 1.69172543e-06, 6.50000000e-08, 6.50007955e-08, 6.50000000e-08, 4.73698791e-16, 6.50000000e-08 -1.98851854e-16, 6.50000000e-08, 7.81187022e-19, 6.50000000e-08, 1.10693348e-16, 6.50000000e-08, 1.65807983e-16, 6.50000000e-08 -3.68053106e-19, 6.50000000e-08, 8.29087614e-08, 6.50000000e-08, 7.89138399e-01, 6.50000000e-08, 3.94946627e-02, 6.50000000e-08, 5.64629248e-01, 6.50000000e-08, 5.64629229e-01, 6.50000000e-08, 1.20614514e+07, 6.50000000e-08, 3.57131042e+09, 6.50000000e-08, 5.68391707e+08, 6.50000000e-08, 2.60262265e+01 , .150, SKY130
 7.00000000e-08, 1.81540708e-06, 7.00000000e-08, 7.00004911e-08, 7.00000000e-08, 4.76263874e-16, 7.00000000e-08 -2.02176680e-16, 7.00000000e-08, 7.86520224e-19, 7.00000000e-08, 1.12374384e-16, 7.00000000e-08, 1.68327474e-16, 7.00000000e-08 -3.69803322e-19, 7.00000000e-08, 8.88835375e-08, 7.00000000e-08, 7.89137980e-01, 7.00000000e-08, 3.95216767e-02, 7.00000000e-08, 5.67348314e-01, 7.00000000e-08, 5.67348293e-01, 7.00000000e-08, 1.12506773e+07, 7.00000000e-08, 3.81176735e+09, 7.00000000e-08, 6.06661615e+08, 7.00000000e-08, 2.59342049e+01 , .150, SKY130
 7.50000000e-08, 1.93847620e-06, 7.50000000e-08, 7.50002681e-08, 7.50000000e-08, 4.78682758e-16, 7.50000000e-08 -2.05306975e-16, 7.50000000e-08, 7.91383439e-19, 7.50000000e-08, 1.13954534e-16, 7.50000000e-08, 1.70695776e-16, 7.50000000e-08 -3.71365049e-19, 7.50000000e-08, 9.48312388e-08, 7.50000000e-08, 7.89137587e-01, 7.50000000e-08, 3.95485911e-02, 7.50000000e-08, 5.69888662e-01, 7.50000000e-08, 5.69888640e-01, 7.50000000e-08, 1.05450484e+07, 7.50000000e-08, 4.04960522e+09, 7.50000000e-08, 6.44514688e+08, 7.50000000e-08, 2.58462569e+01 , .150, SKY130
 8.00000000e-08, 2.06095988e-06, 8.00000000e-08, 8.00001038e-08, 8.00000000e-08, 4.80972389e-16, 8.00000000e-08 -2.08265644e-16, 8.00000000e-08, 7.95840186e-19, 8.00000000e-08, 1.15445829e-16, 8.00000000e-08, 1.72930920e-16, 8.00000000e-08 -3.72765138e-19, 8.00000000e-08, 1.00753619e-07, 8.00000000e-08, 7.89137219e-01, 8.00000000e-08, 3.95754117e-02, 8.00000000e-08, 5.72273050e-01, 8.00000000e-08, 5.72273027e-01, 8.00000000e-08, 9.92520178e+06, 8.00000000e-08, 4.28498585e+09, 8.00000000e-08, 6.81976679e+08, 8.00000000e-08, 2.57619651e+01 , .150, SKY130
 8.50000000e-08, 2.18288256e-06, 8.50000000e-08, 8.49999778e-08, 8.50000000e-08, 4.83146850e-16, 8.50000000e-08 -2.11071679e-16, 8.50000000e-08, 7.99942261e-19, 8.50000000e-08, 1.16858227e-16, 8.50000000e-08, 1.75047827e-16, 8.50000000e-08 -3.74025345e-19, 8.50000000e-08, 1.06652207e-07, 8.50000000e-08, 7.89136872e-01, 8.50000000e-08, 3.96021438e-02, 8.50000000e-08, 5.74520125e-01, 8.50000000e-08, 5.74520100e-01, 8.50000000e-08, 9.37627102e+06, 8.50000000e-08, 4.51805194e+09, 8.50000000e-08, 7.19070299e+08, 8.50000000e-08, 2.56809780e+01 , .150, SKY130
 9.00000000e-08, 2.30426657e-06, 9.00000000e-08, 8.99998806e-08, 9.00000000e-08, 4.85217983e-16, 9.00000000e-08 -2.13741016e-16, 9.00000000e-08, 8.03732438e-19, 9.00000000e-08, 1.18200071e-16, 9.00000000e-08, 1.77059000e-16, 9.00000000e-08 -3.75163524e-19, 9.00000000e-08, 1.12528358e-07, 9.00000000e-08, 7.89136544e-01, 9.00000000e-08, 3.96287920e-02, 9.00000000e-08, 5.76645358e-01, 9.00000000e-08, 5.76645332e-01, 9.00000000e-08, 8.88664882e+06, 9.00000000e-08, 4.74893070e+09, 9.00000000e-08, 7.55815795e+08, 9.00000000e-08, 2.56029959e+01 , .150, SKY130
