 isweep, gm, i_id, id, i_cgg, cgg, i_cgs, cgs, i_cgd, cgd, i_cds, cds, i_css, css, i_cdd, cdd, i_gds, gds, i_vth, vth, i_vdsat, vdsat, i_vgs, vgs, i_vds, vds, i_rds, rds, i_wt, wt, i_ft, ft, i_gm_id, gm_id, L, pdk
 1.00000000e-09, 2.75512731e-08, 1.00000000e-09, 9.99684012e-10, 1.00000000e-09, 3.49172802e-16, 1.00000000e-09 -6.58267115e-17, 1.00000000e-09, 6.37160275e-19, 1.00000000e-09, 3.90306492e-17, 1.00000000e-09, 5.84134549e-17, 1.00000000e-09 -3.09465203e-19, 1.00000000e-09, 2.22780676e-09, 1.00000000e-09, 7.37970303e-01, 1.00000000e-09, 3.90016382e-02, 1.00000000e-09, 3.60360656e-01, 1.00000000e-09, 3.60360656e-01, 1.00000000e-09, 4.48871966e+08, 1.00000000e-09, 7.89044076e+07, 1.00000000e-09, 1.25580265e+07, 1.00000000e-09, 2.75599817e+01 , .150, SKY130
 1.50000000e-09, 4.13955797e-08, 1.50000000e-09, 1.50588051e-09, 1.50000000e-09, 3.53994185e-16, 1.50000000e-09 -7.32463646e-17, 1.50000000e-09, 6.89818796e-19, 1.50000000e-09, 4.30659346e-17, 1.50000000e-09, 6.44575663e-17, 1.50000000e-09 -3.36355425e-19, 1.50000000e-09, 3.25572754e-09, 1.50000000e-09, 7.37966869e-01, 1.50000000e-09, 3.90038111e-02, 1.50000000e-09, 3.74145544e-01, 1.50000000e-09, 3.74145544e-01, 1.50000000e-09, 3.07151009e+08, 1.50000000e-09, 1.16938587e+08, 1.50000000e-09, 1.86113541e+07, 1.50000000e-09, 2.74892857e+01 , .150, SKY130
 2.00000000e-09, 5.48583857e-08, 2.00000000e-09, 1.99966935e-09, 2.00000000e-09, 3.57721569e-16, 2.00000000e-09 -7.88232758e-17, 2.00000000e-09, 7.27414253e-19, 2.00000000e-09, 4.60714988e-17, 2.00000000e-09, 6.89596408e-17, 2.00000000e-09 -3.55167634e-19, 2.00000000e-09, 4.23410790e-09, 2.00000000e-09, 7.37964482e-01, 2.00000000e-09, 3.90058874e-02, 2.00000000e-09, 3.83726251e-01, 2.00000000e-09, 3.83726250e-01, 2.00000000e-09, 2.36177260e+08, 2.00000000e-09, 1.53354985e+08, 2.00000000e-09, 2.44072039e+07, 2.00000000e-09, 2.74337284e+01 , .150, SKY130
 2.50000000e-09, 6.85697553e-08, 2.50000000e-09, 2.50389233e-09, 2.50000000e-09, 3.60915147e-16, 2.50000000e-09 -8.35141847e-17, 2.50000000e-09, 7.57813976e-19, 2.50000000e-09, 4.85828377e-17, 2.50000000e-09, 7.27215777e-17, 2.50000000e-09 -3.70154578e-19, 2.50000000e-09, 5.21515605e-09, 2.50000000e-09, 7.37962584e-01, 2.50000000e-09, 3.90079758e-02, 2.50000000e-09, 3.91346228e-01, 2.50000000e-09, 3.91346228e-01, 2.50000000e-09, 1.91748816e+08, 2.50000000e-09, 1.89988577e+08, 2.50000000e-09, 3.02376212e+07, 2.50000000e-09, 2.73852651e+01 , .150, SKY130
 3.00000000e-09, 8.20938927e-08, 3.00000000e-09, 3.00237547e-09, 3.00000000e-09, 3.63652824e-16, 3.00000000e-09 -8.74812915e-17, 3.00000000e-09, 7.82697032e-19, 3.00000000e-09, 5.06955213e-17, 3.00000000e-09, 7.58864451e-17, 3.00000000e-09 -3.82276088e-19, 3.00000000e-09, 6.17101822e-09, 3.00000000e-09, 7.37961047e-01, 3.00000000e-09, 3.90100157e-02, 3.00000000e-09, 3.97514637e-01, 3.00000000e-09, 3.97514636e-01, 3.00000000e-09, 1.62047812e+08, 3.00000000e-09, 2.25747986e+08, 3.00000000e-09, 3.59289079e+07, 3.00000000e-09, 2.73429801e+01 , .150, SKY130
 3.50000000e-09, 9.55921378e-08, 3.50000000e-09, 3.50092689e-09, 3.50000000e-09, 3.66083350e-16, 3.50000000e-09 -9.09666589e-17, 3.50000000e-09, 8.03959779e-19, 3.50000000e-09, 5.25436629e-17, 3.50000000e-09, 7.86550958e-17, 3.50000000e-09 -3.92531563e-19, 3.50000000e-09, 7.11557902e-09, 3.50000000e-09, 7.37959744e-01, 3.50000000e-09, 3.90120358e-02, 3.50000000e-09, 4.02745639e-01, 3.50000000e-09, 4.02745638e-01, 3.50000000e-09, 1.40536701e+08, 3.50000000e-09, 2.61121238e+08, 3.50000000e-09, 4.15587359e+07, 3.50000000e-09, 2.73048084e+01 , .150, SKY130
 4.00000000e-09, 1.09089612e-07, 4.00000000e-09, 4.00038693e-09, 4.00000000e-09, 3.68279902e-16, 4.00000000e-09 -9.40899151e-17, 4.00000000e-09, 8.22553853e-19, 4.00000000e-09, 5.41937247e-17, 4.00000000e-09, 8.11270646e-17, 4.00000000e-09 -4.01423114e-19, 4.00000000e-09, 8.05215406e-09, 4.00000000e-09, 7.37958610e-01, 4.00000000e-09, 3.90140426e-02, 4.00000000e-09, 4.07295723e-01, 4.00000000e-09, 4.07295722e-01, 4.00000000e-09, 1.24190371e+08, 4.00000000e-09, 2.96213861e+08, 4.00000000e-09, 4.71439002e+07, 4.00000000e-09, 2.72697651e+01 , .150, SKY130
 4.50000000e-09, 1.22570989e-07, 4.50000000e-09, 4.50011983e-09, 4.50000000e-09, 3.70286703e-16, 4.50000000e-09 -9.69232394e-17, 4.50000000e-09, 8.39056814e-19, 4.50000000e-09, 5.56858410e-17, 4.50000000e-09, 8.33624577e-17, 4.50000000e-09 -4.09254929e-19, 4.50000000e-09, 8.98081934e-09, 4.50000000e-09, 7.37957608e-01, 4.50000000e-09, 3.90160357e-02, 4.50000000e-09, 4.11319012e-01, 4.50000000e-09, 4.11319011e-01, 4.50000000e-09, 1.11348415e+08, 4.50000000e-09, 3.31016447e+08, 4.50000000e-09, 5.26829037e+07, 4.50000000e-09, 2.72372722e+01 , .150, SKY130
 5.00000000e-09, 1.36033201e-07, 5.00000000e-09, 4.99995400e-09, 5.00000000e-09, 3.72137158e-16, 5.00000000e-09 -9.95201010e-17, 5.00000000e-09, 8.53885017e-19, 5.00000000e-09, 5.70495782e-17, 5.00000000e-09, 8.54055563e-17, 5.00000000e-09 -4.16244025e-19, 5.00000000e-09, 9.90224925e-09, 5.00000000e-09, 7.37956710e-01, 5.00000000e-09, 3.90180163e-02, 5.00000000e-09, 4.14924757e-01, 5.00000000e-09, 4.14924755e-01, 5.00000000e-09, 1.00987157e+08, 5.00000000e-09, 3.65545871e+08, 5.00000000e-09, 5.81784322e+07, 5.00000000e-09, 2.72068905e+01 , .150, SKY130
 5.50000000e-09, 1.49476424e-07, 5.50000000e-09, 5.49984703e-09, 5.50000000e-09, 3.73856533e-16, 5.50000000e-09 -1.01920406e-16, 5.50000000e-09, 8.67343335e-19, 5.50000000e-09, 5.83069187e-17, 5.50000000e-09, 8.72892837e-17, 5.50000000e-09 -4.22548103e-19, 5.50000000e-09, 1.08171566e-08, 5.50000000e-09, 7.37955896e-01, 5.50000000e-09, 3.90199856e-02, 5.50000000e-09, 4.18191937e-01, 5.50000000e-09, 4.18191935e-01, 5.50000000e-09, 9.24457357e+07, 5.50000000e-09, 3.99822956e+08, 5.50000000e-09, 6.36337998e+07, 5.50000000e-09, 2.71782876e+01 , .150, SKY130
 6.00000000e-09, 1.62901172e-07, 6.00000000e-09, 5.99977628e-09, 6.00000000e-09, 3.75464232e-16, 6.00000000e-09 -1.04154490e-16, 6.00000000e-09, 8.79660095e-19, 6.00000000e-09, 5.94745217e-17, 6.00000000e-09, 8.90385914e-17, 6.00000000e-09 -4.28284541e-19, 6.00000000e-09, 1.17261427e-08, 6.00000000e-09, 7.37955152e-01, 6.00000000e-09, 3.90219446e-02, 6.00000000e-09, 4.21179082e-01, 6.00000000e-09, 4.21179080e-01, 6.00000000e-09, 8.52795356e+07, 6.00000000e-09, 4.33866020e+08, 6.00000000e-09, 6.90519217e+07, 6.00000000e-09, 2.71512078e+01 , .150, SKY130
 6.50000000e-09, 1.76308009e-07, 6.50000000e-09, 6.49972654e-09, 6.50000000e-09, 3.76975491e-16, 6.50000000e-09 -1.06245963e-16, 6.50000000e-09, 8.91010681e-19, 6.50000000e-09, 6.05653211e-17, 6.50000000e-09, 9.06728515e-17, 6.50000000e-09 -4.33543008e-19, 6.50000000e-09, 1.26297118e-08, 6.50000000e-09, 7.37954466e-01, 6.50000000e-09, 3.90238942e-02, 6.50000000e-09, 4.23930740e-01, 6.50000000e-09, 4.23930738e-01, 6.50000000e-09, 7.91783705e+07, 6.50000000e-09, 4.67690906e+08, 6.50000000e-09, 7.44353196e+07, 6.50000000e-09, 2.71254503e+01 , .150, SKY130
 7.00000000e-09, 1.89697608e-07, 7.00000000e-09, 6.99969119e-09, 7.00000000e-09, 3.78402524e-16, 7.00000000e-09 -1.08213609e-16, 7.00000000e-09, 9.01532858e-19, 7.00000000e-09, 6.15895794e-17, 7.00000000e-09, 9.22074355e-17, 7.00000000e-09 -4.38393585e-19, 7.00000000e-09, 1.35282994e-08, 7.00000000e-09, 7.37953831e-01, 7.00000000e-09, 3.90258352e-02, 7.00000000e-09, 4.26481621e-01, 7.00000000e-09, 4.26481619e-01, 7.00000000e-09, 7.39191209e+07, 7.00000000e-09, 5.01311689e+08, 7.00000000e-09, 7.97862333e+07, 7.00000000e-09, 2.71008539e+01 , .150, SKY130
 7.50000000e-09, 2.03070576e-07, 7.50000000e-09, 7.49966475e-09, 7.50000000e-09, 3.79755272e-16, 7.50000000e-09 -1.10072611e-16, 7.50000000e-09, 9.11336753e-19, 7.50000000e-09, 6.25555757e-17, 7.50000000e-09, 9.36547437e-17, 7.50000000e-09 -4.42892038e-19, 7.50000000e-09, 1.44222770e-08, 7.50000000e-09, 7.37953239e-01, 7.50000000e-09, 3.90277682e-02, 7.50000000e-09, 4.28859272e-01, 7.50000000e-09, 4.28859270e-01, 7.50000000e-09, 6.93371790e+07, 7.50000000e-09, 5.34740638e+08, 7.50000000e-09, 8.51066158e+07, 7.50000000e-09, 2.70772872e+01 , .150, SKY130
 8.00000000e-09, 2.16427519e-07, 8.00000000e-09, 7.99964477e-09, 8.00000000e-09, 3.81041952e-16, 8.00000000e-09 -1.11835443e-16, 8.00000000e-09, 9.20511853e-19, 8.00000000e-09, 6.34700961e-17, 8.00000000e-09, 9.50249411e-17, 8.00000000e-09 -4.47083490e-19, 8.00000000e-09, 1.53119686e-08, 8.00000000e-09, 7.37952684e-01, 8.00000000e-09, 3.90296938e-02, 8.00000000e-09, 4.31085933e-01, 8.00000000e-09, 4.31085931e-01, 8.00000000e-09, 6.53083887e+07, 8.00000000e-09, 5.67988689e+08, 8.00000000e-09, 9.03982075e+07, 8.00000000e-09, 2.70546412e+01 , .150, SKY130
 8.50000000e-09, 2.29768964e-07, 8.50000000e-09, 8.49962840e-09, 8.50000000e-09, 3.82269434e-16, 8.50000000e-09 -1.13512475e-16, 8.50000000e-09, 9.29131831e-19, 8.50000000e-09, 6.43387728e-17, 8.50000000e-09, 9.63264637e-17, 8.50000000e-09 -4.51004943e-19, 8.50000000e-09, 1.61976554e-08, 8.50000000e-09, 7.37952162e-01, 8.50000000e-09, 3.90316125e-02, 8.50000000e-09, 4.33179807e-01, 8.50000000e-09, 4.33179805e-01, 8.50000000e-09, 6.17373300e+07, 8.50000000e-09, 6.01065487e+08, 8.50000000e-09, 9.56625434e+07, 8.50000000e-09, 2.70328246e+01 , .150, SKY130
 9.00000000e-09, 2.43095471e-07, 9.00000000e-09, 8.99961616e-09, 9.00000000e-09, 3.83443535e-16, 9.00000000e-09 -1.15112442e-16, 9.00000000e-09, 9.37258138e-19, 9.00000000e-09, 6.51663410e-17, 9.00000000e-09, 9.75664044e-17, 9.00000000e-09 -4.54687147e-19, 9.00000000e-09, 1.70795895e-08, 9.00000000e-09, 7.37951670e-01, 9.00000000e-09, 3.90335247e-02, 9.00000000e-09, 4.35155997e-01, 9.00000000e-09, 4.35155995e-01, 9.00000000e-09, 5.85494164e+07, 9.00000000e-09, 6.33979841e+08, 9.00000000e-09, 1.00901026e+08, 9.00000000e-09, 2.70117599e+01 , .150, SKY130
 9.50000000e-09, 2.56407488e-07, 9.50000000e-09, 9.49960614e-09, 9.50000000e-09, 3.84569215e-16, 9.50000000e-09 -1.16642760e-16, 9.50000000e-09, 9.44942495e-19, 9.50000000e-09, 6.59568142e-17, 9.50000000e-09, 9.87507752e-17, 9.50000000e-09 -4.58155894e-19, 9.50000000e-09, 1.79579898e-08, 9.50000000e-09, 7.37951204e-01, 9.50000000e-09, 3.90354308e-02, 9.50000000e-09, 4.37027155e-01, 9.50000000e-09, 4.37027152e-01, 9.50000000e-09, 5.56855199e+07, 9.50000000e-09, 6.66739506e+08, 9.50000000e-09, 1.06114888e+08, 9.50000000e-09, 2.69913810e+01 , .150, SKY130
 1.00000000e-08, 2.69704495e-07, 1.00000000e-08, 9.99956163e-09, 1.00000000e-08, 3.85650673e-16, 1.00000000e-08 -1.18109689e-16, 1.00000000e-08, 9.52228389e-19, 1.00000000e-08, 6.67135777e-17, 1.00000000e-08, 9.98846466e-17, 1.00000000e-08 -4.61432823e-19, 1.00000000e-08, 1.88329903e-08, 1.00000000e-08, 7.37950761e-01, 1.00000000e-08, 3.90373310e-02, 1.00000000e-08, 4.38803868e-01, 1.00000000e-08, 4.38803865e-01, 1.00000000e-08, 5.30983122e+07, 1.00000000e-08, 6.99349214e+08, 1.00000000e-08, 1.11304884e+08, 1.00000000e-08, 2.69716319e+01 , .150, SKY130
 1.50000000e-08, 4.03588025e-07, 1.50000000e-08, 1.50602285e-08, 1.50000000e-08, 3.94766382e-16, 1.50000000e-08 -1.30359510e-16, 1.50000000e-08, 1.01009921e-18, 1.50000000e-08, 7.29978828e-17, 1.50000000e-08, 1.09300826e-16, 1.50000000e-08 -4.87034270e-19, 1.50000000e-08, 2.75349914e-08, 1.50000000e-08, 7.37947212e-01, 1.50000000e-08, 3.90562987e-02, 1.50000000e-08, 4.53051414e-01, 1.50000000e-08, 4.53051410e-01, 1.50000000e-08, 3.63174255e+07, 1.50000000e-08, 1.02234649e+09, 1.50000000e-08, 1.62711497e+08, 1.50000000e-08, 2.67982670e+01 , .150, SKY130
 2.00000000e-08, 5.36882268e-07, 2.00000000e-08, 2.01408523e-08, 2.00000000e-08, 4.01764337e-16, 2.00000000e-08 -1.39642594e-16, 2.00000000e-08, 1.05056724e-18, 2.00000000e-08, 7.77212556e-17, 2.00000000e-08, 1.16378489e-16, 2.00000000e-08 -5.04458488e-19, 2.00000000e-08, 3.60560207e-08, 2.00000000e-08, 7.37944675e-01, 2.00000000e-08, 3.90749715e-02, 2.00000000e-08, 4.63237641e-01, 2.00000000e-08, 4.63237635e-01, 2.00000000e-08, 2.77346191e+07, 2.00000000e-08, 1.33631141e+09, 2.00000000e-08, 2.12680567e+08, 2.00000000e-08, 2.66563827e+01 , .150, SKY130
 2.50000000e-08, 6.65108836e-07, 2.50000000e-08, 2.50625211e-08, 2.50000000e-08, 4.07320084e-16, 2.50000000e-08 -1.46949406e-16, 2.50000000e-08, 1.08046329e-18, 2.50000000e-08, 8.14173726e-17, 2.50000000e-08, 1.21917061e-16, 2.50000000e-08 -5.17052905e-19, 2.50000000e-08, 4.41602757e-08, 2.50000000e-08, 7.37942756e-01, 2.50000000e-08, 3.90928027e-02, 2.50000000e-08, 4.70942681e-01, 2.50000000e-08, 4.70942674e-01, 2.50000000e-08, 2.26447862e+07, 2.50000000e-08, 1.63288986e+09, 2.50000000e-08, 2.59882493e+08, 2.50000000e-08, 2.65379861e+01 , .150, SKY130
 3.00000000e-08, 7.93486332e-07, 3.00000000e-08, 3.00199870e-08, 3.00000000e-08, 4.12097579e-16, 3.00000000e-08 -1.53193127e-16, 3.00000000e-08, 1.10468988e-18, 3.00000000e-08, 8.45615101e-17, 3.00000000e-08, 1.26628622e-16, 3.00000000e-08 -5.27069423e-19, 3.00000000e-08, 5.22057819e-08, 3.00000000e-08, 7.37941164e-01, 3.00000000e-08, 3.91105619e-02, 3.00000000e-08, 4.77334857e-01, 3.00000000e-08, 4.77334848e-01, 3.00000000e-08, 1.91549664e+07, 3.00000000e-08, 1.92548167e+09, 3.00000000e-08, 3.06449925e+08, 3.00000000e-08, 2.64319346e+01 , .150, SKY130
 3.50000000e-08, 9.22023012e-07, 3.50000000e-08, 3.50110777e-08, 3.50000000e-08, 4.16305318e-16, 3.50000000e-08 -1.58664680e-16, 3.50000000e-08, 1.12494609e-18, 3.50000000e-08, 8.73065603e-17, 3.50000000e-08, 1.30742229e-16, 3.50000000e-08 -5.35302538e-19, 3.50000000e-08, 6.02073992e-08, 3.50000000e-08, 7.37939801e-01, 3.50000000e-08, 3.91282727e-02, 3.50000000e-08, 4.82805606e-01, 3.50000000e-08, 4.82805596e-01, 3.50000000e-08, 1.66092542e+07, 3.50000000e-08, 2.21477596e+09, 3.50000000e-08, 3.52492543e+08, 3.50000000e-08, 2.63351794e+01 , .150, SKY130
 4.00000000e-08, 1.05003674e-06, 4.00000000e-08, 4.00071918e-08, 4.00000000e-08, 4.20056766e-16, 4.00000000e-08 -1.63522766e-16, 4.00000000e-08, 1.14218432e-18, 4.00000000e-08, 8.97361411e-17, 4.00000000e-08, 1.34383155e-16, 4.00000000e-08 -5.42198529e-19, 4.00000000e-08, 6.81329851e-08, 4.00000000e-08, 7.37938615e-01, 4.00000000e-08, 3.91458571e-02, 4.00000000e-08, 4.87569297e-01, 4.00000000e-08, 4.87569285e-01, 4.00000000e-08, 1.46771787e+07, 4.00000000e-08, 2.49974961e+09, 4.00000000e-08, 3.97847507e+08, 4.00000000e-08, 2.62461995e+01 , .150, SKY130
 4.50000000e-08, 1.17748045e-06, 4.50000000e-08, 4.50045838e-08, 4.50000000e-08, 4.23445664e-16, 4.50000000e-08 -1.67896082e-16, 4.50000000e-08, 1.15711193e-18, 4.50000000e-08, 9.19173086e-17, 4.50000000e-08, 1.37651866e-16, 4.50000000e-08 -5.48081352e-19, 4.50000000e-08, 7.59874932e-08, 4.50000000e-08, 7.37937564e-01, 4.50000000e-08, 3.91633204e-02, 4.50000000e-08, 4.91787982e-01, 4.50000000e-08, 4.91787968e-01, 4.50000000e-08, 1.31600604e+07, 4.50000000e-08, 2.78071203e+09, 4.50000000e-08, 4.42564064e+08, 4.50000000e-08, 2.61635671e+01 , .150, SKY130
 5.00000000e-08, 1.30438845e-06, 5.00000000e-08, 5.00030012e-08, 5.00000000e-08, 4.26540416e-16, 5.00000000e-08 -1.71877842e-16, 5.00000000e-08, 1.17022357e-18, 5.00000000e-08, 9.38984168e-17, 5.00000000e-08, 1.40620808e-16, 5.00000000e-08 -5.53175119e-19, 5.00000000e-08, 8.37789972e-08, 5.00000000e-08, 7.37936621e-01, 5.00000000e-08, 3.91806760e-02, 5.00000000e-08, 4.95575458e-01, 5.00000000e-08, 4.95575443e-01, 5.00000000e-08, 1.19361658e+07, 5.00000000e-08, 3.05806532e+09, 5.00000000e-08, 4.86706212e+08, 5.00000000e-08, 2.60862032e+01 , .150, SKY130
 5.50000000e-08, 1.43078404e-06, 5.50000000e-08, 5.50020124e-08, 5.50000000e-08, 4.29391144e-16, 5.50000000e-08 -1.75536024e-16, 5.50000000e-08, 1.18187199e-18, 5.50000000e-08, 9.57146285e-17, 5.50000000e-08, 1.43342666e-16, 5.50000000e-08 -5.57638456e-19, 5.50000000e-08, 9.15135555e-08, 5.50000000e-08, 7.37935765e-01, 5.50000000e-08, 3.91979339e-02, 5.50000000e-08, 4.99012979e-01, 5.50000000e-08, 4.99012963e-01, 5.50000000e-08, 1.09273429e+07, 5.50000000e-08, 3.33212284e+09, 5.50000000e-08, 5.30323821e+08, 5.50000000e-08, 2.60133034e+01 , .150, SKY130
 6.00000000e-08, 1.55669006e-06, 6.00000000e-08, 6.00013607e-08, 6.00000000e-08, 4.32035906e-16, 6.00000000e-08 -1.78922011e-16, 6.00000000e-08, 1.19231804e-18, 6.00000000e-08, 9.73924525e-17, 6.00000000e-08, 1.45857160e-16, 6.00000000e-08 -5.61587814e-19, 6.00000000e-08, 9.91962491e-08, 6.00000000e-08, 7.37934981e-01, 6.00000000e-08, 3.92151025e-02, 6.00000000e-08, 5.02160787e-01, 6.00000000e-08, 5.02160769e-01, 6.00000000e-08, 1.00810263e+07, 6.00000000e-08, 3.60314973e+09, 6.00000000e-08, 5.73459090e+08, 6.00000000e-08, 2.59442460e+01 , .150, SKY130
 6.50000000e-08, 1.68212865e-06, 6.50000000e-08, 6.50009138e-08, 6.50000000e-08, 4.34504323e-16, 6.50000000e-08 -1.82075646e-16, 6.50000000e-08, 1.20175985e-18, 6.50000000e-08, 9.89523932e-17, 6.50000000e-08, 1.48195011e-16, 6.50000000e-08 -5.65111065e-19, 6.50000000e-08, 1.06831416e-07, 6.50000000e-08, 7.37934257e-01, 6.50000000e-08, 3.92321891e-02, 6.50000000e-08, 5.05064789e-01, 6.50000000e-08, 5.05064770e-01, 6.50000000e-08, 9.36054240e+06, 6.50000000e-08, 3.87137380e+09, 6.50000000e-08, 6.16148277e+08, 6.50000000e-08, 2.58785385e+01 , .150, SKY130
 7.00000000e-08, 1.80712030e-06, 7.00000000e-08, 7.00005973e-08, 7.00000000e-08, 4.36819914e-16, 7.00000000e-08 -1.85028458e-16, 7.00000000e-08, 1.21035133e-18, 7.00000000e-08, 1.00410643e-16, 7.00000000e-08, 1.50380480e-16, 7.00000000e-08 -5.68276031e-19, 7.00000000e-08, 1.14422766e-07, 7.00000000e-08, 7.37933586e-01, 7.00000000e-08, 3.92491997e-02, 7.00000000e-08, 5.07760760e-01, 7.00000000e-08, 5.07760740e-01, 7.00000000e-08, 8.73951953e+06, 7.00000000e-08, 4.13699158e+09, 7.00000000e-08, 6.58422659e+08, 7.00000000e-08, 2.58157840e+01 , .150, SKY130
 7.50000000e-08, 1.93168373e-06, 7.50000000e-08, 7.50003674e-08, 7.50000000e-08, 4.39001684e-16, 7.50000000e-08 -1.87805844e-16, 7.50000000e-08, 1.21821426e-18, 7.50000000e-08, 1.01780218e-16, 7.50000000e-08, 1.52433072e-16, 7.50000000e-08 -5.71136074e-19, 7.50000000e-08, 1.21973494e-07, 7.50000000e-08, 7.37932959e-01, 7.50000000e-08, 3.92661399e-02, 7.50000000e-08, 5.10277119e-01, 7.50000000e-08, 5.10277098e-01, 7.50000000e-08, 8.19850251e+06, 7.50000000e-08, 4.40017386e+09, 7.50000000e-08, 7.00309420e+08, 7.50000000e-08, 2.57556570e+01 , .150, SKY130
 8.00000000e-08, 2.05583592e-06, 8.00000000e-08, 8.00001943e-08, 8.00000000e-08, 4.41065217e-16, 8.00000000e-08 -1.90428575e-16, 8.00000000e-08, 1.22544661e-18, 8.00000000e-08, 1.03071745e-16, 8.00000000e-08, 1.54368710e-16, 8.00000000e-08 -5.73733884e-19, 8.00000000e-08, 1.29486370e-07, 8.00000000e-08, 7.37932372e-01, 8.00000000e-08, 3.92830141e-02, 8.00000000e-08, 5.12636814e-01, 8.00000000e-08, 5.12636791e-01, 8.00000000e-08, 7.72282057e+06, 8.00000000e-08, 4.66107016e+09, 8.00000000e-08, 7.41832355e+08, 8.00000000e-08, 2.56978866e+01 , .150, SKY130
 8.50000000e-08, 2.17959245e-06, 8.50000000e-08, 8.50000632e-08, 8.50000000e-08, 4.43023464e-16, 8.50000000e-08 -1.92913869e-16, 8.50000000e-08, 1.23212832e-18, 8.50000000e-08, 1.04294017e-16, 8.50000000e-08, 1.56200570e-16, 8.50000000e-08 -5.76104113e-19, 8.50000000e-08, 1.36963822e-07, 8.50000000e-08, 7.37931819e-01, 8.50000000e-08, 3.92998266e-02, 8.50000000e-08, 5.14858646e-01, 8.50000000e-08, 5.14858621e-01, 8.50000000e-08, 7.30119812e+06, 8.50000000e-08, 4.91981267e+09, 8.50000000e-08, 7.83012505e+08, 8.50000000e-08, 2.56422450e+01 , .150, SKY130
 9.00000000e-08, 2.30296751e-06, 9.00000000e-08, 8.99999633e-08, 9.00000000e-08, 4.44887306e-16, 9.00000000e-08 -1.95276160e-16, 9.00000000e-08, 1.23832542e-18, 9.00000000e-08, 1.05454397e-16, 9.00000000e-08, 1.57939681e-16, 9.00000000e-08 -5.78275239e-19, 9.00000000e-08, 1.44407990e-07, 9.00000000e-08, 7.37931296e-01, 9.00000000e-08, 3.93165809e-02, 9.00000000e-08, 5.16958209e-01, 9.00000000e-08, 5.16958183e-01, 9.00000000e-08, 6.92482458e+06, 9.00000000e-08, 5.17651882e+09, 9.00000000e-08, 8.23868558e+08, 9.00000000e-08, 2.55885384e+01 , .150, SKY130
