 isweep, gm, i_id, id, i_cgg, cgg, i_cgs, cgs, i_cgd, cgd, i_cds, cds, i_css, css, i_cdd, cdd, i_gds, gds, i_vth, vth, i_vdsat, vdsat, i_vgs, vgs, i_vds, vds, i_rds, rds, i_wt, wt, i_ft, ft, i_gm_id, gm_id, L, pdk
 1.00000000e-09, 2.95441858e-08, 1.00000000e-09, 9.99527486e-10, 1.00000000e-09, 4.16973035e-16, 1.00000000e-09 -7.71579690e-17, 1.00000000e-09, 2.96425023e-19, 1.00000000e-09, 4.79466114e-17, 1.00000000e-09, 7.17943000e-17, 1.00000000e-09 -1.52168406e-19, 1.00000000e-09, 1.24440279e-09, 1.00000000e-09, 8.36326788e-01, 1.00000000e-09, 3.90681830e-02, 1.00000000e-09, 4.80698435e-01, 1.00000000e-09, 4.80698435e-01, 1.00000000e-09, 8.03598327e+08, 1.00000000e-09, 7.08539482e+07, 1.00000000e-09, 1.12767561e+07, 1.00000000e-09, 2.95581525e+01 , .150, SKY130
 1.50000000e-09, 4.42816564e-08, 1.50000000e-09, 1.50570567e-09, 1.50000000e-09, 4.22786535e-16, 1.50000000e-09 -8.61369484e-17, 1.50000000e-09, 3.20197790e-19, 1.50000000e-09, 5.30926116e-17, 1.50000000e-09, 7.95046345e-17, 1.50000000e-09 -1.63855841e-19, 1.50000000e-09, 1.83805543e-09, 1.50000000e-09, 8.36325427e-01, 1.50000000e-09, 3.90730793e-02, 1.50000000e-09, 4.94036732e-01, 1.50000000e-09, 4.94036732e-01, 1.50000000e-09, 5.44053233e+08, 1.50000000e-09, 1.04737622e+08, 1.50000000e-09, 1.66695103e+07, 1.50000000e-09, 2.94092380e+01 , .150, SKY130
 2.00000000e-09, 5.89820913e-08, 2.00000000e-09, 2.01398281e-09, 2.00000000e-09, 4.27400915e-16, 2.00000000e-09 -9.30857146e-17, 2.00000000e-09, 3.37591624e-19, 2.00000000e-09, 5.70376231e-17, 2.00000000e-09, 8.54157041e-17, 2.00000000e-09 -1.72227517e-19, 2.00000000e-09, 2.42442017e-09, 2.00000000e-09, 8.36324455e-01, 2.00000000e-09, 3.90779351e-02, 2.00000000e-09, 5.03553773e-01, 2.00000000e-09, 5.03553773e-01, 2.00000000e-09, 4.12469758e+08, 2.00000000e-09, 1.38001790e+08, 2.00000000e-09, 2.19636670e+07, 2.00000000e-09, 2.92862933e+01 , .150, SKY130
 2.50000000e-09, 7.31321509e-08, 2.50000000e-09, 2.50596718e-09, 2.50000000e-09, 4.31150043e-16, 2.50000000e-09 -9.86395943e-17, 2.50000000e-09, 3.50905511e-19, 2.50000000e-09, 6.01691430e-17, 2.50000000e-09, 9.01079765e-17, 2.50000000e-09 -1.78531146e-19, 2.50000000e-09, 2.98516123e-09, 2.50000000e-09, 8.36323723e-01, 2.50000000e-09, 3.90825927e-02, 2.50000000e-09, 5.10735464e-01, 2.50000000e-09, 5.10735463e-01, 2.50000000e-09, 3.34990281e+08, 2.50000000e-09, 1.69621115e+08, 2.50000000e-09, 2.69960388e+07, 2.50000000e-09, 2.91832038e+01 , .150, SKY130
 3.00000000e-09, 8.73172154e-08, 3.00000000e-09, 3.00157376e-09, 3.00000000e-09, 4.34435232e-16, 3.00000000e-09 -1.03449020e-16, 3.00000000e-09, 3.62032927e-19, 3.00000000e-09, 6.28663820e-17, 3.00000000e-09, 9.41495957e-17, 3.00000000e-09 -1.83728604e-19, 3.00000000e-09, 3.54466236e-09, 3.00000000e-09, 8.36323115e-01, 3.00000000e-09, 3.90872509e-02, 3.00000000e-09, 5.16686693e-01, 3.00000000e-09, 5.16686692e-01, 3.00000000e-09, 2.82114317e+08, 3.00000000e-09, 2.00990180e+08, 3.00000000e-09, 3.19885806e+07, 3.00000000e-09, 2.90904780e+01 , .150, SKY130
 3.50000000e-09, 1.01538683e-07, 3.50000000e-09, 3.50065858e-09, 3.50000000e-09, 4.37374939e-16, 3.50000000e-09 -1.07712997e-16, 3.50000000e-09, 3.71598299e-19, 3.50000000e-09, 6.52470100e-17, 3.50000000e-09, 9.77168499e-17, 3.50000000e-09 -1.88143580e-19, 3.50000000e-09, 4.10358525e-09, 3.50000000e-09, 8.36322596e-01, 3.50000000e-09, 3.90919136e-02, 3.50000000e-09, 5.21775662e-01, 3.50000000e-09, 5.21775661e-01, 3.50000000e-09, 2.43689344e+08, 3.50000000e-09, 2.32154781e+08, 3.50000000e-09, 3.69485810e+07, 3.50000000e-09, 2.90055945e+01 , .150, SKY130
 4.00000000e-09, 1.15716870e-07, 4.00000000e-09, 4.00026032e-09, 4.00000000e-09, 4.40031363e-16, 4.00000000e-09 -1.11537189e-16, 4.00000000e-09, 3.79944808e-19, 4.00000000e-09, 6.73739037e-17, 4.00000000e-09, 1.00903937e-16, 4.00000000e-09 -1.91955055e-19, 4.00000000e-09, 4.65923107e-09, 4.00000000e-09, 8.36322144e-01, 4.00000000e-09, 3.90965570e-02, 4.00000000e-09, 5.26202642e-01, 4.00000000e-09, 5.26202641e-01, 4.00000000e-09, 2.14627690e+08, 4.00000000e-09, 2.62974142e+08, 4.00000000e-09, 4.18536346e+07, 4.00000000e-09, 2.89273350e+01 , .150, SKY130
 4.50000000e-09, 1.29845023e-07, 4.50000000e-09, 4.49999056e-09, 4.50000000e-09, 4.42459421e-16, 4.50000000e-09 -1.15010768e-16, 4.50000000e-09, 3.87340832e-19, 4.50000000e-09, 6.92993270e-17, 4.50000000e-09, 1.03789158e-16, 4.50000000e-09 -1.95299816e-19, 4.50000000e-09, 5.21166159e-09, 4.50000000e-09, 8.36321745e-01, 4.50000000e-09, 3.91011804e-02, 4.50000000e-09, 5.30119630e-01, 4.50000000e-09, 5.30119629e-01, 4.50000000e-09, 1.91877385e+08, 4.50000000e-09, 2.93461993e+08, 4.50000000e-09, 4.67059267e+07, 4.50000000e-09, 2.88545101e+01 , .150, SKY130
 5.00000000e-09, 1.43926019e-07, 5.00000000e-09, 4.99982473e-09, 5.00000000e-09, 4.44700019e-16, 5.00000000e-09 -1.18199085e-16, 5.00000000e-09, 3.93977868e-19, 5.00000000e-09, 7.10613832e-17, 5.00000000e-09, 1.06429603e-16, 5.00000000e-09 -1.98274548e-19, 5.00000000e-09, 5.76123457e-09, 5.00000000e-09, 8.36321386e-01, 5.00000000e-09, 3.91057860e-02, 5.00000000e-09, 5.33633382e-01, 5.00000000e-09, 5.33633380e-01, 5.00000000e-09, 1.73573908e+08, 5.00000000e-09, 3.23647431e+08, 5.00000000e-09, 5.15100884e+07, 5.00000000e-09, 2.87862128e+01 , .150, SKY130
 5.50000000e-09, 1.57961684e-07, 5.50000000e-09, 5.49972083e-09, 5.50000000e-09, 4.46783468e-16, 5.50000000e-09 -1.21150081e-16, 5.50000000e-09, 3.99994224e-19, 5.50000000e-09, 7.26879377e-17, 5.50000000e-09, 1.08867019e-16, 5.50000000e-09 -2.00948654e-19, 5.50000000e-09, 6.30821030e-09, 5.50000000e-09, 8.36321061e-01, 5.50000000e-09, 3.91103753e-02, 5.50000000e-09, 5.36820079e-01, 5.50000000e-09, 5.36820078e-01, 5.50000000e-09, 1.58523567e+08, 5.50000000e-09, 3.53553109e+08, 5.50000000e-09, 5.62697250e+07, 5.50000000e-09, 2.87217642e+01 , .150, SKY130
 6.00000000e-09, 1.71953855e-07, 6.00000000e-09, 5.99965205e-09, 6.00000000e-09, 4.48733017e-16, 6.00000000e-09 -1.23900196e-16, 6.00000000e-09, 4.05493432e-19, 6.00000000e-09, 7.42001094e-17, 6.00000000e-09, 1.11133049e-16, 6.00000000e-09 -2.03373784e-19, 6.00000000e-09, 6.85280935e-09, 6.00000000e-09, 8.36320763e-01, 6.00000000e-09, 3.91149496e-02, 6.00000000e-09, 5.39736161e-01, 6.00000000e-09, 5.39736159e-01, 6.00000000e-09, 1.45925554e+08, 6.00000000e-09, 3.83198580e+08, 6.00000000e-09, 6.09879483e+07, 6.00000000e-09, 2.86606379e+01 , .150, SKY130
 6.50000000e-09, 1.85904355e-07, 6.50000000e-09, 6.49960320e-09, 6.50000000e-09, 4.50566930e-16, 6.50000000e-09 -1.26477838e-16, 6.50000000e-09, 4.10555061e-19, 6.50000000e-09, 7.56143166e-17, 6.50000000e-09, 1.13252292e-16, 6.50000000e-09 -2.05589417e-19, 6.50000000e-09, 7.39522263e-09, 6.50000000e-09, 8.36320489e-01, 6.50000000e-09, 3.91195101e-02, 6.50000000e-09, 5.42424611e-01, 6.50000000e-09, 5.42424609e-01, 6.50000000e-09, 1.35222433e+08, 6.50000000e-09, 4.12600977e+08, 6.50000000e-09, 6.56674850e+07, 6.50000000e-09, 2.86024161e+01 , .150, SKY130
 7.00000000e-09, 1.99815014e-07, 7.00000000e-09, 6.99956890e-09, 7.00000000e-09, 4.52299849e-16, 7.00000000e-09 -1.28905622e-16, 7.00000000e-09, 4.15241619e-19, 7.00000000e-09, 7.69435971e-17, 7.00000000e-09, 1.15244283e-16, 7.00000000e-09 -2.07626410e-19, 7.00000000e-09, 7.93561925e-09, 7.00000000e-09, 8.36320234e-01, 7.00000000e-09, 3.91240577e-02, 7.00000000e-09, 5.44918930e-01, 7.00000000e-09, 5.44918928e-01, 7.00000000e-09, 1.26014110e+08, 7.00000000e-09, 4.41775550e+08, 7.00000000e-09, 7.03107625e+07, 7.00000000e-09, 2.85467601e+01 , .150, SKY130
 7.50000000e-09, 2.13687429e-07, 7.50000000e-09, 7.49954334e-09, 7.50000000e-09, 4.53943686e-16, 7.50000000e-09 -1.31201833e-16, 7.50000000e-09, 4.19603053e-19, 7.50000000e-09, 7.81984703e-17, 7.50000000e-09, 1.17124782e-16, 7.50000000e-09 -2.09509310e-19, 7.50000000e-09, 8.47414234e-09, 7.50000000e-09, 8.36319997e-01, 7.50000000e-09, 3.91285934e-02, 7.50000000e-09, 5.47245704e-01, 7.50000000e-09, 5.47245702e-01, 7.50000000e-09, 1.18006042e+08, 7.50000000e-09, 4.70735547e+08, 7.50000000e-09, 7.49198892e+07, 7.50000000e-09, 2.84933922e+01 , .150, SKY130
 8.00000000e-09, 2.27523111e-07, 8.00000000e-09, 7.99952422e-09, 8.00000000e-09, 4.55508286e-16, 8.00000000e-09 -1.33381501e-16, 8.00000000e-09, 4.23679951e-19, 8.00000000e-09, 7.93875645e-17, 8.00000000e-09, 1.18906718e-16, 8.00000000e-09 -2.11257974e-19, 8.00000000e-09, 9.01091849e-09, 8.00000000e-09, 8.36319774e-01, 8.00000000e-09, 3.91331180e-02, 8.00000000e-09, 5.49426399e-01, 8.00000000e-09, 5.49426397e-01, 8.00000000e-09, 1.10976478e+08, 8.00000000e-09, 4.99492804e+08, 8.00000000e-09, 7.94967488e+07, 8.00000000e-09, 2.84420804e+01 , .150, SKY130
 8.50000000e-09, 2.41323386e-07, 8.50000000e-09, 8.49950817e-09, 8.50000000e-09, 4.57001876e-16, 8.50000000e-09 -1.35457128e-16, 8.50000000e-09, 4.27505717e-19, 8.50000000e-09, 8.05180422e-17, 8.50000000e-09, 1.20600823e-16, 8.50000000e-09 -2.12888681e-19, 8.50000000e-09, 9.54605665e-09, 8.50000000e-09, 8.36319565e-01, 8.50000000e-09, 3.91376320e-02, 8.50000000e-09, 5.51478588e-01, 8.50000000e-09, 5.51478586e-01, 8.50000000e-09, 1.04755297e+08, 8.50000000e-09, 5.28057758e+08, 8.50000000e-09, 8.40430024e+07, 8.50000000e-09, 2.83926294e+01 , .150, SKY130
 9.00000000e-09, 2.55089576e-07, 9.00000000e-09, 8.99949635e-09, 9.00000000e-09, 4.58431426e-16, 9.00000000e-09 -1.37439253e-16, 9.00000000e-09, 4.31108221e-19, 9.00000000e-09, 8.15959309e-17, 9.00000000e-09, 1.22216127e-16, 9.00000000e-09 -2.14414959e-19, 9.00000000e-09, 1.00796571e-08, 9.00000000e-09, 8.36319367e-01, 9.00000000e-09, 3.91421362e-02, 9.00000000e-09, 5.53416856e-01, 9.00000000e-09, 5.53416853e-01, 9.00000000e-09, 9.92097238e+07, 9.00000000e-09, 5.56439985e+08, 9.00000000e-09, 8.85601742e+07, 9.00000000e-09, 2.83448724e+01 , .150, SKY130
 9.50000000e-09, 2.68822794e-07, 9.50000000e-09, 9.49948644e-09, 9.50000000e-09, 4.59802876e-16, 9.50000000e-09 -1.39336823e-16, 9.50000000e-09, 4.34510907e-19, 9.50000000e-09, 8.26263392e-17, 9.50000000e-09, 1.23760286e-16, 9.50000000e-09 -2.15848145e-19, 9.50000000e-09, 1.06118052e-08, 9.50000000e-09, 8.36319180e-01, 9.50000000e-09, 3.91466310e-02, 9.50000000e-09, 5.55253418e-01, 9.50000000e-09, 5.55253415e-01, 9.50000000e-09, 9.42346734e+07, 9.50000000e-09, 5.84647919e+08, 9.50000000e-09, 9.30496062e+07, 9.50000000e-09, 2.82986661e+01 , .150, SKY130
 1.00000000e-08, 2.82523181e-07, 1.00000000e-08, 9.99944409e-09, 1.00000000e-08, 4.61121259e-16, 1.00000000e-08 -1.41157399e-16, 1.00000000e-08, 4.37733507e-19, 1.00000000e-08, 8.36135813e-17, 1.00000000e-08, 1.25239763e-16, 1.00000000e-08 -2.17197765e-19, 1.00000000e-08, 1.11425429e-08, 1.00000000e-08, 8.36319002e-01, 1.00000000e-08, 3.91511166e-02, 1.00000000e-08, 5.56998507e-01, 1.00000000e-08, 5.56998504e-01, 1.00000000e-08, 8.97461208e+07, 1.00000000e-08, 6.12687392e+08, 1.00000000e-08, 9.75122269e+07, 1.00000000e-08, 2.82538888e+01 , .150, SKY130
 1.50000000e-08, 4.19507432e-07, 1.50000000e-08, 1.50567591e-08, 1.50000000e-08, 4.72260811e-16, 1.50000000e-08 -1.56414454e-16, 1.50000000e-08, 4.63169741e-19, 1.50000000e-08, 9.18371651e-17, 1.50000000e-08, 1.37563840e-16, 1.50000000e-08 -2.27566350e-19, 1.50000000e-08, 1.64469441e-08, 1.50000000e-08, 8.36317570e-01, 1.50000000e-08, 3.91960718e-02, 1.50000000e-08, 5.71031923e-01, 1.50000000e-08, 5.71031919e-01, 1.50000000e-08, 6.08015685e+07, 1.50000000e-08, 8.88296091e+08, 1.50000000e-08, 1.41376714e+08, 1.50000000e-08, 2.78617350e+01 , .150, SKY130
 2.00000000e-08, 5.54463998e-07, 2.00000000e-08, 2.01309116e-08, 2.00000000e-08, 4.80852051e-16, 2.00000000e-08 -1.68048972e-16, 2.00000000e-08, 4.80757401e-19, 2.00000000e-08, 9.80523032e-17, 2.00000000e-08, 1.46878287e-16, 2.00000000e-08 -2.34401076e-19, 2.00000000e-08, 2.16786870e-08, 2.00000000e-08, 8.36316541e-01, 2.00000000e-08, 3.92405795e-02, 2.00000000e-08, 5.81119940e-01, 2.00000000e-08, 5.81119934e-01, 2.00000000e-08, 4.61282549e+07, 2.00000000e-08, 1.15308648e+09, 2.00000000e-08, 1.83519413e+08, 2.00000000e-08, 2.75429155e+01 , .150, SKY130
 2.50000000e-08, 6.83517638e-07, 2.50000000e-08, 2.50571140e-08, 2.50000000e-08, 4.87716488e-16, 2.50000000e-08 -1.77275595e-16, 2.50000000e-08, 4.93643413e-19, 2.50000000e-08, 1.02949462e-16, 2.50000000e-08, 1.54217679e-16, 2.50000000e-08 -2.39200931e-19, 2.50000000e-08, 2.66936430e-08, 2.50000000e-08, 8.36315757e-01, 2.50000000e-08, 3.92833564e-02, 2.50000000e-08, 5.88805184e-01, 2.50000000e-08, 5.88805177e-01, 2.50000000e-08, 3.74621028e+07, 2.50000000e-08, 1.40146510e+09, 2.50000000e-08, 2.23050099e+08, 2.50000000e-08, 2.72783865e+01 , .150, SKY130
 3.00000000e-08, 8.11801341e-07, 3.00000000e-08, 3.00183783e-08, 3.00000000e-08, 4.93638848e-16, 3.00000000e-08 -1.85192380e-16, 3.00000000e-08, 5.03976001e-19, 3.00000000e-08, 1.07130378e-16, 3.00000000e-08, 1.60483742e-16, 3.00000000e-08 -2.42900521e-19, 3.00000000e-08, 3.16931672e-08, 3.00000000e-08, 8.36315104e-01, 3.00000000e-08, 3.93260870e-02, 3.00000000e-08, 5.95206158e-01, 3.00000000e-08, 5.95206150e-01, 3.00000000e-08, 3.15525424e+07, 3.00000000e-08, 1.64452483e+09, 3.00000000e-08, 2.61734255e+08, 3.00000000e-08, 2.70434775e+01 , .150, SKY130
 3.50000000e-08, 9.39361002e-07, 3.50000000e-08, 3.50101162e-08, 3.50000000e-08, 4.98868131e-16, 3.50000000e-08 -1.92152338e-16, 3.50000000e-08, 5.12521185e-19, 3.50000000e-08, 1.10790693e-16, 3.50000000e-08, 1.65969645e-16, 3.50000000e-08 -2.45843809e-19, 3.50000000e-08, 3.66801006e-08, 3.50000000e-08, 8.36314543e-01, 3.50000000e-08, 3.93687785e-02, 3.50000000e-08, 6.00701978e-01, 3.50000000e-08, 6.00701968e-01, 3.50000000e-08, 2.72627388e+07, 3.50000000e-08, 1.88298459e+09, 3.50000000e-08, 2.99686305e+08, 3.50000000e-08, 2.68311306e+01 , .150, SKY130
 4.00000000e-08, 1.06567242e-06, 4.00000000e-08, 4.00064342e-08, 4.00000000e-08, 5.03543525e-16, 4.00000000e-08 -1.98352913e-16, 4.00000000e-08, 5.19718109e-19, 4.00000000e-08, 1.14040061e-16, 4.00000000e-08, 1.70839702e-16, 4.00000000e-08 -2.48228718e-19, 4.00000000e-08, 4.16341718e-08, 4.00000000e-08, 8.36314054e-01, 4.00000000e-08, 3.94112447e-02, 4.00000000e-08, 6.05504260e-01, 4.00000000e-08, 6.05504248e-01, 4.00000000e-08, 2.40187317e+07, 4.00000000e-08, 2.11634619e+09, 4.00000000e-08, 3.36826958e+08, 4.00000000e-08, 2.66375257e+01 , .150, SKY130
 4.50000000e-08, 1.19077207e-06, 4.50000000e-08, 4.50040199e-08, 4.50000000e-08, 5.07778294e-16, 4.50000000e-08 -2.03952284e-16, 4.50000000e-08, 5.25886097e-19, 4.50000000e-08, 1.16965311e-16, 4.50000000e-08, 1.75224030e-16, 4.50000000e-08 -2.50194499e-19, 4.50000000e-08, 4.65565465e-08, 4.50000000e-08, 8.36313619e-01, 4.50000000e-08, 3.94534858e-02, 4.50000000e-08, 6.09771263e-01, 4.50000000e-08, 6.09771250e-01, 4.50000000e-08, 2.14792564e+07, 4.50000000e-08, 2.34506296e+09, 4.50000000e-08, 3.73228362e+08, 4.50000000e-08, 2.64592379e+01 , .150, SKY130
 5.00000000e-08, 1.31475192e-06, 5.00000000e-08, 5.00025649e-08, 5.00000000e-08, 5.11654872e-16, 5.00000000e-08 -2.09064841e-16, 5.00000000e-08, 5.31247250e-19, 5.00000000e-08, 1.19628946e-16, 5.00000000e-08, 1.79216292e-16, 5.00000000e-08 -2.51836526e-19, 5.00000000e-08, 5.14503887e-08, 5.00000000e-08, 8.36313227e-01, 5.00000000e-08, 3.94955217e-02, 5.00000000e-08, 6.13613947e-01, 5.00000000e-08, 6.13613932e-01, 5.00000000e-08, 1.94361991e+07, 5.00000000e-08, 2.56960695e+09, 5.00000000e-08, 4.08965648e+08, 5.00000000e-08, 2.62936895e+01 , .150, SKY130
 5.50000000e-08, 1.43768548e-06, 5.50000000e-08, 5.50016597e-08, 5.50000000e-08, 5.15233783e-16, 5.50000000e-08 -2.13774210e-16, 5.50000000e-08, 5.35959850e-19, 5.50000000e-08, 1.22076521e-16, 5.50000000e-08, 1.82884756e-16, 5.50000000e-08 -2.53222027e-19, 5.50000000e-08, 5.63180594e-08, 5.50000000e-08, 8.36312870e-01, 5.50000000e-08, 3.95373668e-02, 5.50000000e-08, 6.17111682e-01, 5.50000000e-08, 6.17111666e-01, 5.50000000e-08, 1.77562937e+07, 5.50000000e-08, 2.79035561e+09, 5.50000000e-08, 4.44098888e+08, 5.50000000e-08, 2.61389471e+01 , .150, SKY130
 6.00000000e-08, 1.55963831e-06, 6.00000000e-08, 6.00010637e-08, 6.00000000e-08, 5.18561029e-16, 6.00000000e-08 -2.18143709e-16, 6.00000000e-08, 5.40140771e-19, 6.00000000e-08, 1.24342431e-16, 6.00000000e-08, 1.86280965e-16, 6.00000000e-08 -2.54400109e-19, 6.00000000e-08, 6.11615769e-08, 6.00000000e-08, 8.36312543e-01, 6.00000000e-08, 3.95790337e-02, 6.00000000e-08, 6.20323381e-01, 6.00000000e-08, 6.20323364e-01, 6.00000000e-08, 1.63501344e+07, 6.00000000e-08, 3.00762731e+09, 6.00000000e-08, 4.78678753e+08, 6.00000000e-08, 2.59935110e+01 , .150, SKY130
 6.50000000e-08, 1.68066932e-06, 6.50000000e-08, 6.50006553e-08, 6.50000000e-08, 5.21672453e-16, 6.50000000e-08 -2.22222507e-16, 6.50000000e-08, 5.43878675e-19, 6.50000000e-08, 1.26453316e-16, 6.50000000e-08, 1.89444841e-16, 6.50000000e-08 -2.55407646e-19, 6.50000000e-08, 6.59826947e-08, 6.50000000e-08, 8.36312240e-01, 6.50000000e-08, 3.96205337e-02, 6.50000000e-08, 6.23293992e-01, 6.50000000e-08, 6.23293973e-01, 6.50000000e-08, 1.51554890e+07, 6.50000000e-08, 3.22169460e+09, 6.50000000e-08, 5.12748620e+08, 6.50000000e-08, 2.58561905e+01 , .150, SKY130
 7.00000000e-08, 1.80083103e-06, 7.00000000e-08, 7.00003669e-08, 7.00000000e-08, 5.24596548e-16, 7.00000000e-08 -2.26049571e-16, 7.00000000e-08, 5.47242327e-19, 7.00000000e-08, 1.28430238e-16, 7.00000000e-08, 1.92407951e-16, 7.00000000e-08 -2.56272959e-19, 7.00000000e-08, 7.07829257e-08, 7.00000000e-08, 8.36311958e-01, 7.00000000e-08, 3.96618767e-02, 7.00000000e-08, 6.26058577e-01, 7.00000000e-08, 6.26058556e-01, 7.00000000e-08, 1.41277008e+07, 7.00000000e-08, 3.43279238e+09, 7.00000000e-08, 5.46345876e+08, 7.00000000e-08, 2.57260228e+01 , .150, SKY130
 7.50000000e-08, 1.92017032e-06, 7.50000000e-08, 7.50001578e-08, 7.50000000e-08, 5.27356357e-16, 7.50000000e-08 -2.29656334e-16, 7.50000000e-08, 5.50286078e-19, 7.50000000e-08, 1.30290155e-16, 7.50000000e-08, 1.95195704e-16, 7.50000000e-08 -2.57018228e-19, 7.50000000e-08, 7.55635798e-08, 7.50000000e-08, 8.36311694e-01, 7.50000000e-08, 3.97030713e-02, 7.50000000e-08, 6.28645017e-01, 7.50000000e-08, 6.28644995e-01, 7.50000000e-08, 1.32338886e+07, 7.50000000e-08, 3.64112482e+09, 7.50000000e-08, 5.79503013e+08, 7.50000000e-08, 2.56022171e+01 , .150, SKY130
 8.00000000e-08, 2.03872920e-06, 8.00000000e-08, 8.00000015e-08, 8.00000000e-08, 5.29970797e-16, 8.00000000e-08 -2.33068539e-16, 8.00000000e-08, 5.53053594e-19, 8.00000000e-08, 1.32046923e-16, 8.00000000e-08, 1.97828869e-16, 8.00000000e-08 -2.57661116e-19, 8.00000000e-08, 8.03257974e-08, 8.00000000e-08, 8.36311447e-01, 8.00000000e-08, 3.97441250e-02, 8.00000000e-08, 6.31075851e-01, 8.00000000e-08, 6.31075828e-01, 8.00000000e-08, 1.24493006e+07, 8.00000000e-08, 3.84687083e+09, 8.00000000e-08, 6.12248508e+08, 8.00000000e-08, 2.54841145e+01 , .150, SKY130
 8.50000000e-08, 2.15654560e-06, 8.50000000e-08, 8.49998830e-08, 8.50000000e-08, 5.32455602e-16, 8.50000000e-08 -2.36307550e-16, 8.50000000e-08, 5.55580460e-19, 8.50000000e-08, 1.33712023e-16, 8.50000000e-08, 2.00324651e-16, 8.50000000e-08 -2.58215892e-19, 8.50000000e-08, 8.50705819e-08, 8.50000000e-08, 8.36311213e-01, 8.50000000e-08, 3.97850447e-02, 8.50000000e-08, 6.33369561e-01, 8.50000000e-08, 6.33369536e-01, 8.50000000e-08, 1.17549449e+07, 8.50000000e-08, 4.05018859e+09, 8.50000000e-08, 6.44607534e+08, 8.50000000e-08, 2.53711597e+01 , .150, SKY130
 9.00000000e-08, 2.27365386e-06, 9.00000000e-08, 8.99997914e-08, 9.00000000e-08, 5.34824007e-16, 9.00000000e-08 -2.39391303e-16, 9.00000000e-08, 5.57896034e-19, 9.00000000e-08, 1.35295079e-16, 9.00000000e-08, 2.02697471e-16, 9.00000000e-08 -2.58694231e-19, 9.00000000e-08, 8.97988189e-08, 9.00000000e-08, 8.36310991e-01, 9.00000000e-08, 3.98258362e-02, 9.00000000e-08, 6.35541493e-01, 9.00000000e-08, 6.35541467e-01, 9.00000000e-08, 1.11360039e+07, 9.00000000e-08, 4.25121877e+09, 9.00000000e-08, 6.76602482e+08, 9.00000000e-08, 2.52628792e+01 , .150, SKY130
